;$FILEVERSION=1.3
;$STARTTIME=44470.0593131241
;
;   D:\Documents and Settings\Hypertech\Desktop\2018JL_TazerTextCom.trc
;   Start time: 10/1/2021 01:25:24.653.9
;-------------------------------------------------------------------------------
;   Bus  Name     Connection        Protocol
;   1    USB-Can  USB-Can@pcan_usb  CAN
;-------------------------------------------------------------------------------
;   Message Number
;   |         Time Offset (ms)
;   |         |       Bus
;   |         |       |    Type
;   |         |       |    |       ID (hex)
;   |         |       |    |       |    Reserved
;   |         |       |    |       |    |   Data Length Code
;   |         |       |    |       |    |   |    Data Bytes (hex) ...
;   |         |       |    |       |    |   |    |
;   |         |       |    |       |    |   |    |
;---+-- ------+------ +- --+-- ----+--- +- -+-- -+ -- -- -- -- -- -- --
     1)         0.165 1  Rx        012B -  8    98 1A F4 60 1F FF 7B FF 
     2)         0.421 1  Rx        013F -  8    FF FF C2 44 01 27 00 00 
     3)         1.061 1  Rx        0023 -  8    10 02 10 00 00 00 46 8C 
     4)         1.786 1  Rx        002F -  8    00 00 00 00 00 D6 7C 00 
     5)         2.042 1  Rx        0071 -  8    1F FF 00 00 6D 00 70 6A 
     6)         2.256 1  Rx        0079 -  8    80 00 00 00 00 00 70 F2 
     7)         2.512 1  Rx        007F -  8    41 B9 00 7A 00 00 FF FF 
     8)         2.768 1  Rx        0037 -  8    1F FE 00 00 0A 28 F0 FF 
     9)         2.981 1  Rx        0083 -  8    80 04 00 00 00 00 70 F7 
    10)         3.237 1  Rx        0401 -  8    FD 02 04 0F 00 00 00 00 
    11)         3.664 1  Rx        0085 -  8    20 DD 04 00 00 00 00 1C 
    12)         4.688 1  Rx        0093 -  8    80 FC 50 00 00 00 71 5D 
    13)         5.925 1  Rx        00B1 -  3    00 C0 8B 
    14)         9.210 1  Rx        00AD -  5    01 00 00 20 43 
    15)         9.850 1  Rx        0077 -  2    03 02 
    16)        11.045 1  Rx        0023 -  8    10 02 10 00 00 00 56 41 
    17)        11.813 1  Rx        002F -  8    00 00 00 00 00 D5 7C 00 
    18)        12.069 1  Rx        0087 -  8    00 00 00 00 00 66 70 79 
    19)        12.282 1  Rx        0089 -  8    FF FF FF 6D FF FF 70 FF 
    20)        12.538 1  Rx        008B -  8    00 00 00 00 00 00 00 00 
    21)        12.794 1  Rx        0037 -  8    1F FE 00 00 0A 28 00 80 
    22)        13.007 1  Rx        00A7 -  8    00 00 00 9E 40 9C 70 DC 
    23)        13.647 1  Rx        0095 -  7    00 00 00 00 00 80 D0 
    24)        14.671 1  Rx        00AB -  8    00 00 CD 0D 00 00 80 77 
    25)        15.653 1  Rx        00B3 -  8    00 00 00 00 00 00 80 2C 
    26)        19.962 1  Rx        009B -  8    2A 00 00 55 00 79 00 FF 
    27)        21.029 1  Rx        0023 -  8    10 02 10 00 00 00 66 0B 
    28)        21.797 1  Rx        002F -  8    00 00 00 00 00 D6 7C 00 
    29)        22.010 1  Rx        0071 -  8    1F FF 00 00 6D 00 80 15 
    30)        22.266 1  Rx        0079 -  8    80 00 00 00 00 00 80 8D 
    31)        22.522 1  Rx        007F -  8    41 B9 00 7A 00 00 FF FF 
    32)        22.735 1  Rx        0037 -  8    1F FE 00 00 0A 28 10 4D 
    33)        22.991 1  Rx        0083 -  8    80 04 00 00 00 00 80 88 
    34)        23.247 1  Rx        00DD -  8    0F 36 0F 84 00 80 00 00 
    35)        23.674 1  Rx        0085 -  8    20 DD 04 00 00 00 00 20 
    36)        24.655 1  Rx        0093 -  8    80 FC 50 00 00 00 81 22 
    37)        25.935 1  Rx        00B1 -  3    00 D0 46 
    38)        29.178 1  Rx        00AD -  5    01 00 00 30 8E 
    39)        29.903 1  Rx        0077 -  2    03 02 
    40)        31.055 1  Rx        0023 -  8    10 02 10 00 00 00 76 C6 
    41)        31.823 1  Rx        002F -  8    00 00 00 00 00 D5 7C 00 
    42)        32.036 1  Rx        0087 -  8    00 00 00 00 00 66 80 06 
    43)        32.292 1  Rx        0089 -  8    FF FF FF 6D FF FF 80 FF 
    44)        32.548 1  Rx        008B -  8    00 00 00 00 00 00 00 00 
    45)        32.804 1  Rx        0037 -  8    1F FE 00 00 0A 28 20 07 
    46)        33.018 1  Rx        00A7 -  8    00 00 00 9E 40 9C 80 A3 
    47)        33.700 1  Rx        0095 -  7    00 00 00 00 00 90 1D 
    48)        34.724 1  Rx        00AB -  8    00 00 CD 0D 00 00 90 BA 
    49)        35.706 1  Rx        00B3 -  8    00 00 00 00 00 00 90 E1 
    50)        39.887 1  Rx        009B -  8    2A 00 00 55 00 79 00 FF 
    51)        41.039 1  Rx        0023 -  8    10 02 10 00 00 00 86 B9 
    52)        41.764 1  Rx        002F -  8    00 00 00 00 00 D6 7C 00 
    53)        42.063 1  Rx        0071 -  8    1F FF 00 00 6D 00 90 D8 
    54)        42.276 1  Rx        0079 -  8    80 00 00 00 00 00 90 40 
    55)        42.490 1  Rx        007F -  8    41 B9 00 7A 00 00 FF FF 
    56)        42.746 1  Rx        0037 -  8    1F FE 00 00 0A 28 30 CA 
    57)        43.002 1  Rx        0083 -  8    80 04 00 00 00 00 90 45 
    58)        43.642 1  Rx        0085 -  8    20 DD 04 00 00 00 00 24 
    59)        44.623 1  Rx        0093 -  8    80 FC 50 00 00 00 91 EF 
    60)        45.946 1  Rx        00B1 -  3    00 E0 0C 
    61)        49.018 1  Rx        0129 -  4    2E 00 00 00 
    62)        49.188 1  Rx        00AD -  5    01 00 00 40 D7 
    63)        49.828 1  Rx        0077 -  2    03 02 
    64)        51.066 1  Rx        0023 -  8    10 02 10 00 00 00 96 74 
    65)        51.791 1  Rx        002F -  8    00 00 00 00 00 D6 7C 00 
    66)        52.047 1  Rx        0087 -  8    00 00 00 00 00 66 90 CB 
    67)        52.303 1  Rx        0089 -  8    FF FF FF 6D FF FF 90 FF 
    68)        52.516 1  Rx        008B -  8    00 00 00 00 00 00 00 00 
    69)        52.772 1  Rx        0037 -  8    1F FE 00 00 0A 28 40 93 
    70)        53.028 1  Rx        00A7 -  8    00 00 00 9E 40 9B 90 97 
    71)        53.625 1  Rx        0095 -  7    00 00 00 00 00 A0 57 
    72)        54.607 1  Rx        00AB -  8    00 00 CD 0D 00 00 A0 F0 
    73)        55.631 1  Rx        00B3 -  8    00 00 00 00 00 00 A0 AB 
    74)        57.465 1  Rx        02F2 -  8    00 00 00 00 00 00 00 00 
    75)        59.897 1  Rx        009B -  8    2A 00 00 55 00 79 00 FF 
    76)        61.049 1  Rx        0023 -  8    10 02 10 00 00 00 A6 3E 
    77)        61.775 1  Rx        002F -  8    00 00 00 00 00 D6 7C 00 
    78)        62.073 1  Rx        0071 -  8    1F FF 00 00 6D 00 A0 92 
    79)        62.287 1  Rx        0079 -  8    80 00 00 00 00 00 A0 0A 
    80)        62.500 1  Rx        007F -  8    41 B9 00 7A 00 00 FF FF 
    81)        62.756 1  Rx        0037 -  8    1F FE 00 00 0A 28 50 5E 
    82)        63.012 1  Rx        0083 -  8    80 04 00 00 00 00 A0 0F 
    83)        63.695 1  Rx        0085 -  8    20 DD 04 00 00 00 00 28 
    84)        64.676 1  Rx        0093 -  8    80 FC 50 00 00 00 A1 A5 
    85)        65.956 1  Rx        00B1 -  3    00 F0 C1 
    86)        69.199 1  Rx        00AD -  5    01 00 00 50 1A 
    87)        69.796 1  Rx        0077 -  2    03 02 
    88)        71.076 1  Rx        0023 -  8    10 02 10 00 00 00 B6 F3 
    89)        71.801 1  Rx        002F -  8    00 00 00 00 00 D6 7C 00 
    90)        72.057 1  Rx        0087 -  8    00 00 00 00 00 66 A0 81 
    91)        72.313 1  Rx        0089 -  8    FF FF FF 6D FF FF A0 FF 
    92)        72.527 1  Rx        008B -  8    00 00 00 00 00 00 00 00 
    93)        72.813 1  Rx        0037 -  8    1F FE 00 00 0A 28 60 14 
    94)        73.068 1  Rx        00A7 -  8    00 00 00 9E 40 9B A0 DD 
    95)        73.282 1  Rx        00DD -  8    0F 36 0F 84 00 80 00 00 
    96)        73.708 1  Rx        0095 -  7    00 00 00 00 00 B0 9A 
    97)        74.690 1  Rx        00AB -  8    00 00 CD 0D 00 00 B0 3D 
    98)        75.714 1  Rx        00B3 -  8    00 00 00 00 00 00 B0 66 
    99)        80.023 1  Rx        009B -  8    2A 00 00 55 00 79 00 FF 
   100)        80.322 1  Rx        0133 -  8    00 00 00 00 FF 03 0C FF 
   101)        81.047 1  Rx        0023 -  8    10 02 10 00 00 00 C6 AA 
   102)        81.474 1  Rx        0318 -  8    00 00 00 00 00 00 FF 00 
   103)        81.815 1  Rx        002F -  8    00 00 00 00 00 D6 7C 00 
   104)        82.071 1  Rx        0071 -  8    1F FF 00 00 6D 00 B0 5F 
   105)        82.284 1  Rx        0079 -  8    80 00 00 00 00 00 B0 C7 
   106)        82.540 1  Rx        007F -  8    41 B9 00 7A 00 00 FF FF 
   107)        82.796 1  Rx        0037 -  8    1F FE 00 00 0A 28 70 D9 
   108)        83.010 1  Rx        0083 -  8    80 04 00 00 00 00 B0 C2 
   109)        83.692 1  Rx        0085 -  8    20 DD 04 00 00 00 00 2C 
   110)        84.631 1  Rx        0093 -  8    80 FC 50 00 00 00 B1 68 
   111)        85.570 1  Rx        0125 -  3    00 5E 00 
   112)        85.954 1  Rx        00B1 -  3    00 00 BE 
   113)        87.532 1  Rx        0402 -  8    FD 03 3F FF FF FF FF FF 
   114)        89.239 1  Rx        00AD -  5    01 00 00 60 50 
   115)        89.879 1  Rx        0077 -  2    03 02 
   116)        91.116 1  Rx        0023 -  8    10 02 10 00 00 00 D6 67 
   117)        91.842 1  Rx        002F -  8    00 00 00 00 00 D6 7C 00 
   118)        92.098 1  Rx        0087 -  8    00 00 00 00 00 66 B0 4C 
   119)        92.354 1  Rx        0089 -  8    FF FF FF 6D FF FF B0 FF 
   120)        92.567 1  Rx        008B -  8    00 00 00 00 00 00 00 00 
   121)        92.823 1  Rx        0037 -  8    1F FE 00 00 0A 28 80 A6 
   122)        93.079 1  Rx        00A7 -  8    00 00 00 9E 40 9B B0 10 
   123)        93.676 1  Rx        0095 -  7    00 00 00 00 00 C0 C3 
   124)        94.700 1  Rx        00AB -  8    00 00 CD 0D 00 00 C0 64 
   125)        95.681 1  Rx        00B3 -  8    00 00 00 00 00 00 C0 3F 
   126)        99.948 1  Rx        009B -  8    2A 00 00 55 00 79 00 FF 
   127)       100.247 1  Rx        012B -  8    98 1A F4 60 1F FF 7B FF 
   128)       100.460 1  Rx        013F -  8    FF FF C2 44 01 27 00 00 
   129)       101.100 1  Rx        0023 -  8    10 02 10 00 00 00 E6 2D 
   130)       101.825 1  Rx        002F -  8    00 00 00 00 00 D5 7C 00 
   131)       102.081 1  Rx        0071 -  8    1F FF 00 00 6D 00 C0 06 
   132)       102.295 1  Rx        0079 -  8    80 00 00 00 00 00 C0 9E 
   133)       102.551 1  Rx        007F -  8    41 B9 00 7A 00 00 FF FF 
   134)       102.807 1  Rx        0037 -  8    1F FE 00 00 0A 28 90 6B 
   135)       103.020 1  Rx        0083 -  8    80 04 00 00 00 00 C0 9B 
   136)       103.745 1  Rx        0085 -  8    20 DD 04 00 00 00 00 30 
   137)       104.727 1  Rx        0093 -  8    80 FC 50 00 00 00 C1 31 
   138)       105.964 1  Rx        00B1 -  3    00 10 73 
   139)       109.249 1  Rx        00AD -  5    01 00 00 70 9D 
   140)       109.847 1  Rx        0077 -  2    03 02 
   141)       111.127 1  Rx        0023 -  8    10 02 10 00 00 00 F6 E0 
   142)       111.852 1  Rx        002F -  8    00 00 00 00 00 D6 7C 00 
   143)       112.065 1  Rx        0087 -  8    00 00 00 00 00 66 C0 15 
   144)       112.321 1  Rx        0089 -  8    FF FF FF 6D FF FF C0 FF 
   145)       112.577 1  Rx        008B -  8    00 00 00 00 00 00 00 00 
   146)       112.833 1  Rx        0037 -  8    1F FE 00 00 0A 28 A0 21 
   147)       113.047 1  Rx        00A7 -  8    00 00 00 9E 40 9B C0 49 
   148)       113.687 1  Rx        0095 -  7    00 00 00 00 00 D0 0E 
   149)       114.711 1  Rx        00AB -  8    00 00 CD 0D 00 00 D0 A9 
   150)       115.692 1  Rx        00B3 -  8    00 00 00 00 00 00 D0 F2 
   151)       119.916 1  Rx        009B -  8    2A 00 00 55 00 79 00 FF 
   152)       121.068 1  Rx        0023 -  8    10 02 10 00 00 00 06 9F 
   153)       121.793 1  Rx        002F -  8    00 00 00 00 00 D6 7C 00 
   154)       122.049 1  Rx        0071 -  8    1F FF 00 00 6D 00 D0 CB 
   155)       122.305 1  Rx        0079 -  8    80 00 00 00 00 00 D0 53 
   156)       122.518 1  Rx        007F -  8    41 B9 00 7A 00 00 FF FF 
   157)       122.774 1  Rx        0037 -  8    1F FE 00 00 0A 28 B0 EC 
   158)       123.030 1  Rx        0083 -  8    80 04 00 00 00 00 D0 56 
   159)       123.244 1  Rx        00DD -  8    0F 36 0F 84 00 80 00 00 
   160)       123.713 1  Rx        0085 -  8    20 DD 04 00 00 00 00 34 
   161)       124.737 1  Rx        0093 -  8    80 FC 50 00 00 00 D1 FC 
   162)       125.974 1  Rx        00B1 -  3    00 20 39 
   163)       129.217 1  Rx        00AD -  5    01 00 00 80 E2 
   164)       129.942 1  Rx        0077 -  2    03 02 
   165)       131.094 1  Rx        0023 -  8    10 02 10 00 00 00 16 52 
   166)       131.820 1  Rx        002F -  8    00 00 00 00 00 D6 7C 00 
   167)       132.076 1  Rx        0087 -  8    00 00 00 00 00 66 D0 D8 
   168)       132.332 1  Rx        0089 -  8    FF FF FF 6D FF FF D0 FF 
   169)       132.545 1  Rx        008B -  8    00 00 00 00 00 00 00 00 
   170)       132.801 1  Rx        0037 -  8    1F FE 00 00 0A 28 C0 B5 
   171)       133.057 1  Rx        00A7 -  8    00 00 00 9E 40 9B D0 84 
   172)       133.697 1  Rx        0095 -  7    00 00 00 00 00 E0 44 
   173)       134.422 1  Rx        0328 -  8    40 41 00 4D 00 55 00 53 
   174)       134.678 1  Rx        00AB -  8    00 00 CD 0D 00 00 E0 E3 
   175)       134.934 1  Rx        0328 -  8    40 41 00 4C 00 69 00 67 
   176)       135.702 1  Rx        00B3 -  8    00 00 00 00 00 00 E0 B8 
   177)       139.969 1  Rx        009B -  8    2A 00 00 55 00 79 00 FF 
   178)       141.078 1  Rx        0023 -  8    10 02 10 00 00 00 26 18 
   179)       141.803 1  Rx        002F -  8    00 00 00 00 00 D5 7C 00 
   180)       142.102 1  Rx        0071 -  8    1F FF 00 00 6D 00 E0 81 
   181)       142.315 1  Rx        0079 -  8    80 00 00 00 00 00 E0 19 
   182)       142.529 1  Rx        007F -  8    41 B9 00 7A 00 00 FF FF 
   183)       142.785 1  Rx        0037 -  8    1F FE 00 00 0A 28 D0 78 
   184)       143.041 1  Rx        0083 -  8    80 04 00 00 00 00 E0 1C 
   185)       143.681 1  Rx        0085 -  8    20 DD 04 00 00 00 00 38 
   186)       144.705 1  Rx        0093 -  8    80 FC 50 00 00 00 E1 B6 
   187)       145.985 1  Rx        00B1 -  3    00 30 F4 
   188)       149.057 1  Rx        0129 -  4    2E 00 00 00 
   189)       149.227 1  Rx        00AD -  5    01 00 00 90 2F 
   190)       149.910 1  Rx        0077 -  2    03 02 
   191)       151.105 1  Rx        0023 -  8    10 02 10 00 00 00 36 D5 
   192)       151.830 1  Rx        002F -  8    00 00 00 00 00 D6 7C 00 
   193)       152.086 1  Rx        0087 -  8    00 00 00 00 00 66 E0 92 
   194)       152.342 1  Rx        0089 -  8    FF FF FF 6D FF FF E0 FF 
   195)       152.555 1  Rx        008B -  8    00 00 00 00 00 00 00 00 
   196)       152.811 1  Rx        0037 -  8    1F FE 00 00 0A 28 E0 32 
   197)       153.067 1  Rx        00A7 -  8    00 00 00 9E 40 9B E0 CE 
   198)       153.665 1  Rx        0095 -  7    00 00 00 00 00 F0 89 
   199)       154.689 1  Rx        00AB -  8    00 00 CD 0D 00 00 F0 2E 
   200)       155.713 1  Rx        00B3 -  8    00 00 00 00 00 00 F0 75 
   201)       157.462 1  Rx        02F2 -  8    00 00 00 00 00 00 00 00 
   202)       159.126 1  Rx        01C0 -  6    00 00 00 00 00 00 
   203)       160.107 1  Rx        009B -  8    2A 00 00 55 00 79 00 FF 
   204)       161.088 1  Rx        0023 -  8    10 02 10 00 00 00 46 8C 
   205)       161.814 1  Rx        002F -  8    00 00 00 00 00 D6 7C 00 
   206)       162.070 1  Rx        0071 -  8    1F FF 00 00 6D 00 F0 4C 
   207)       162.283 1  Rx        0079 -  8    80 00 00 00 00 00 F0 D4 
   208)       162.539 1  Rx        007F -  8    41 B9 00 7A 00 00 FF FF 
   209)       162.795 1  Rx        0037 -  8    1F FE 00 00 0A 28 F0 FF 
   210)       163.008 1  Rx        0083 -  8    80 04 00 00 00 00 F0 D1 
   211)       163.478 1  Rx        0328 -  8    30 01 00 49 00 43 00 20 
   212)       163.734 1  Rx        0085 -  8    20 DD 04 00 00 00 00 3C 
   213)       163.947 1  Rx        0328 -  8    30 01 00 68 00 74 00 53 
   214)       164.672 1  Rx        0093 -  8    80 FC 50 00 00 00 F1 7B 
   215)       165.995 1  Rx        00B1 -  3    00 40 AD 
   216)       169.152 1  Rx        02A7 -  8    00 00 00 00 00 00 00 00 
   217)       169.323 1  Rx        00AD -  5    01 00 00 A0 65 
   218)       169.878 1  Rx        0077 -  2    03 02 
   219)       170.176 1  Rx        025D -  8    03 FC 00 00 7F 7F 7F 7F 
   220)       170.432 1  Rx        028B -  8    00 00 00 00 00 1E 00 00 
   221)       170.688 1  Rx        038A -  8    01 00 00 00 00 00 00 00 
   222)       171.115 1  Rx        0023 -  8    10 02 10 00 00 00 56 41 
   223)       171.840 1  Rx        002F -  8    00 00 00 00 00 D6 7C 00 
   224)       172.096 1  Rx        0087 -  8    00 00 00 00 00 66 F0 5F 
   225)       172.310 1  Rx        0089 -  8    FF FF FF 6D FF FF F0 FF 
   226)       172.566 1  Rx        008B -  8    00 00 00 00 00 00 00 00 
   227)       172.822 1  Rx        0037 -  8    1F FE 00 00 0A 28 00 80 
   228)       173.078 1  Rx        00A7 -  8    00 00 00 9E 40 9B F0 03 
   229)       173.291 1  Rx        00DD -  8    0F 36 0F 84 00 80 00 00 
   230)       173.675 1  Rx        0095 -  7    00 00 00 00 00 00 F6 
   231)       174.699 1  Rx        00AB -  8    00 00 CD 0D 00 00 00 51 
   232)       175.723 1  Rx        00B3 -  8    00 00 00 00 00 00 00 0A 
   233)       177.899 1  Rx        0403 -  8    FD 07 BF FF FF FF FF FF 
   234)       180.117 1  Rx        009B -  8    2A 00 00 55 00 79 00 FF 
   235)       180.373 1  Rx        0133 -  8    00 00 00 00 FF 03 0C FF 
   236)       180.629 1  Rx        03A9 -  8    0E 3C 1E FF FF 61 D0 02 
   237)       180.928 1  Rx        03E4 -  8    81 DF 88 46 06 00 00 00 
   238)       181.141 1  Rx        0023 -  8    10 02 10 00 00 00 66 0B 
   239)       181.525 1  Rx        0318 -  8    00 00 00 00 00 00 FF 00 
   240)       181.867 1  Rx        002F -  8    00 00 00 00 00 D6 7C 00 
   241)       182.080 1  Rx        0071 -  8    1F FF 00 00 6D 00 00 33 
   242)       182.336 1  Rx        0079 -  8    80 00 00 00 00 00 00 AB 
   243)       182.592 1  Rx        007F -  8    41 B9 00 7A 00 00 FF FF 
   244)       182.805 1  Rx        0037 -  8    1F FE 00 00 0A 28 10 4D 
   245)       183.061 1  Rx        0083 -  8    80 04 00 00 00 00 00 AE 
   246)       183.744 1  Rx        0085 -  8    20 DD 04 00 00 00 00 00 
   247)       184.725 1  Rx        0093 -  8    80 FC 50 00 00 00 01 04 
   248)       185.621 1  Rx        0125 -  3    00 5E 00 
   249)       185.963 1  Rx        00B1 -  3    00 50 60 
   250)       189.248 1  Rx        00AD -  5    01 00 00 B0 A8 
   251)       189.931 1  Rx        0077 -  2    03 02 
   252)       190.187 1  Rx        038E -  8    00 00 00 1F 51 21 C4 CC 
   253)       190.485 1  Rx        03E3 -  8    11 04 10 08 00 00 00 00 
   254)       190.699 1  Rx        03E8 -  8    49 31 A2 43 00 0E 50 5C 
   255)       191.168 1  Rx        0023 -  8    10 02 10 00 00 00 76 C6 
   256)       191.851 1  Rx        002F -  8    00 00 00 00 00 D5 7C 00 
   257)       192.107 1  Rx        0087 -  8    00 00 00 00 00 66 00 20 
   258)       192.363 1  Rx        0089 -  8    FF FF FF 6D FF FF 00 FF 
   259)       192.576 1  Rx        008B -  8    00 00 00 00 00 00 00 00 
   260)       192.832 1  Rx        0037 -  8    1F FE 00 00 0A 28 20 07 
   261)       193.088 1  Rx        00A7 -  8    00 00 00 9E 40 9B 00 7C 
   262)       193.685 1  Rx        0095 -  7    00 00 00 00 00 10 3B 
   263)       193.899 1  Rx        0328 -  8    20 01 00 4F 00 46 00 46 
   264)       194.283 1  Rx        0328 -  8    20 01 00 68 00 6F 00 77 
   265)       194.709 1  Rx        00AB -  8    00 00 CD 0D 00 00 10 9C 
   266)       195.691 1  Rx        00B3 -  8    00 00 00 00 00 00 10 C7 
   267)       199.957 1  Rx        009B -  8    2A 00 00 55 00 79 00 FF 
   268)       200.213 1  Rx        012B -  8    98 1A F4 60 1F FF 7B FF 
   269)       200.427 1  Rx        013F -  8    FF FF C2 44 01 27 00 00 
   270)       200.640 1  Rx        01C8 -  4    00 00 00 00 
   271)       200.896 1  Rx        03E9 -  8    01 5C 64 00 24 24 00 00 
   272)       201.152 1  Rx        0023 -  8    10 02 10 00 00 00 86 B9 
   273)       201.834 1  Rx        002F -  8    00 00 00 00 00 D6 7C 00 
   274)       202.048 1  Rx        0071 -  8    1F FF 00 00 6D 00 10 FE 
   275)       202.304 1  Rx        0079 -  8    80 00 00 00 00 00 10 66 
   276)       202.560 1  Rx        007F -  8    41 B9 00 7A 00 00 FF FF 
   277)       202.816 1  Rx        0037 -  8    1F FE 00 00 0A 28 30 CA 
   278)       203.029 1  Rx        0083 -  8    80 04 00 00 00 00 10 63 
   279)       203.712 1  Rx        0085 -  8    20 DD 04 00 00 00 00 04 
   280)       204.693 1  Rx        0093 -  8    80 FC 50 00 00 00 11 C9 
   281)       205.973 1  Rx        00B1 -  3    00 60 2A 
   282)       209.216 1  Rx        00AD -  5    01 00 00 C0 F1 
   283)       209.856 1  Rx        0077 -  2    03 02 
   284)       210.112 1  Rx        025F -  8    00 00 00 00 00 00 00 07 
   285)       210.282 1  Rx        039E -  3    01 00 00 
   286)       210.538 1  Rx        03EA -  8    41 47 1E 08 8A 34 41 A4 
   287)       211.178 1  Rx        0023 -  8    10 02 10 00 00 00 96 74 
   288)       211.861 1  Rx        002F -  8    00 00 00 00 00 D6 7C 00 
   289)       212.074 1  Rx        0087 -  8    00 00 00 00 00 66 10 ED 
   290)       212.330 1  Rx        0089 -  8    FF FF FF 6D FF FF 10 FF 
   291)       212.586 1  Rx        008B -  8    00 00 00 00 00 00 00 00 
   292)       212.842 1  Rx        0037 -  8    1F FE 00 00 0A 28 40 93 
   293)       213.056 1  Rx        00A7 -  8    00 00 00 9E 40 9B 10 B1 
   294)       213.653 1  Rx        0095 -  7    00 00 00 00 00 20 71 
   295)       214.677 1  Rx        00AB -  8    00 00 CD 0D 00 00 20 D6 
   296)       215.658 1  Rx        00B3 -  8    00 00 00 00 00 00 20 8D 
   297)       219.925 1  Rx        009B -  8    2A 00 00 55 00 79 00 FF 
   298)       220.224 1  Rx        0332 -  8    01 F9 03 FF 00 00 03 E8 
   299)       220.437 1  Rx        03EB -  8    43 E8 0D 7A 0A A0 09 8D 
   300)       221.077 1  Rx        0023 -  8    10 02 10 00 00 00 A6 3E 
   301)       221.845 1  Rx        002F -  8    00 00 00 00 00 D6 7C 00 
   302)       222.058 1  Rx        0071 -  8    1F FF 00 00 6D 00 20 B4 
   303)       222.314 1  Rx        0079 -  8    80 00 00 00 00 00 20 2C 
   304)       222.570 1  Rx        007F -  8    41 B9 00 7A 00 00 FF FF 
   305)       222.826 1  Rx        0037 -  8    1F FE 00 00 0A 28 50 5E 
   306)       223.039 1  Rx        0083 -  8    80 04 00 00 00 00 20 29 
   307)       223.295 1  Rx        00DD -  8    0F 36 0F 84 00 80 00 00 
   308)       223.679 1  Rx        0085 -  8    20 DD 04 00 00 00 00 08 
   309)       224.533 1  Rx        0328 -  8    10 01 00 00 00 00 00 00 
   310)       224.746 1  Rx        0093 -  8    80 FC 50 00 00 00 21 83 
   311)       225.002 1  Rx        0328 -  8    10 01 00 3F 00 00 00 4C 
   312)       225.983 1  Rx        00B1 -  3    00 70 E7 
   313)       229.226 1  Rx        00AD -  5    01 00 00 D0 3C 
   314)       229.909 1  Rx        0077 -  2    03 02 
   315)       230.207 1  Rx        0230 -  8    00 5B 36 08 00 00 00 00 
   316)       230.463 1  Rx        03B3 -  8    01 30 70 01 E4 A1 07 10 
   317)       230.719 1  Rx        03F0 -  8    3D CD 04 11 43 E8 80 9F 
   318)       230.975 1  Rx        044A -  8    01 00 00 00 00 00 00 20 
   319)       231.231 1  Rx        0023 -  8    10 02 10 00 00 00 B6 F3 
   320)       231.871 1  Rx        002F -  8    00 00 00 00 00 D5 7C 00 
   321)       232.085 1  Rx        0087 -  8    00 00 00 00 00 66 20 A7 
   322)       232.341 1  Rx        0089 -  8    FF FF FF 6D FF FF 20 FF 
   323)       232.597 1  Rx        008B -  8    00 00 00 00 00 00 00 00 
   324)       232.810 1  Rx        0037 -  8    1F FE 00 00 0A 28 60 14 
   325)       233.066 1  Rx        00A7 -  8    00 00 00 9E 40 9B 20 FB 
   326)       233.706 1  Rx        0095 -  7    00 00 00 00 00 30 BC 
   327)       234.730 1  Rx        00AB -  8    00 00 CD 0D 00 00 30 1B 
   328)       235.711 1  Rx        00B3 -  8    00 00 00 00 00 00 30 40 
   329)       239.935 1  Rx        009B -  8    2A 00 00 55 00 79 00 FF 
   330)       240.234 1  Rx        0248 -  8    00 00 FF FF FF 03 FF FF 
   331)       240.405 1  Rx        02B1 -  5    7F 0F 32 7F 7F 
   332)       240.661 1  Rx        03B4 -  8    35 80 00 00 00 00 04 00 
   333)       240.917 1  Rx        03F1 -  8    0D B9 0F 00 0C 04 6F C0 
   334)       241.173 1  Rx        0023 -  8    10 02 10 00 00 00 C6 AA 
   335)       241.429 1  Rx        044C -  8    79 00 00 00 00 00 FF FF 
   336)       241.813 1  Rx        002F -  8    00 00 00 00 00 D6 7C 00 
   337)       242.069 1  Rx        0071 -  8    1F FF 00 00 6D 00 30 79 
   338)       242.282 1  Rx        0079 -  8    80 00 00 00 00 00 30 E1 
   339)       242.538 1  Rx        007F -  8    41 B9 00 7A 00 00 FF FF 
   340)       242.794 1  Rx        0037 -  8    1F FE 00 00 0A 28 70 D9 
   341)       243.050 1  Rx        0083 -  8    80 04 00 00 00 00 30 E4 
   342)       243.732 1  Rx        0085 -  8    20 DD 04 00 00 00 00 0C 
   343)       244.671 1  Rx        0093 -  8    80 FC 50 00 00 00 31 4E 
   344)       245.994 1  Rx        00B1 -  3    00 80 98 
   345)       249.066 1  Rx        0129 -  4    2E 00 00 00 
   346)       249.236 1  Rx        00AD -  5    01 00 00 E0 76 
   347)       249.919 1  Rx        0077 -  2    03 02 
   348)       250.175 1  Rx        03F2 -  8    05 02 B0 01 08 20 10 04 
   349)       250.431 1  Rx        03F7 -  8    C1 2E 01 3C A1 88 48 00 
   350)       251.114 1  Rx        0023 -  8    10 02 10 00 00 00 D6 67 
   351)       251.839 1  Rx        002F -  8    00 00 00 00 00 D6 7C 00 
   352)       252.095 1  Rx        0087 -  8    00 00 00 00 00 66 30 6A 
   353)       252.308 1  Rx        0089 -  8    FF FF FF 6D FF FF 30 FF 
   354)       252.564 1  Rx        008B -  8    00 00 00 00 00 00 00 00 
   355)       252.820 1  Rx        0037 -  8    1F FE 00 00 0A 28 80 A6 
   356)       253.034 1  Rx        00A7 -  8    00 00 00 9E 40 9B 30 36 
   357)       253.631 1  Rx        0095 -  7    00 00 00 00 00 40 E5 
   358)       254.058 1  Rx        0328 -  8    00 01 00 00 00 00 00 00 
   359)       254.399 1  Rx        0328 -  8    00 01 00 69 00 76 00 00 
   360)       254.655 1  Rx        00AB -  8    00 00 CD 0D 00 00 40 42 
   361)       255.679 1  Rx        00B3 -  8    00 00 00 00 00 00 40 19 
   362)       257.471 1  Rx        02F2 -  8    00 00 00 00 00 00 00 00 
   363)       260.031 1  Rx        009B -  8    2A 00 00 55 00 79 00 FF 
   364)       260.330 1  Rx        0261 -  8    19 34 17 CA 3E 2F 03 E2 
   365)       260.543 1  Rx        03D8 -  8    FD 00 64 FA 58 23 00 00 
   366)       260.799 1  Rx        03F3 -  8    81 00 20 00 00 02 00 00 
   367)       261.098 1  Rx        0023 -  8    10 02 10 00 00 00 E6 2D 
   368)       261.823 1  Rx        002F -  8    00 00 00 00 00 D6 7C 00 
   369)       262.036 1  Rx        0071 -  8    1F FF 00 00 6D 00 40 20 
   370)       262.292 1  Rx        0079 -  8    80 00 00 00 00 00 40 B8 
   371)       262.548 1  Rx        007F -  8    41 B9 00 7A 00 00 FF FF 
   372)       262.804 1  Rx        0037 -  8    1F FE 00 00 0A 28 90 6B 
   373)       263.018 1  Rx        0083 -  8    80 04 00 00 00 00 40 BD 
   374)       263.274 1  Rx        0407 -  8    FD 09 84 FF FF FF FF 00 
   375)       263.700 1  Rx        0085 -  8    20 DD 04 00 00 00 00 10 
   376)       264.724 1  Rx        0093 -  8    80 FC 50 00 00 00 41 17 
   377)       266.004 1  Rx        00B1 -  3    00 90 55 
   378)       267.497 1  Rx        01F7 -  8    FF FF 0F FF 00 80 00 00 
   379)       269.247 1  Rx        00AD -  5    01 00 00 F0 BB 
   380)       269.887 1  Rx        0077 -  2    03 02 
   381)       270.143 1  Rx        0297 -  8    F0 FF 03 00 00 0C 00 FF 
   382)       270.484 1  Rx        03D7 -  8    01 00 00 00 00 00 00 00 
   383)       270.740 1  Rx        03F4 -  8    11 0F FF 20 02 00 00 00 
   384)       271.124 1  Rx        0023 -  8    10 02 10 00 00 00 F6 E0 
   385)       271.849 1  Rx        002F -  8    00 00 00 00 00 D6 7C 00 
   386)       272.063 1  Rx        0087 -  8    00 00 00 00 00 66 40 33 
   387)       272.319 1  Rx        0089 -  8    FF FF FF 6D FF FF 40 FF 
   388)       272.575 1  Rx        008B -  8    00 00 00 00 00 00 00 00 
   389)       272.831 1  Rx        0037 -  8    1F FE 00 00 0A 28 A0 21 
   390)       273.044 1  Rx        00A7 -  8    00 00 00 9E 40 9B 40 6F 
   391)       273.300 1  Rx        00DD -  8    0F 36 0F 84 00 80 00 00 
   392)       273.684 1  Rx        0095 -  7    00 00 00 00 00 50 28 
   393)       274.708 1  Rx        00AB -  8    00 00 CD 0D 00 00 50 8F 
   394)       275.689 1  Rx        00B3 -  8    00 00 00 00 00 00 50 D4 
   395)       277.481 1  Rx        03AA -  8    00 00 00 00 00 00 00 00 
   396)       277.908 1  Rx        0296 -  8    60 00 00 25 24 24 23 FF 
   397)       280.041 1  Rx        009B -  8    2A 00 00 55 00 79 00 FF 
   398)       280.297 1  Rx        0133 -  8    00 00 00 00 FF 03 0C FF 
   399)       280.553 1  Rx        022D -  8    FF 00 00 00 00 00 00 00 
   400)       280.852 1  Rx        02AD -  8    00 00 00 00 00 00 FF FF 
   401)       281.108 1  Rx        0023 -  8    10 02 10 00 00 00 06 9F 
   402)       281.321 1  Rx        03F5 -  8    01 00 00 00 0C 00 10 10 
   403)       281.577 1  Rx        0318 -  8    00 00 00 00 00 00 FF 00 
   404)       281.833 1  Rx        002F -  8    00 00 00 00 00 D6 7C 00 
   405)       282.089 1  Rx        0071 -  8    1F FF 00 00 6D 00 50 ED 
   406)       282.303 1  Rx        0079 -  8    80 00 00 00 00 00 50 75 
   407)       282.559 1  Rx        007F -  8    41 B9 00 7A 00 00 FF FF 
   408)       282.815 1  Rx        0037 -  8    1F FE 00 00 0A 28 B0 EC 
   409)       283.071 1  Rx        0083 -  8    80 04 00 00 00 00 50 70 
   410)       283.711 1  Rx        0085 -  8    20 DD 04 00 00 00 00 14 
   411)       284.180 1  Rx        0328 -  8    00 00 00 00 00 00 00 00 
   412)       284.692 1  Rx        0093 -  8    80 FC 50 00 00 00 51 DA 
   413)       285.588 1  Rx        0125 -  3    00 5E 00 
   414)       285.972 1  Rx        00B1 -  3    00 A0 1F 
   415)       287.465 1  Rx        02A1 -  8    80 08 FC F3 A9 FE 7D FE 
   416)       289.214 1  Rx        00AD -  5    01 00 00 00 C4 
   417)       290.025 1  Rx        0077 -  2    03 02 
   418)       290.281 1  Rx        0350 -  8    0E 16 0E 07 E5 06 17 39 
   419)       290.537 1  Rx        03D5 -  8    01 00 00 00 00 00 00 00 
   420)       291.134 1  Rx        0023 -  8    10 02 10 00 00 00 16 52 
   421)       291.817 1  Rx        002F -  8    00 00 00 00 00 D5 7C 00 
   422)       292.073 1  Rx        0087 -  8    00 00 00 00 00 66 50 FE 
   423)       292.329 1  Rx        0089 -  8    FF FF FF 6D FF FF 50 FF 
   424)       292.585 1  Rx        008B -  8    00 00 00 00 00 00 00 00 
   425)       292.798 1  Rx        0037 -  8    1F FE 00 00 0A 28 C0 B5 
   426)       293.054 1  Rx        00A7 -  8    00 00 00 9E 40 9B 50 A2 
   427)       293.694 1  Rx        0095 -  7    00 00 00 00 00 60 62 
   428)       294.718 1  Rx        00AB -  8    00 00 CD 0D 00 00 60 C5 
   429)       295.742 1  Rx        00B3 -  8    00 00 00 00 00 00 60 9E 
   430)       297.492 1  Rx        027B -  8    02 20 07 FF 00 00 00 00 
   431)       299.924 1  Rx        009B -  8    2A 00 00 55 00 79 00 FF 
   432)       300.222 1  Rx        012B -  8    98 1A F4 60 1F FF 7B FF 
   433)       300.436 1  Rx        013F -  8    FF FF C2 43 01 27 00 00 
   434)       300.692 1  Rx        0281 -  8    E8 23 00 21 00 00 00 7C 
   435)       300.905 1  Rx        0358 -  4    FF 01 FF 00 
   436)       301.118 1  Rx        0023 -  8    10 02 10 00 00 00 26 18 
   437)       301.374 1  Rx        03D3 -  8    1D 13 0A 03 FF DA 0F 0F 
   438)       301.673 1  Rx        03D4 -  8    41 60 20 40 00 00 00 00 
   439)       301.886 1  Rx        002F -  8    00 00 00 00 00 D6 7C 00 
   440)       302.142 1  Rx        0071 -  8    1F FF 00 00 6D 00 60 A7 
   441)       302.398 1  Rx        0079 -  8    80 00 00 00 00 00 60 3F 
   442)       302.612 1  Rx        007F -  8    41 B9 00 7A 00 00 FF FF 
   443)       302.868 1  Rx        0037 -  8    1F FE 00 00 0A 28 D0 78 
   444)       303.124 1  Rx        0083 -  8    80 04 00 00 00 00 60 3A 
   445)       303.337 1  Rx        03D6 -  8    69 30 00 00 36 11 05 00 
   446)       303.721 1  Rx        0085 -  8    20 DD 04 00 00 00 00 18 
   447)       304.702 1  Rx        0093 -  8    80 FC 50 00 00 00 61 90 
   448)       305.982 1  Rx        00B1 -  3    00 B0 D2 
   449)       307.476 1  Rx        03AB -  8    00 00 00 00 00 00 00 00 
   450)       309.225 1  Rx        00AD -  5    01 00 00 10 09 
   451)       309.865 1  Rx        0077 -  2    03 02 
   452)       310.163 1  Rx        0283 -  8    00 08 00 04 00 01 00 00 
   453)       310.377 1  Rx        035C -  6    00 00 00 00 00 00 
   454)       311.145 1  Rx        0023 -  8    10 02 10 00 00 00 36 D5 
   455)       311.870 1  Rx        002F -  8    00 00 00 00 00 D6 7C 00 
   456)       312.083 1  Rx        0087 -  8    00 00 00 00 00 66 60 B4 
   457)       312.339 1  Rx        0089 -  8    FF FF FF 6D FF FF 60 FF 
   458)       312.595 1  Rx        008B -  8    00 00 00 00 00 00 00 00 
   459)       312.809 1  Rx        0037 -  8    1F FE 00 00 0A 28 E0 32 
   460)       313.065 1  Rx        00A7 -  8    00 00 00 9E 40 9B 60 E8 
   461)       313.705 1  Rx        0095 -  7    00 00 00 00 00 70 AF 
   462)       314.686 1  Rx        00AB -  8    00 00 CD 0D 00 00 70 08 
   463)       315.710 1  Rx        00B3 -  8    00 00 00 00 00 00 70 53 
   464)       317.502 1  Rx        027A -  8    00 7D 00 00 01 6A 52 07 
   465)       319.977 1  Rx        009B -  8    2A 00 00 55 00 79 00 FF 
   466)       320.147 1  Rx        03C9 -  4    7C 45 00 00 
   467)       320.403 1  Rx        03F6 -  8    09 A9 82 33 88 88 88 44 
   468)       321.086 1  Rx        0023 -  8    10 02 10 00 00 00 46 8C 
   469)       321.811 1  Rx        002F -  8    00 00 00 00 00 D6 7C 00 
   470)       322.067 1  Rx        0071 -  8    1F FF 00 00 6D 00 70 6A 
   471)       322.323 1  Rx        0079 -  8    80 00 00 00 00 00 70 F2 
   472)       322.537 1  Rx        007F -  8    41 B9 00 7A 00 00 FF FF 
   473)       322.793 1  Rx        0037 -  8    1F FE 00 00 0A 28 F0 FF 
   474)       323.049 1  Rx        0083 -  8    80 04 00 00 00 00 70 F7 
   475)       323.262 1  Rx        00DD -  8    0F 36 0F 84 00 80 00 00 
   476)       323.731 1  Rx        0085 -  8    20 DD 04 00 00 00 00 1C 
   477)       324.713 1  Rx        0093 -  8    80 FC 50 00 00 00 71 5D 
   478)       325.993 1  Rx        00B1 -  3    00 C0 8B 
   479)       327.486 1  Rx        03CD -  8    00 00 00 00 00 00 00 00 
   480)       329.235 1  Rx        00AD -  5    01 00 00 20 43 
   481)       329.960 1  Rx        0077 -  2    03 02 
   482)       330.216 1  Rx        0291 -  8    40 00 06 00 07 01 00 00 
   483)       330.472 1  Rx        02C2 -  8    41 94 3F 03 E3 DA 00 00 
   484)       331.155 1  Rx        0023 -  8    10 02 10 00 00 00 56 41 
   485)       331.838 1  Rx        002F -  8    00 00 00 00 00 D6 7C 00 
   486)       332.094 1  Rx        0087 -  8    00 00 00 00 00 66 70 79 
   487)       332.350 1  Rx        0089 -  8    FF FF FF 6D FF FF 70 FF 
   488)       332.606 1  Rx        008B -  8    00 00 00 00 00 00 00 00 
   489)       332.819 1  Rx        0037 -  8    1F FE 00 00 0A 28 00 80 
   490)       333.075 1  Rx        00A7 -  8    00 00 00 9E 40 9B 70 25 
   491)       333.672 1  Rx        0095 -  7    00 00 00 00 00 80 D0 
   492)       334.696 1  Rx        00AB -  8    00 00 CD 0D 00 00 80 77 
   493)       335.678 1  Rx        00B3 -  8    00 00 00 00 00 00 80 2C 
   494)       339.944 1  Rx        009B -  8    2A 00 00 55 00 79 00 FF 
   495)       340.200 1  Rx        0289 -  8    30 00 07 1E C0 FE 80 00 
   496)       340.456 1  Rx        02C5 -  8    01 EE EE 1C 01 00 00 00 
   497)       341.096 1  Rx        0023 -  8    10 02 10 00 00 00 66 0B 
   498)       341.822 1  Rx        002F -  8    00 00 00 00 00 D5 7C 00 
   499)       342.078 1  Rx        0071 -  8    1F FF 00 00 6D 00 80 15 
   500)       342.291 1  Rx        0079 -  8    80 00 00 00 00 00 80 8D 
   501)       342.547 1  Rx        007F -  8    41 B9 00 7A 00 00 FF FF 
   502)       342.803 1  Rx        0037 -  8    1F FE 00 00 0A 28 10 4D 
   503)       343.059 1  Rx        0083 -  8    80 04 00 00 00 00 80 88 
   504)       343.699 1  Rx        0085 -  8    20 DD 04 00 00 00 00 20 
   505)       344.723 1  Rx        0093 -  8    80 FC 50 00 00 00 81 22 
   506)       346.003 1  Rx        00B1 -  3    00 D0 46 
   507)       349.075 1  Rx        0129 -  4    2E 00 00 00 
   508)       349.246 1  Rx        00AD -  5    01 00 00 30 8E 
   509)       349.886 1  Rx        0077 -  2    03 02 
   510)       350.142 1  Rx        026F -  8    00 C0 FF FF FF 7F 7F 7F 
   511)       350.440 1  Rx        02C6 -  8    41 03 01 13 00 00 00 00 
   512)       351.123 1  Rx        0023 -  8    10 02 10 00 00 00 76 C6 
   513)       351.848 1  Rx        002F -  8    00 00 00 00 00 D6 7C 00 
   514)       352.061 1  Rx        0087 -  8    00 00 00 00 00 66 80 06 
   515)       352.317 1  Rx        0089 -  8    FF FF FF 6D FF FF 80 FF 
   516)       352.573 1  Rx        008B -  8    00 00 00 00 00 00 00 00 
   517)       352.829 1  Rx        0037 -  8    1F FE 00 00 0A 28 20 07 
   518)       353.043 1  Rx        00A7 -  8    00 00 00 9E 40 9B 80 5A 
   519)       353.683 1  Rx        0095 -  7    00 00 00 00 00 90 1D 
   520)       354.280 1  Rx        0409 -  8    FD 23 BF FF FF FF FF FF 
   521)       354.707 1  Rx        00AB -  8    00 00 CD 0D 00 00 90 BA 
   522)       355.731 1  Rx        00B3 -  8    00 00 00 00 00 00 90 E1 
   523)       357.480 1  Rx        02F2 -  8    00 00 00 00 00 00 00 00 
   524)       357.779 1  Rx        03AC -  8    00 00 00 00 1C 00 00 2E 
   525)       359.101 1  Rx        01C0 -  6    00 00 00 00 00 00 
   526)       359.955 1  Rx        009B -  8    2A 00 00 55 00 79 00 FF 
   527)       360.253 1  Rx        0265 -  8    00 00 00 00 00 00 06 00 
   528)       360.509 1  Rx        0381 -  8    89 8D 00 00 00 04 00 00 
   529)       361.107 1  Rx        0023 -  8    10 02 10 00 00 00 86 B9 
   530)       361.832 1  Rx        002F -  8    00 00 00 00 00 D6 7C 00 
   531)       362.088 1  Rx        0071 -  8    1F FF 00 00 6D 00 90 D8 
   532)       362.344 1  Rx        0079 -  8    80 00 00 00 00 00 90 40 
   533)       362.557 1  Rx        007F -  8    41 B9 00 7A 00 00 FF FF 
   534)       362.813 1  Rx        0037 -  8    1F FE 00 00 0A 28 30 CA 
   535)       363.069 1  Rx        0083 -  8    80 04 00 00 00 00 90 45 
   536)       363.709 1  Rx        0085 -  8    20 DD 04 00 00 00 00 24 
   537)       364.691 1  Rx        0093 -  8    80 FC 50 00 00 00 91 EF 
   538)       366.013 1  Rx        00B1 -  3    00 E0 0C 
   539)       369.256 1  Rx        00AD -  5    01 00 00 40 D7 
   540)       369.853 1  Rx        0077 -  2    03 02 
   541)       371.133 1  Rx        0023 -  8    10 02 10 00 00 00 96 74 
   542)       371.816 1  Rx        002F -  8    00 00 00 00 00 D6 7C 00 
   543)       372.072 1  Rx        0087 -  8    00 00 00 00 00 66 90 CB 
   544)       372.328 1  Rx        0089 -  8    FF FF FF 6D FF FF 90 FF 
   545)       372.584 1  Rx        008B -  8    00 00 00 00 00 00 00 00 
   546)       372.797 1  Rx        0037 -  8    1F FE 00 00 0A 28 40 93 
   547)       373.053 1  Rx        00A7 -  8    00 00 00 9E 40 9B 90 97 
   548)       373.266 1  Rx        00DD -  8    0F 36 0F 84 00 80 00 00 
   549)       373.650 1  Rx        0095 -  7    00 00 00 00 00 A0 57 
   550)       374.717 1  Rx        00AB -  8    00 00 CD 0D 00 00 A0 F0 
   551)       375.698 1  Rx        00B3 -  8    00 00 00 00 00 00 A0 AB 
   552)       380.050 1  Rx        009B -  8    2A 00 00 55 00 79 00 FF 
   553)       380.349 1  Rx        0133 -  8    00 00 00 00 FF 03 0C FF 
   554)       381.117 1  Rx        0023 -  8    10 02 10 00 00 00 A6 3E 
   555)       381.501 1  Rx        0318 -  8    00 00 00 00 00 00 FF 00 
   556)       381.800 1  Rx        002F -  8    00 00 00 00 00 D5 7C 00 
   557)       382.056 1  Rx        0071 -  8    1F FF 00 00 6D 00 A0 92 
   558)       382.312 1  Rx        0079 -  8    80 00 00 00 00 00 A0 0A 
   559)       382.525 1  Rx        007F -  8    41 B9 00 7A 00 00 FF FF 
   560)       382.781 1  Rx        0037 -  8    1F FE 00 00 0A 28 50 5E 
   561)       383.037 1  Rx        0083 -  8    80 04 00 00 00 00 A0 0F 
   562)       383.677 1  Rx        0085 -  8    20 DD 04 00 00 00 00 28 
   563)       384.701 1  Rx        0093 -  8    80 FC 50 00 00 00 A1 A5 
   564)       385.597 1  Rx        0125 -  3    00 5E 00 
   565)       386.024 1  Rx        00B1 -  3    00 F0 C1 
   566)       389.224 1  Rx        00AD -  5    01 00 00 50 1A 
   567)       389.864 1  Rx        0077 -  2    03 02 
   568)       391.144 1  Rx        0023 -  8    10 02 10 00 00 00 B6 F3 
   569)       391.826 1  Rx        002F -  8    00 00 00 00 00 D6 7C 00 
   570)       392.082 1  Rx        0087 -  8    00 00 00 00 00 66 A0 81 
   571)       392.338 1  Rx        0089 -  8    FF FF FF 6D FF FF A0 FF 
   572)       392.552 1  Rx        008B -  8    00 00 00 00 00 00 00 00 
   573)       392.808 1  Rx        0037 -  8    1F FE 00 00 0A 28 60 14 
   574)       393.063 1  Rx        00A7 -  8    00 00 00 9E 40 9B A0 DD 
   575)       393.703 1  Rx        0095 -  7    00 00 00 00 00 B0 9A 
   576)       394.685 1  Rx        00AB -  8    00 00 CD 0D 00 00 B0 3D 
   577)       395.709 1  Rx        00B3 -  8    00 00 00 00 00 00 B0 66 
   578)       399.933 1  Rx        009B -  8    2A 00 00 55 00 79 00 FF 
   579)       400.189 1  Rx        012B -  8    98 1A F4 60 1F FF 7B FF 
   580)       400.445 1  Rx        013F -  8    FF FF C2 43 01 27 00 00 
   581)       401.127 1  Rx        0023 -  8    10 02 10 00 00 00 C6 AA 
   582)       401.810 1  Rx        002F -  8    00 00 00 00 00 D6 7C 00 
   583)       402.066 1  Rx        0071 -  8    1F FF 00 00 6D 00 B0 5F 
   584)       402.322 1  Rx        0079 -  8    80 00 00 00 00 00 B0 C7 
   585)       402.535 1  Rx        007F -  8    41 B9 00 7A 00 00 FF FF 
   586)       402.791 1  Rx        0037 -  8    1F FE 00 00 0A 28 70 D9 
   587)       403.047 1  Rx        0083 -  8    80 04 00 00 00 00 B0 C2 
   588)       403.687 1  Rx        0085 -  8    20 DD 04 00 00 00 00 2C 
   589)       404.711 1  Rx        0093 -  8    80 FC 50 00 00 00 B1 68 
   590)       405.991 1  Rx        00B1 -  3    00 00 BE 
   591)       407.485 1  Rx        03AD -  8    00 00 00 00 00 00 00 00 
   592)       409.234 1  Rx        00AD -  5    01 00 00 60 50 
   593)       409.874 1  Rx        0077 -  2    03 02 
   594)       411.154 1  Rx        0023 -  8    10 02 10 00 00 00 D6 67 
   595)       411.837 1  Rx        002F -  8    00 00 00 00 00 D6 7C 00 
   596)       412.093 1  Rx        0087 -  8    00 00 00 00 00 66 B0 4C 
   597)       412.306 1  Rx        0089 -  8    FF FF FF 6D FF FF B0 FF 
   598)       412.562 1  Rx        008B -  8    00 00 00 00 00 00 00 00 
   599)       412.818 1  Rx        0037 -  8    1F FE 00 00 0A 28 80 A6 
   600)       413.031 1  Rx        00A7 -  8    00 00 00 9E 40 9B B0 10 
   601)       413.671 1  Rx        0095 -  7    00 00 00 00 00 C0 C3 
   602)       414.652 1  Rx        00AB -  8    00 00 CD 0D 00 00 C0 64 
   603)       415.676 1  Rx        00B3 -  8    00 00 00 00 00 00 C0 3F 
   604)       419.943 1  Rx        009B -  8    2A 00 00 55 00 79 00 FF 
   605)       421.095 1  Rx        0023 -  8    10 02 10 00 00 00 E6 2D 
   606)       421.820 1  Rx        002F -  8    00 00 00 00 00 D6 7C 00 
   607)       422.034 1  Rx        0071 -  8    1F FF 00 00 6D 00 C0 06 
   608)       422.290 1  Rx        0079 -  8    80 00 00 00 00 00 C0 9E 
   609)       422.546 1  Rx        007F -  8    41 B9 00 7A 00 00 FF FF 
   610)       422.802 1  Rx        0037 -  8    1F FE 00 00 0A 28 90 6B 
   611)       423.015 1  Rx        0083 -  8    80 04 00 00 00 00 C0 9B 
   612)       423.271 1  Rx        00DD -  8    0F 36 0F 84 00 80 00 00 
   613)       423.698 1  Rx        0085 -  8    20 DD 04 00 00 00 00 30 
   614)       424.722 1  Rx        0093 -  8    80 FC 50 00 00 00 C1 31 
   615)       426.002 1  Rx        00B1 -  3    00 10 73 
   616)       429.244 1  Rx        00AD -  5    01 00 00 70 9D 
   617)       429.927 1  Rx        0077 -  2    03 02 
   618)       431.164 1  Rx        0023 -  8    10 02 10 00 00 00 F6 E0 
   619)       431.847 1  Rx        002F -  8    00 00 00 00 00 D6 7C 00 
   620)       432.060 1  Rx        0087 -  8    00 00 00 00 00 66 C0 15 
   621)       432.316 1  Rx        0089 -  8    FF FF FF 6D FF FF C0 FF 
   622)       432.572 1  Rx        008B -  8    00 00 00 00 00 00 00 00 
   623)       432.828 1  Rx        0037 -  8    1F FE 00 00 0A 28 A0 21 
   624)       433.042 1  Rx        00A7 -  8    00 00 00 9E 40 9B C0 49 
   625)       433.682 1  Rx        0095 -  7    00 00 00 00 00 D0 0E 
   626)       434.706 1  Rx        00AB -  8    00 00 CD 0D 00 00 D0 A9 
   627)       435.687 1  Rx        00B3 -  8    00 00 00 00 00 00 D0 F2 
   628)       436.199 1  Rx        0423 -  8    FD 00 84 0F 00 00 00 00 
   629)       439.953 1  Rx        009B -  8    2A 00 00 55 00 79 00 FF 
   630)       441.105 1  Rx        0023 -  8    10 02 10 00 00 00 06 9F 
   631)       441.831 1  Rx        002F -  8    00 00 00 00 00 D5 7C 00 
   632)       442.044 1  Rx        0071 -  8    1F FF 00 00 6D 00 D0 CB 
   633)       442.300 1  Rx        0079 -  8    80 00 00 00 00 00 D0 53 
   634)       442.556 1  Rx        007F -  8    41 B9 00 7A 00 00 FF FF 
   635)       442.769 1  Rx        0037 -  8    1F FE 00 00 0A 28 B0 EC 
   636)       443.025 1  Rx        0083 -  8    80 04 00 00 00 00 D0 56 
   637)       443.665 1  Rx        0085 -  8    20 DD 04 00 00 00 00 34 
   638)       444.689 1  Rx        0093 -  8    80 FC 50 00 00 00 D1 FC 
   639)       446.012 1  Rx        00B1 -  3    00 20 39 
   640)       449.041 1  Rx        0129 -  4    2E 00 00 00 
   641)       449.255 1  Rx        00AD -  5    01 00 00 80 E2 
   642)       449.895 1  Rx        0077 -  2    03 02 
   643)       451.132 1  Rx        0023 -  8    10 02 10 00 00 00 16 52 
   644)       451.857 1  Rx        002F -  8    00 00 00 00 00 D6 7C 00 
   645)       452.071 1  Rx        0087 -  8    00 00 00 00 00 66 D0 D8 
   646)       452.327 1  Rx        0089 -  8    FF FF FF 6D FF FF D0 FF 
   647)       452.583 1  Rx        008B -  8    00 00 00 00 00 00 00 00 
   648)       452.796 1  Rx        0037 -  8    1F FE 00 00 0A 28 C0 B5 
   649)       453.052 1  Rx        00A7 -  8    00 00 00 9E 40 9C D0 7D 
   650)       453.649 1  Rx        0095 -  7    00 00 00 00 00 E0 44 
   651)       454.673 1  Rx        00AB -  8    00 00 CD 0D 00 00 E0 E3 
   652)       455.697 1  Rx        00B3 -  8    00 00 00 00 00 00 E0 B8 
   653)       457.489 1  Rx        02F2 -  8    00 00 00 00 00 00 00 00 
   654)       457.788 1  Rx        03AE -  8    00 00 00 00 00 00 00 00 
   655)       459.964 1  Rx        009B -  8    2A 00 00 55 00 79 00 FF 
   656)       461.116 1  Rx        0023 -  8    10 02 10 00 00 00 26 18 
   657)       461.798 1  Rx        002F -  8    00 00 00 00 00 D5 7C 00 
   658)       462.054 1  Rx        0071 -  8    1F FF 00 00 6D 00 E0 81 
   659)       462.310 1  Rx        0079 -  8    80 00 00 00 00 00 E0 19 
   660)       462.524 1  Rx        007F -  8    41 B9 00 7A 00 00 FF FF 
   661)       462.780 1  Rx        0037 -  8    1F FE 00 00 0A 28 D0 78 
   662)       463.036 1  Rx        0083 -  8    80 04 00 00 00 00 E0 1C 
   663)       463.676 1  Rx        0085 -  8    20 DD 04 00 00 00 00 38 
   664)       464.657 1  Rx        0093 -  8    80 FC 50 00 00 00 E1 B6 
   665)       466.022 1  Rx        00B1 -  3    00 30 F4 
   666)       469.222 1  Rx        00AD -  5    01 00 00 90 2F 
   667)       469.990 1  Rx        0077 -  2    03 02 
   668)       471.142 1  Rx        0023 -  8    10 02 10 00 00 00 36 D5 
   669)       471.825 1  Rx        002F -  8    00 00 00 00 00 D6 7C 00 
   670)       472.081 1  Rx        0087 -  8    00 00 00 00 00 66 E0 92 
   671)       472.337 1  Rx        0089 -  8    FF FF FF 6D FF FF E0 FF 
   672)       472.550 1  Rx        008B -  8    00 00 00 00 00 00 00 00 
   673)       472.806 1  Rx        0037 -  8    1F FE 00 00 0A 28 E0 32 
   674)       473.062 1  Rx        00A7 -  8    00 00 00 9E 40 9B E0 CE 
   675)       473.276 1  Rx        00DD -  8    0F 36 0F 84 00 80 00 00 
   676)       473.702 1  Rx        0095 -  7    00 00 00 00 00 F0 89 
   677)       474.684 1  Rx        00AB -  8    00 00 CD 0D 00 00 F0 2E 
   678)       475.708 1  Rx        00B3 -  8    00 00 00 00 00 00 F0 75 
   679)       480.059 1  Rx        009B -  8    2A 00 00 55 00 79 00 FF 
   680)       480.315 1  Rx        0133 -  8    00 00 00 00 FF 03 0C FF 
   681)       481.126 1  Rx        0023 -  8    10 02 10 00 00 00 46 8C 
   682)       481.510 1  Rx        0318 -  8    00 00 00 00 00 00 FF 00 
   683)       481.809 1  Rx        002F -  8    00 00 00 00 00 D6 7C 00 
   684)       482.065 1  Rx        0071 -  8    1F FF 00 00 6D 00 F0 4C 
   685)       482.278 1  Rx        0079 -  8    80 00 00 00 00 00 F0 D4 
   686)       482.534 1  Rx        007F -  8    41 B9 00 7A 00 00 FF FF 
   687)       482.790 1  Rx        0037 -  8    1F FE 00 00 0A 28 F0 FF 
   688)       483.046 1  Rx        0083 -  8    80 04 00 00 00 00 F0 D1 
   689)       483.643 1  Rx        0085 -  8    20 DD 04 00 00 00 00 3C 
   690)       484.667 1  Rx        0093 -  8    80 FC 50 00 00 00 F1 7B 
   691)       485.563 1  Rx        0125 -  3    00 5E 00 
   692)       486.033 1  Rx        00B1 -  3    00 40 AD 
   693)       489.233 1  Rx        00AD -  5    01 00 00 A0 65 
   694)       489.915 1  Rx        0077 -  2    03 02 
   695)       491.153 1  Rx        0023 -  8    10 02 10 00 00 00 56 41 
   696)       491.835 1  Rx        002F -  8    00 00 00 00 00 D6 7C 00 
   697)       492.091 1  Rx        0087 -  8    00 00 00 00 00 66 F0 5F 
   698)       492.305 1  Rx        0089 -  8    FF FF FF 6D FF FF F0 FF 
   699)       492.561 1  Rx        008B -  8    00 00 00 00 00 00 00 00 
   700)       492.817 1  Rx        0037 -  8    1F FE 00 00 0A 28 00 80 
   701)       493.073 1  Rx        00A7 -  8    00 00 00 9E 40 9B F0 03 
   702)       493.713 1  Rx        0095 -  7    00 00 00 00 00 00 F6 
   703)       494.737 1  Rx        00AB -  8    00 00 CD 0D 00 00 00 51 
   704)       495.718 1  Rx        00B3 -  8    00 00 00 00 00 00 00 0A 
   705)       499.942 1  Rx        009B -  8    2A 00 00 55 00 79 00 FF 
   706)       500.240 1  Rx        012B -  8    98 1A F4 60 1F FF 7B FF 
   707)       500.454 1  Rx        013F -  8    FF FF C2 42 01 27 00 00 
   708)       501.179 1  Rx        0023 -  8    10 02 10 00 00 00 66 0B 
   709)       501.819 1  Rx        002F -  8    00 00 00 00 00 D6 7C 00 
   710)       502.075 1  Rx        0071 -  8    1F FF 00 00 6D 00 00 33 
   711)       502.331 1  Rx        0079 -  8    80 00 00 00 00 00 00 AB 
   712)       502.544 1  Rx        007F -  8    41 B9 00 7A 00 00 FF FF 
   713)       502.800 1  Rx        0037 -  8    1F FE 00 00 0A 28 10 4D 
   714)       503.056 1  Rx        0083 -  8    80 04 00 00 00 00 00 AE 
   715)       503.696 1  Rx        0085 -  8    20 DD 04 00 00 00 00 00 
   716)       504.720 1  Rx        0093 -  8    80 FC 50 00 00 00 01 04 
   717)       506.000 1  Rx        00B1 -  3    00 50 60 
   718)       507.494 1  Rx        03AF -  8    00 00 00 8B 49 00 E0 2A 
   719)       509.243 1  Rx        00AD -  5    01 00 00 B0 A8 
   720)       509.883 1  Rx        0077 -  2    03 02 
   721)       511.163 1  Rx        0023 -  8    10 02 10 00 00 00 76 C6 
   722)       511.846 1  Rx        002F -  8    00 00 00 00 00 D6 7C 00 
   723)       512.102 1  Rx        0087 -  8    00 00 00 00 00 66 00 20 
   724)       512.315 1  Rx        0089 -  8    FF FF FF 6D FF FF 00 FF 
   725)       512.571 1  Rx        008B -  8    00 00 00 00 00 00 00 00 
   726)       512.827 1  Rx        0037 -  8    1F FE 00 00 0A 28 20 07 
   727)       513.040 1  Rx        00A7 -  8    00 00 00 9E 40 9B 00 7C 
   728)       513.680 1  Rx        0095 -  7    00 00 00 00 00 10 3B 
   729)       514.662 1  Rx        00AB -  8    00 00 CD 0D 00 00 10 9C 
   730)       515.686 1  Rx        00B3 -  8    00 00 00 00 00 00 10 C7 
   731)       519.910 1  Rx        009B -  8    2A 00 00 55 00 79 00 FF 
   732)       521.104 1  Rx        0023 -  8    10 02 10 00 00 00 86 B9 
   733)       521.829 1  Rx        002F -  8    00 00 00 00 00 D5 7C 00 
   734)       522.043 1  Rx        0071 -  8    1F FF 00 00 6D 00 10 FE 
   735)       522.299 1  Rx        0079 -  8    80 00 00 00 00 00 10 66 
   736)       522.555 1  Rx        007F -  8    41 B9 00 7A 00 00 FF FF 
   737)       522.811 1  Rx        0037 -  8    1F FE 00 00 0A 28 30 CA 
   738)       523.024 1  Rx        0083 -  8    80 04 00 00 00 00 10 63 
   739)       523.280 1  Rx        00DD -  8    0F 36 0F 84 00 80 00 00 
   740)       523.707 1  Rx        0085 -  8    20 DD 04 00 00 00 00 04 
   741)       524.688 1  Rx        0093 -  8    80 FC 50 00 00 00 11 C9 
   742)       526.011 1  Rx        00B1 -  3    00 60 2A 
   743)       529.253 1  Rx        00AD -  5    01 00 00 C0 F1 
   744)       529.936 1  Rx        0077 -  2    03 02 
   745)       531.173 1  Rx        0023 -  8    10 02 10 00 00 00 96 74 
   746)       531.856 1  Rx        002F -  8    00 00 00 00 00 D6 7C 00 
   747)       532.069 1  Rx        0087 -  8    00 00 00 00 00 66 10 ED 
   748)       532.325 1  Rx        0089 -  8    FF FF FF 6D FF FF 10 FF 
   749)       532.581 1  Rx        008B -  8    00 00 00 00 00 00 00 00 
   750)       532.795 1  Rx        0037 -  8    1F FE 00 00 0A 28 40 93 
   751)       533.051 1  Rx        00A7 -  8    00 00 00 9E 40 9B 10 B1 
   752)       533.648 1  Rx        0095 -  7    00 00 00 00 00 20 71 
   753)       534.245 1  Rx        0400 -  8    FD 01 3F FF FF FF FF FF 
   754)       534.672 1  Rx        00AB -  8    00 00 CD 0D 00 00 20 D6 
   755)       535.653 1  Rx        00B3 -  8    00 00 00 00 00 00 20 8D 
   756)       539.920 1  Rx        009B -  8    2A 00 00 55 00 79 00 FF 
   757)       541.115 1  Rx        0023 -  8    10 02 10 00 00 00 A6 3E 
   758)       541.797 1  Rx        002F -  8    00 00 00 00 00 D6 7C 00 
   759)       542.053 1  Rx        0071 -  8    1F FF 00 00 6D 00 20 B4 
   760)       542.309 1  Rx        0079 -  8    80 00 00 00 00 00 20 2C 
   761)       542.565 1  Rx        007F -  8    41 B9 00 7A 00 00 FF FF 
   762)       542.778 1  Rx        0037 -  8    1F FE 00 00 0A 28 50 5E 
   763)       543.034 1  Rx        0083 -  8    80 04 00 00 00 00 20 29 
   764)       543.717 1  Rx        0085 -  8    20 DD 04 00 00 00 00 08 
   765)       544.741 1  Rx        0093 -  8    80 FC 50 00 00 00 21 83 
   766)       546.021 1  Rx        00B1 -  3    00 70 E7 
   767)       549.050 1  Rx        0129 -  4    2E 00 00 00 
   768)       549.264 1  Rx        00AD -  5    01 00 00 D0 3C 
   769)       549.904 1  Rx        0077 -  2    03 02 
   770)       551.184 1  Rx        0023 -  8    10 02 10 00 00 00 B6 F3 
   771)       551.824 1  Rx        002F -  8    00 00 00 00 00 D6 7C 00 
   772)       552.080 1  Rx        0087 -  8    00 00 00 00 00 66 20 A7 
   773)       552.336 1  Rx        0089 -  8    FF FF FF 6D FF FF 20 FF 
   774)       552.549 1  Rx        008B -  8    00 00 00 00 00 00 00 00 
   775)       552.805 1  Rx        0037 -  8    1F FE 00 00 0A 28 60 14 
   776)       553.061 1  Rx        00A7 -  8    00 00 00 9E 40 9C 20 02 
   777)       553.701 1  Rx        0095 -  7    00 00 00 00 00 30 BC 
   778)       554.725 1  Rx        00AB -  8    00 00 CD 0D 00 00 30 1B 
   779)       555.706 1  Rx        00B3 -  8    00 00 00 00 00 00 30 40 
   780)       557.498 1  Rx        02F2 -  8    00 00 00 00 00 00 00 00 
   781)       559.120 1  Rx        01C0 -  6    00 00 00 00 00 00 
   782)       560.016 1  Rx        009B -  8    2A 00 00 55 00 79 00 FF 
   783)       561.125 1  Rx        0023 -  8    10 02 10 00 00 00 C6 AA 
   784)       561.808 1  Rx        002F -  8    00 00 00 00 00 D5 7C 00 
   785)       562.106 1  Rx        0071 -  8    1F FF 00 00 6D 00 30 79 
   786)       562.320 1  Rx        0079 -  8    80 00 00 00 00 00 30 E1 
   787)       562.533 1  Rx        007F -  8    41 B9 00 7A 00 00 FF FF 
   788)       562.789 1  Rx        0037 -  8    1F FE 00 00 0A 28 70 D9 
   789)       563.045 1  Rx        0083 -  8    80 04 00 00 00 00 30 E4 
   790)       563.685 1  Rx        0085 -  8    20 DD 04 00 00 00 00 0C 
   791)       564.666 1  Rx        0093 -  8    80 FC 50 00 00 00 31 4E 
   792)       566.031 1  Rx        00B1 -  3    00 80 98 
   793)       569.231 1  Rx        00AD -  5    01 00 00 E0 76 
   794)       569.957 1  Rx        0077 -  2    03 02 
   795)       571.151 1  Rx        0023 -  8    10 02 10 00 00 00 D6 67 
   796)       571.834 1  Rx        002F -  8    00 00 00 00 00 D6 7C 00 
   797)       572.090 1  Rx        0087 -  8    00 00 00 00 00 66 30 6A 
   798)       572.303 1  Rx        0089 -  8    FF FF FF 6D FF FF 30 FF 
   799)       572.559 1  Rx        008B -  8    00 00 00 00 00 00 00 00 
   800)       572.815 1  Rx        0037 -  8    1F FE 00 00 0A 28 80 A6 
   801)       573.029 1  Rx        00A7 -  8    00 00 00 9E 40 9B 30 36 
   802)       573.285 1  Rx        00DD -  8    0F 36 0F 84 00 80 00 00 
   803)       573.669 1  Rx        0095 -  7    00 00 00 00 00 40 E5 
   804)       574.693 1  Rx        00AB -  8    00 00 CD 0D 00 00 40 42 
   805)       575.717 1  Rx        00B3 -  8    00 00 00 00 00 00 40 19 
   806)       580.069 1  Rx        009B -  8    2A 00 00 55 00 79 00 FF 
   807)       580.325 1  Rx        0133 -  8    00 00 00 00 FF 03 0C FF 
   808)       581.135 1  Rx        0023 -  8    10 02 10 00 00 00 E6 2D 
   809)       581.519 1  Rx        0318 -  8    00 00 00 00 00 00 FF 00 
   810)       581.818 1  Rx        002F -  8    00 00 00 00 00 D6 7C 00 
   811)       582.074 1  Rx        0071 -  8    1F FF 00 00 6D 00 40 20 
   812)       582.287 1  Rx        0079 -  8    80 00 00 00 00 00 40 B8 
   813)       582.543 1  Rx        007F -  8    41 B9 00 7A 00 00 FF FF 
   814)       582.799 1  Rx        0037 -  8    1F FE 00 00 0A 28 90 6B 
   815)       583.055 1  Rx        0083 -  8    80 04 00 00 00 00 40 BD 
   816)       583.738 1  Rx        0085 -  8    20 DD 04 00 00 00 00 10 
   817)       584.719 1  Rx        0093 -  8    80 FC 50 00 00 00 41 17 
   818)       585.615 1  Rx        0125 -  3    00 5E 00 
   819)       586.042 1  Rx        00B1 -  3    00 90 55 
   820)       589.242 1  Rx        00AD -  5    01 00 00 F0 BB 
   821)       589.924 1  Rx        0077 -  2    03 02 
   822)       591.162 1  Rx        0023 -  8    10 02 10 00 00 00 F6 E0 
   823)       591.844 1  Rx        002F -  8    00 00 00 00 00 D6 7C 00 
   824)       592.058 1  Rx        0087 -  8    00 00 00 00 00 66 40 33 
   825)       592.314 1  Rx        0089 -  8    FF FF FF 6D FF FF 40 FF 
   826)       592.570 1  Rx        008B -  8    00 00 00 00 00 00 00 00 
   827)       592.826 1  Rx        0037 -  8    1F FE 00 00 0A 28 A0 21 
   828)       593.039 1  Rx        00A7 -  8    00 00 00 9E 40 9B 40 6F 
   829)       593.508 1  Rx        0328 -  8    00 00 00 00 00 00 00 00 
   830)       593.722 1  Rx        0095 -  7    00 00 00 00 00 50 28 
   831)       594.703 1  Rx        00AB -  8    00 00 CD 0D 00 00 50 8F 
   832)       595.684 1  Rx        00B3 -  8    00 00 00 00 00 00 50 D4 
   833)       599.951 1  Rx        009B -  8    2A 00 00 55 00 79 00 FF 
   834)       600.207 1  Rx        012B -  8    98 1A F4 60 1F FF 7B FF 
   835)       600.463 1  Rx        013F -  8    FF FF C2 43 01 27 00 00 
   836)       601.188 1  Rx        0023 -  8    10 02 10 00 00 00 06 9F 
   837)       601.828 1  Rx        002F -  8    00 00 00 00 00 D6 7C 00 
   838)       602.042 1  Rx        0071 -  8    1F FF 00 00 6D 00 50 ED 
   839)       602.298 1  Rx        0079 -  8    80 00 00 00 00 00 50 75 
   840)       602.554 1  Rx        007F -  8    41 B9 00 7A 00 00 FF FF 
   841)       602.810 1  Rx        0037 -  8    1F FE 00 00 0A 28 B0 EC 
   842)       603.023 1  Rx        0083 -  8    80 04 00 00 00 00 50 70 
   843)       603.663 1  Rx        0085 -  8    20 DD 04 00 00 00 00 14 
   844)       604.644 1  Rx        0093 -  8    80 FC 50 00 00 00 51 DA 
   845)       606.010 1  Rx        00B1 -  3    00 A0 1F 
   846)       609.252 1  Rx        00AD -  5    01 00 00 00 C4 
   847)       609.892 1  Rx        0077 -  2    03 02 
   848)       611.172 1  Rx        0023 -  8    10 02 10 00 00 00 16 52 
   849)       611.855 1  Rx        002F -  8    00 00 00 00 00 D5 7C 00 
   850)       612.068 1  Rx        0087 -  8    00 00 00 00 00 66 50 FE 
   851)       612.324 1  Rx        0089 -  8    FF FF FF 6D FF FF 50 FF 
   852)       612.580 1  Rx        008B -  8    00 00 00 00 00 00 00 00 
   853)       612.836 1  Rx        0037 -  8    1F FE 00 00 0A 28 C0 B5 
   854)       613.049 1  Rx        00A7 -  8    00 00 00 9E 40 9B 50 A2 
   855)       613.647 1  Rx        0095 -  7    00 00 00 00 00 60 62 
   856)       614.671 1  Rx        00AB -  8    00 00 CD 0D 00 00 60 C5 
   857)       615.652 1  Rx        00B3 -  8    00 00 00 00 00 00 60 9E 
   858)       619.961 1  Rx        009B -  8    2A 00 00 55 00 79 00 FF 
   859)       621.113 1  Rx        0023 -  8    10 02 10 00 00 00 26 18 
   860)       621.796 1  Rx        002F -  8    00 00 00 00 00 D6 7C 00 
   861)       622.052 1  Rx        0071 -  8    1F FF 00 00 6D 00 60 A7 
   862)       622.308 1  Rx        0079 -  8    80 00 00 00 00 00 60 3F 
   863)       622.564 1  Rx        007F -  8    41 B9 00 7A 00 00 FF FF 
   864)       622.777 1  Rx        0037 -  8    1F FE 00 00 0A 28 D0 78 
   865)       623.033 1  Rx        0083 -  8    80 04 00 00 00 00 60 3A 
   866)       623.289 1  Rx        00DD -  8    0F 36 0F 84 00 80 00 00 
   867)       623.503 1  Rx        0401 -  8    FD 02 04 0F 00 00 00 00 
   868)       623.759 1  Rx        0085 -  8    20 DD 04 00 00 00 00 18 
   869)       624.697 1  Rx        0093 -  8    80 FC 50 00 00 00 61 90 
   870)       626.020 1  Rx        00B1 -  3    00 B0 D2 
   871)       629.220 1  Rx        00AD -  5    01 00 00 10 09 
   872)       629.988 1  Rx        0077 -  2    03 02 
   873)       631.182 1  Rx        0023 -  8    10 02 10 00 00 00 36 D5 
   874)       631.865 1  Rx        002F -  8    00 00 00 00 00 D6 7C 00 
   875)       632.078 1  Rx        0087 -  8    00 00 00 00 00 66 60 B4 
   876)       632.334 1  Rx        0089 -  8    FF FF FF 6D FF FF 60 FF 
   877)       632.590 1  Rx        008B -  8    00 00 00 00 00 00 00 00 
   878)       632.804 1  Rx        0037 -  8    1F FE 00 00 0A 28 E0 32 
   879)       633.060 1  Rx        00A7 -  8    00 00 00 9E 40 9B 60 E8 
   880)       633.700 1  Rx        0095 -  7    00 00 00 00 00 70 AF 
   881)       634.681 1  Rx        00AB -  8    00 00 CD 0D 00 00 70 08 
   882)       635.705 1  Rx        00B3 -  8    00 00 00 00 00 00 70 53 
   883)       639.972 1  Rx        009B -  8    2A 00 00 55 00 79 00 FF 
   884)       641.124 1  Rx        0023 -  8    10 02 10 00 00 00 46 8C 
   885)       641.806 1  Rx        002F -  8    00 00 00 00 00 D6 7C 00 
   886)       642.062 1  Rx        0071 -  8    1F FF 00 00 6D 00 70 6A 
   887)       642.318 1  Rx        0079 -  8    80 00 00 00 00 00 70 F2 
   888)       642.532 1  Rx        007F -  8    41 B9 00 7A 00 00 FF FF 
   889)       642.788 1  Rx        0037 -  8    1F FE 00 00 0A 28 F0 FF 
   890)       643.044 1  Rx        0083 -  8    80 04 00 00 00 00 70 F7 
   891)       643.641 1  Rx        0085 -  8    20 DD 04 00 00 00 00 1C 
   892)       644.665 1  Rx        0093 -  8    80 FC 50 00 00 00 71 5D 
   893)       646.030 1  Rx        00B1 -  3    00 C0 8B 
   894)       649.059 1  Rx        0129 -  4    2E 00 00 00 
   895)       649.230 1  Rx        00AD -  5    01 00 00 20 43 
   896)       649.913 1  Rx        0077 -  2    03 02 
   897)       651.150 1  Rx        0023 -  8    10 02 10 00 00 00 56 41 
   898)       651.833 1  Rx        002F -  8    00 00 00 00 00 D6 7C 00 
   899)       652.089 1  Rx        0087 -  8    00 00 00 00 00 66 70 79 
   900)       652.302 1  Rx        0089 -  8    FF FF FF 6D FF FF 70 FF 
   901)       652.558 1  Rx        008B -  8    00 00 00 00 00 00 00 00 
   902)       652.814 1  Rx        0037 -  8    1F FE 00 00 0A 28 00 80 
   903)       653.027 1  Rx        00A7 -  8    00 00 00 9E 40 9C 70 DC 
   904)       653.625 1  Rx        0095 -  7    00 00 00 00 00 80 D0 
   905)       654.649 1  Rx        00AB -  8    00 00 CD 0D 00 00 80 77 
   906)       655.673 1  Rx        00B3 -  8    00 00 00 00 00 00 80 2C 
   907)       657.507 1  Rx        02F2 -  8    00 00 00 00 00 00 00 00 
   908)       659.939 1  Rx        009B -  8    2A 00 00 55 00 79 00 FF 
   909)       661.134 1  Rx        0023 -  8    10 02 10 00 00 00 66 0B 
   910)       661.817 1  Rx        002F -  8    00 00 00 00 00 D5 7C 00 
   911)       662.073 1  Rx        0071 -  8    1F FF 00 00 6D 00 80 15 
   912)       662.286 1  Rx        0079 -  8    80 00 00 00 00 00 80 8D 
   913)       662.542 1  Rx        007F -  8    41 B9 00 7A 00 00 FF FF 
   914)       662.798 1  Rx        0037 -  8    1F FE 00 00 0A 28 10 4D 
   915)       663.054 1  Rx        0083 -  8    80 04 00 00 00 00 80 88 
   916)       663.737 1  Rx        0085 -  8    20 DD 04 00 00 00 00 20 
   917)       664.718 1  Rx        0093 -  8    80 FC 50 00 00 00 81 22 
   918)       666.041 1  Rx        00B1 -  3    00 D0 46 
   919)       669.241 1  Rx        00AD -  5    01 00 00 30 8E 
   920)       669.881 1  Rx        0077 -  2    03 02 
   921)       671.160 1  Rx        0023 -  8    10 02 10 00 00 00 76 C6 
   922)       671.843 1  Rx        002F -  8    00 00 00 00 00 D6 7C 00 
   923)       672.099 1  Rx        0087 -  8    00 00 00 00 00 66 80 06 
   924)       672.312 1  Rx        0089 -  8    FF FF FF 6D FF FF 80 FF 
   925)       672.568 1  Rx        008B -  8    00 00 00 00 00 00 00 00 
   926)       672.824 1  Rx        0037 -  8    1F FE 00 00 0A 28 20 07 
   927)       673.080 1  Rx        00A7 -  8    00 00 00 9E 40 9B 80 5A 
   928)       673.294 1  Rx        00DD -  8    0F 36 0F 84 00 80 00 00 
   929)       673.678 1  Rx        0095 -  7    00 00 00 00 00 90 1D 
   930)       674.702 1  Rx        00AB -  8    00 00 CD 0D 00 00 90 BA 
   931)       675.683 1  Rx        00B3 -  8    00 00 00 00 00 00 90 E1 
   932)       680.291 1  Rx        009B -  8    2A 00 00 55 00 79 00 FF 
   933)       680.547 1  Rx        0133 -  8    00 00 00 00 FF 03 0C FF 
   934)       681.144 1  Rx        0023 -  8    10 02 10 00 00 00 86 B9 
   935)       681.528 1  Rx        0318 -  8    00 00 00 00 00 00 FF 00 
   936)       681.827 1  Rx        002F -  8    00 00 00 00 00 D6 7C 00 
   937)       682.040 1  Rx        0071 -  8    1F FF 00 00 6D 00 90 D8 
   938)       682.296 1  Rx        0079 -  8    80 00 00 00 00 00 90 40 
   939)       682.552 1  Rx        007F -  8    41 B9 00 7A 00 00 FF FF 
   940)       682.766 1  Rx        0037 -  8    1F FE 00 00 0A 28 30 CA 
   941)       683.022 1  Rx        0083 -  8    80 04 00 00 00 00 90 45 
   942)       683.704 1  Rx        0085 -  8    20 DD 04 00 00 00 00 24 
   943)       684.643 1  Rx        0093 -  8    80 FC 50 00 00 00 91 EF 
   944)       685.582 1  Rx        0125 -  3    00 5E 00 
   945)       686.051 1  Rx        00B1 -  3    00 E0 0C 
   946)       689.251 1  Rx        00AD -  5    01 00 00 40 D7 
   947)       689.891 1  Rx        0077 -  2    03 02 
   948)       690.147 1  Rx        03E8 -  8    49 31 A2 43 00 0E 50 5C 
   949)       691.214 1  Rx        0023 -  8    10 02 10 00 00 00 96 74 
   950)       691.853 1  Rx        002F -  8    00 00 00 00 00 D6 7C 00 
   951)       692.109 1  Rx        0087 -  8    00 00 00 00 00 66 90 CB 
   952)       692.323 1  Rx        0089 -  8    FF FF FF 6D FF FF 90 FF 
   953)       692.579 1  Rx        008B -  8    00 00 00 00 00 00 00 00 
   954)       692.835 1  Rx        0037 -  8    1F FE 00 00 0A 28 40 93 
   955)       693.048 1  Rx        00A7 -  8    00 00 00 9E 40 9B 90 97 
   956)       693.688 1  Rx        0095 -  7    00 00 00 00 00 A0 57 
   957)       694.712 1  Rx        00AB -  8    00 00 CD 0D 00 00 A0 F0 
   958)       695.693 1  Rx        00B3 -  8    00 00 00 00 00 00 A0 AB 
   959)       699.960 1  Rx        009B -  8    2A 00 00 55 00 79 00 FF 
   960)       700.259 1  Rx        012B -  8    98 1A F4 60 1F FF 7B FF 
   961)       700.472 1  Rx        013F -  8    FF FF C2 42 01 27 00 00 
   962)       700.643 1  Rx        01C8 -  4    00 00 00 00 
   963)       701.197 1  Rx        0023 -  8    10 02 10 00 00 00 A6 3E 
   964)       701.837 1  Rx        002F -  8    00 00 00 00 00 D6 7C 00 
   965)       702.051 1  Rx        0071 -  8    1F FF 00 00 6D 00 A0 92 
   966)       702.307 1  Rx        0079 -  8    80 00 00 00 00 00 A0 0A 
   967)       702.563 1  Rx        007F -  8    41 B9 00 7A 00 00 FF FF 
   968)       702.819 1  Rx        0037 -  8    1F FE 00 00 0A 28 50 5E 
   969)       703.032 1  Rx        0083 -  8    80 04 00 00 00 00 A0 0F 
   970)       703.672 1  Rx        0085 -  8    20 DD 04 00 00 00 00 28 
   971)       704.653 1  Rx        0093 -  8    80 FC 50 00 00 00 A1 A5 
   972)       706.061 1  Rx        00B1 -  3    00 F0 C1 
   973)       707.555 1  Rx        0402 -  8    FD 03 3F FF FF FF FF FF 
   974)       709.261 1  Rx        00AD -  5    01 00 00 50 1A 
   975)       709.901 1  Rx        0077 -  2    03 02 
   976)       711.181 1  Rx        0023 -  8    10 02 10 00 00 00 B6 F3 
   977)       711.864 1  Rx        002F -  8    00 00 00 00 00 D6 7C 00 
   978)       712.077 1  Rx        0087 -  8    00 00 00 00 00 66 A0 81 
   979)       712.333 1  Rx        0089 -  8    FF FF FF 6D FF FF A0 FF 
   980)       712.589 1  Rx        008B -  8    00 00 00 00 00 00 00 00 
   981)       712.845 1  Rx        0037 -  8    1F FE 00 00 0A 28 60 14 
   982)       713.058 1  Rx        00A7 -  8    00 00 00 9E 40 9B A0 DD 
   983)       713.698 1  Rx        0095 -  7    00 00 00 00 00 B0 9A 
   984)       714.680 1  Rx        00AB -  8    00 00 CD 0D 00 00 B0 3D 
   985)       715.704 1  Rx        00B3 -  8    00 00 00 00 00 00 B0 66 
   986)       719.970 1  Rx        009B -  8    2A 00 00 55 00 79 00 FF 
   987)       721.122 1  Rx        0023 -  8    10 02 10 00 00 00 C6 AA 
   988)       721.805 1  Rx        002F -  8    00 00 00 00 00 D5 7C 00 
   989)       722.061 1  Rx        0071 -  8    1F FF 00 00 6D 00 B0 5F 
   990)       722.317 1  Rx        0079 -  8    80 00 00 00 00 00 B0 C7 
   991)       722.530 1  Rx        007F -  8    41 B9 00 7A 00 00 FF FF 
   992)       722.786 1  Rx        0037 -  8    1F FE 00 00 0A 28 70 D9 
   993)       723.042 1  Rx        0083 -  8    80 04 00 00 00 00 B0 C2 
   994)       723.256 1  Rx        00DD -  8    0F 36 0F 84 00 80 00 00 
   995)       723.682 1  Rx        0085 -  8    20 DD 04 00 00 00 00 2C 
   996)       724.706 1  Rx        0093 -  8    80 FC 50 00 00 00 B1 68 
   997)       726.029 1  Rx        00B1 -  3    00 00 BE 
   998)       729.229 1  Rx        00AD -  5    01 00 00 60 50 
   999)       729.954 1  Rx        0077 -  2    03 02 
  1000)       730.210 1  Rx        0230 -  8    00 5B 36 08 00 00 00 00 
  1001)       731.192 1  Rx        0023 -  8    10 02 10 00 00 00 D6 67 
  1002)       731.832 1  Rx        002F -  8    00 00 00 00 00 D6 7C 00 
  1003)       732.088 1  Rx        0087 -  8    00 00 00 00 00 66 B0 4C 
  1004)       732.301 1  Rx        0089 -  8    FF FF FF 6D FF FF B0 FF 
  1005)       732.557 1  Rx        008B -  8    00 00 00 00 00 00 00 00 
  1006)       732.813 1  Rx        0037 -  8    1F FE 00 00 0A 28 80 A6 
  1007)       733.026 1  Rx        00A7 -  8    00 00 00 9E 40 9B B0 10 
  1008)       733.666 1  Rx        0095 -  7    00 00 00 00 00 C0 C3 
  1009)       734.690 1  Rx        00AB -  8    00 00 CD 0D 00 00 C0 64 
  1010)       735.714 1  Rx        00B3 -  8    00 00 00 00 00 00 C0 3F 
  1011)       739.981 1  Rx        009B -  8    2A 00 00 55 00 79 00 FF 
  1012)       740.237 1  Rx        0248 -  8    00 00 FF FF FF 03 FF FF 
  1013)       741.133 1  Rx        0023 -  8    10 02 10 00 00 00 E6 2D 
  1014)       741.815 1  Rx        002F -  8    00 00 00 00 00 D6 7C 00 
  1015)       742.071 1  Rx        0071 -  8    1F FF 00 00 6D 00 C0 06 
  1016)       742.285 1  Rx        0079 -  8    80 00 00 00 00 00 C0 9E 
  1017)       742.541 1  Rx        007F -  8    41 B9 00 7A 00 00 FF FF 
  1018)       742.797 1  Rx        0037 -  8    1F FE 00 00 0A 28 90 6B 
  1019)       743.053 1  Rx        0083 -  8    80 04 00 00 00 00 C0 9B 
  1020)       743.693 1  Rx        0085 -  8    20 DD 04 00 00 00 00 30 
  1021)       744.674 1  Rx        0093 -  8    80 FC 50 00 00 00 C1 31 
  1022)       746.039 1  Rx        00B1 -  3    00 10 73 
  1023)       749.069 1  Rx        0129 -  4    2E 00 00 00 
  1024)       749.239 1  Rx        00AD -  5    01 00 00 70 9D 
  1025)       749.922 1  Rx        0077 -  2    03 02 
  1026)       751.202 1  Rx        0023 -  8    10 02 10 00 00 00 F6 E0 
  1027)       751.842 1  Rx        002F -  8    00 00 00 00 00 D6 7C 00 
  1028)       752.098 1  Rx        0087 -  8    00 00 00 00 00 66 C0 15 
  1029)       752.311 1  Rx        0089 -  8    FF FF FF 6D FF FF C0 FF 
  1030)       752.567 1  Rx        008B -  8    00 00 00 00 00 00 00 00 
  1031)       752.823 1  Rx        0037 -  8    1F FE 00 00 0A 28 A0 21 
  1032)       753.037 1  Rx        00A7 -  8    00 00 00 9E 40 9B C0 49 
  1033)       753.677 1  Rx        0095 -  7    00 00 00 00 00 D0 0E 
  1034)       754.658 1  Rx        00AB -  8    00 00 CD 0D 00 00 D0 A9 
  1035)       755.682 1  Rx        00B3 -  8    00 00 00 00 00 00 D0 F2 
  1036)       757.516 1  Rx        02F2 -  8    00 00 00 00 00 00 00 00 
  1037)       759.138 1  Rx        01C0 -  6    00 00 00 00 00 00 
  1038)       760.034 1  Rx        009B -  8    2A 00 00 55 00 79 00 FF 
  1039)       761.143 1  Rx        0023 -  8    10 02 10 00 00 00 06 9F 
  1040)       761.826 1  Rx        002F -  8    00 00 00 00 00 D5 7C 00 
  1041)       762.082 1  Rx        0071 -  8    1F FF 00 00 6D 00 D0 CB 
  1042)       762.295 1  Rx        0079 -  8    80 00 00 00 00 00 D0 53 
  1043)       762.551 1  Rx        007F -  8    41 B9 00 7A 00 00 FF FF 
  1044)       762.807 1  Rx        0037 -  8    1F FE 00 00 0A 28 B0 EC 
  1045)       763.020 1  Rx        0083 -  8    80 04 00 00 00 00 D0 56 
  1046)       763.703 1  Rx        0085 -  8    20 DD 04 00 00 00 00 34 
  1047)       764.684 1  Rx        0093 -  8    80 FC 50 00 00 00 D1 FC 
  1048)       766.050 1  Rx        00B1 -  3    00 20 39 
  1049)       767.500 1  Rx        01F7 -  8    FF FF 0F FF 00 80 00 00 
  1050)       769.250 1  Rx        00AD -  5    01 00 00 80 E2 
  1051)       769.932 1  Rx        0077 -  2    03 02 
  1052)       771.170 1  Rx        0023 -  8    10 02 10 00 00 00 16 52 
  1053)       771.852 1  Rx        002F -  8    00 00 00 00 00 D6 7C 00 
  1054)       772.066 1  Rx        0087 -  8    00 00 00 00 00 66 D0 D8 
  1055)       772.322 1  Rx        0089 -  8    FF FF FF 6D FF FF D0 FF 
  1056)       772.578 1  Rx        008B -  8    00 00 00 00 00 00 00 00 
  1057)       772.791 1  Rx        0037 -  8    1F FE 00 00 0A 28 C0 B5 
  1058)       773.047 1  Rx        00A7 -  8    00 00 00 9E 40 9B D0 84 
  1059)       773.303 1  Rx        00DD -  8    0F 36 0F 84 00 80 00 00 
  1060)       773.644 1  Rx        0095 -  7    00 00 00 00 00 E0 44 
  1061)       774.626 1  Rx        00AB -  8    00 00 CD 0D 00 00 E0 E3 
  1062)       775.650 1  Rx        00B3 -  8    00 00 00 00 00 00 E0 B8 
  1063)       780.172 1  Rx        009B -  8    2A 00 00 55 00 79 00 FF 
  1064)       780.428 1  Rx        0133 -  8    00 00 00 00 FF 03 0C FF 
  1065)       781.153 1  Rx        0023 -  8    10 02 10 00 00 00 26 18 
  1066)       781.537 1  Rx        0318 -  8    00 00 00 00 00 00 FF 00 
  1067)       781.793 1  Rx        002F -  8    00 00 00 00 00 D5 7C 00 
  1068)       782.049 1  Rx        0071 -  8    1F FF 00 00 6D 00 E0 81 
  1069)       782.305 1  Rx        0079 -  8    80 00 00 00 00 00 E0 19 
  1070)       782.561 1  Rx        007F -  8    41 B9 00 7A 00 00 FF FF 
  1071)       782.775 1  Rx        0037 -  8    1F FE 00 00 0A 28 D0 78 
  1072)       783.031 1  Rx        0083 -  8    80 04 00 00 00 00 E0 1C 
  1073)       783.713 1  Rx        0085 -  8    20 DD 04 00 00 00 00 38 
  1074)       784.737 1  Rx        0093 -  8    80 FC 50 00 00 00 E1 B6 
  1075)       785.633 1  Rx        0125 -  3    00 5E 00 
  1076)       786.060 1  Rx        00B1 -  3    00 30 F4 
  1077)       789.260 1  Rx        00AD -  5    01 00 00 90 2F 
  1078)       789.943 1  Rx        0077 -  2    03 02 
  1079)       791.180 1  Rx        0023 -  8    10 02 10 00 00 00 36 D5 
  1080)       791.820 1  Rx        002F -  8    00 00 00 00 00 D6 7C 00 
  1081)       792.076 1  Rx        0087 -  8    00 00 00 00 00 66 E0 92 
  1082)       792.332 1  Rx        0089 -  8    FF FF FF 6D FF FF E0 FF 
  1083)       792.588 1  Rx        008B -  8    00 00 00 00 00 00 00 00 
  1084)       792.801 1  Rx        0037 -  8    1F FE 00 00 0A 28 E0 32 
  1085)       793.057 1  Rx        00A7 -  8    00 00 00 9E 40 9B E0 CE 
  1086)       793.697 1  Rx        0095 -  7    00 00 00 00 00 F0 89 
  1087)       794.721 1  Rx        00AB -  8    00 00 CD 0D 00 00 F0 2E 
  1088)       795.703 1  Rx        00B3 -  8    00 00 00 00 00 00 F0 75 
  1089)       797.921 1  Rx        0403 -  8    FD 07 BF FF FF FF FF FF 
  1090)       799.969 1  Rx        009B -  8    2A 00 00 55 00 79 00 FF 
  1091)       800.225 1  Rx        012B -  8    98 1A F4 60 1F FF 7B FF 
  1092)       800.481 1  Rx        013F -  8    FF FF C2 43 01 27 00 00 
  1093)       801.164 1  Rx        0023 -  8    10 02 10 00 00 00 45 AB 
  1094)       801.846 1  Rx        002F -  8    00 00 00 00 00 D7 7C 00 
  1095)       802.102 1  Rx        0071 -  8    1F FF 00 00 6D 00 F0 4C 
  1096)       802.316 1  Rx        0079 -  8    80 00 00 00 00 00 F0 D4 
  1097)       802.572 1  Rx        007F -  8    41 B9 00 7A 00 00 FF FF 
  1098)       802.828 1  Rx        0037 -  8    1F FE 00 00 0A 28 F0 FF 
  1099)       803.041 1  Rx        0083 -  8    80 04 00 00 00 00 F0 D1 
  1100)       803.681 1  Rx        0085 -  8    20 DD 04 00 00 00 00 3C 
  1101)       804.705 1  Rx        0093 -  8    80 FC 50 00 00 00 F1 7B 
  1102)       806.070 1  Rx        00B1 -  3    00 40 AD 
  1103)       809.228 1  Rx        00AD -  5    01 00 00 A0 65 
  1104)       809.910 1  Rx        0077 -  2    03 02 
  1105)       811.190 1  Rx        0023 -  8    10 02 10 00 00 00 55 66 
  1106)       811.830 1  Rx        002F -  8    00 00 00 00 00 D6 7C 00 
  1107)       812.086 1  Rx        0087 -  8    00 00 00 00 00 66 F0 5F 
  1108)       812.342 1  Rx        0089 -  8    FF FF FF 6D FF FF F0 FF 
  1109)       812.556 1  Rx        008B -  8    00 00 00 00 00 00 00 00 
  1110)       812.812 1  Rx        0037 -  8    1F FE 00 00 0A 28 00 80 
  1111)       813.068 1  Rx        00A7 -  8    00 00 00 9E 40 9B F0 03 
  1112)       813.665 1  Rx        0095 -  7    00 00 00 00 00 00 F6 
  1113)       814.646 1  Rx        00AB -  8    00 00 CD 0D 00 00 00 51 
  1114)       815.670 1  Rx        00B3 -  8    00 00 00 00 00 00 00 0A 
  1115)       819.937 1  Rx        009B -  8    2A 00 00 55 00 79 00 FF 
  1116)       821.131 1  Rx        0023 -  8    10 02 10 00 00 00 65 2C 
  1117)       821.814 1  Rx        002F -  8    00 00 00 00 00 D6 7C 00 
  1118)       822.070 1  Rx        0071 -  8    1F FF 00 00 6D 00 00 33 
  1119)       822.283 1  Rx        0079 -  8    80 00 00 00 00 00 00 AB 
  1120)       822.539 1  Rx        007F -  8    41 B9 00 7A 00 00 FF FF 
  1121)       822.795 1  Rx        0037 -  8    1F FE 00 00 0A 28 10 4D 
  1122)       823.051 1  Rx        0083 -  8    80 04 00 00 00 00 00 AE 
  1123)       823.265 1  Rx        00DD -  8    0F 36 0F 84 00 80 00 00 
  1124)       823.734 1  Rx        0085 -  8    20 DD 04 00 00 00 00 00 
  1125)       824.715 1  Rx        0093 -  8    80 FC 50 00 00 00 01 04 
  1126)       826.038 1  Rx        00B1 -  3    00 50 60 
  1127)       829.238 1  Rx        00AD -  5    01 00 00 B0 A8 
  1128)       829.963 1  Rx        0077 -  2    03 02 
  1129)       831.201 1  Rx        0023 -  8    10 02 10 00 00 00 75 E1 
  1130)       831.841 1  Rx        002F -  8    00 00 00 00 00 D6 7C 00 
  1131)       832.097 1  Rx        0087 -  8    00 00 00 00 00 66 00 20 
  1132)       832.310 1  Rx        0089 -  8    FF FF FF 6D FF FF 00 FF 
  1133)       832.566 1  Rx        008B -  8    00 00 00 00 00 00 00 00 
  1134)       832.822 1  Rx        0037 -  8    1F FE 00 00 0A 28 20 07 
  1135)       833.078 1  Rx        00A7 -  8    00 00 00 9E 40 9B 00 7C 
  1136)       833.633 1  Rx        0095 -  7    00 00 00 00 00 10 3B 
  1137)       834.657 1  Rx        00AB -  8    00 00 CD 0D 00 00 10 9C 
  1138)       835.681 1  Rx        00B3 -  8    00 00 00 00 00 00 10 C7 
  1139)       839.947 1  Rx        009B -  8    2A 00 00 55 00 79 00 FF 
  1140)       841.142 1  Rx        0023 -  8    10 02 10 00 00 00 85 9E 
  1141)       841.824 1  Rx        002F -  8    00 00 00 00 00 D6 7C 00 
  1142)       842.080 1  Rx        0071 -  8    1F FF 00 00 6D 00 10 FE 
  1143)       842.294 1  Rx        0079 -  8    80 00 00 00 00 00 10 66 
  1144)       842.550 1  Rx        007F -  8    41 B9 00 7A 00 00 FF FF 
  1145)       842.806 1  Rx        0037 -  8    1F FE 00 00 0A 28 30 CA 
  1146)       843.062 1  Rx        0083 -  8    80 04 00 00 00 00 10 63 
  1147)       843.702 1  Rx        0085 -  8    20 DD 04 00 00 00 00 04 
  1148)       844.683 1  Rx        0093 -  8    80 FC 50 00 00 00 11 C9 
  1149)       846.048 1  Rx        00B1 -  3    00 60 2A 
  1150)       849.078 1  Rx        0129 -  4    2E 00 00 00 
  1151)       849.248 1  Rx        00AD -  5    01 00 00 C0 F1 
  1152)       849.931 1  Rx        0077 -  2    03 02 
  1153)       851.211 1  Rx        0023 -  8    10 02 10 00 00 00 95 53 
  1154)       851.851 1  Rx        002F -  8    00 00 00 00 00 D6 7C 00 
  1155)       852.064 1  Rx        0087 -  8    00 00 00 00 00 66 10 ED 
  1156)       852.320 1  Rx        0089 -  8    FF FF FF 6D FF FF 10 FF 
  1157)       852.576 1  Rx        008B -  8    00 00 00 00 00 00 00 00 
  1158)       852.832 1  Rx        0037 -  8    1F FE 00 00 0A 28 40 93 
  1159)       853.046 1  Rx        00A7 -  8    00 00 00 9E 40 9B 10 B1 
  1160)       853.686 1  Rx        0095 -  7    00 00 00 00 00 20 71 
  1161)       854.710 1  Rx        00AB -  8    00 00 CD 0D 00 00 20 D6 
  1162)       855.691 1  Rx        00B3 -  8    00 00 00 00 00 00 20 8D 
  1163)       857.526 1  Rx        02F2 -  8    00 00 00 00 00 00 00 00 
  1164)       860.000 1  Rx        009B -  8    2A 00 00 55 00 79 00 FF 
  1165)       861.152 1  Rx        0023 -  8    10 02 10 00 00 00 A5 19 
  1166)       861.835 1  Rx        002F -  8    00 00 00 00 00 D6 7C 00 
  1167)       862.048 1  Rx        0071 -  8    1F FF 00 00 6D 00 20 B4 
  1168)       862.304 1  Rx        0079 -  8    80 00 00 00 00 00 20 2C 
  1169)       862.560 1  Rx        007F -  8    41 B9 00 7A 00 00 FF FF 
  1170)       862.773 1  Rx        0037 -  8    1F FE 00 00 0A 28 50 5E 
  1171)       863.029 1  Rx        0083 -  8    80 04 00 00 00 00 20 29 
  1172)       863.669 1  Rx        0085 -  8    20 DD 04 00 00 00 00 08 
  1173)       864.693 1  Rx        0093 -  8    80 FC 50 00 00 00 21 83 
  1174)       866.059 1  Rx        00B1 -  3    00 70 E7 
  1175)       869.259 1  Rx        00AD -  5    01 00 00 D0 3C 
  1176)       869.899 1  Rx        0077 -  2    03 02 
  1177)       871.179 1  Rx        0023 -  8    10 02 10 00 00 00 B5 D4 
  1178)       871.861 1  Rx        002F -  8    00 00 00 00 00 D5 7C 00 
  1179)       872.075 1  Rx        0087 -  8    00 00 00 00 00 66 20 A7 
  1180)       872.331 1  Rx        0089 -  8    FF FF FF 6D FF FF 20 FF 
  1181)       872.587 1  Rx        008B -  8    00 00 00 00 00 00 00 00 
  1182)       872.800 1  Rx        0037 -  8    1F FE 00 00 0A 28 60 14 
  1183)       873.056 1  Rx        00A7 -  8    00 00 00 9E 40 9B 20 FB 
  1184)       873.312 1  Rx        00DD -  8    0F 36 0F 84 00 80 00 00 
  1185)       873.653 1  Rx        0095 -  7    00 00 00 00 00 30 BC 
  1186)       874.720 1  Rx        00AB -  8    00 00 CD 0D 00 00 30 1B 
  1187)       875.701 1  Rx        00B3 -  8    00 00 00 00 00 00 30 40 
  1188)       880.139 1  Rx        009B -  8    2A 00 00 55 00 79 00 FF 
  1189)       880.437 1  Rx        0133 -  8    00 00 00 00 FF 03 0C FF 
  1190)       881.163 1  Rx        0023 -  8    10 02 10 00 00 00 C5 8D 
  1191)       881.547 1  Rx        0318 -  8    00 00 00 00 00 00 FF 00 
  1192)       881.803 1  Rx        002F -  8    00 00 00 00 00 D6 7C 00 
  1193)       882.059 1  Rx        0071 -  8    1F FF 00 00 6D 00 30 79 
  1194)       882.315 1  Rx        0079 -  8    80 00 00 00 00 00 30 E1 
  1195)       882.571 1  Rx        007F -  8    41 B9 00 7A 00 00 FF FF 
  1196)       882.784 1  Rx        0037 -  8    1F FE 00 00 0A 28 70 D9 
  1197)       883.040 1  Rx        0083 -  8    80 04 00 00 00 00 30 E4 
  1198)       883.296 1  Rx        0407 -  8    FD 09 84 FF FF FF FF 00 
  1199)       883.680 1  Rx        0085 -  8    20 DD 04 00 00 00 00 0C 
  1200)       884.704 1  Rx        0093 -  8    80 FC 50 00 00 00 31 4E 
  1201)       885.600 1  Rx        0125 -  3    00 5E 00 
  1202)       886.069 1  Rx        00B1 -  3    00 80 98 
  1203)       889.226 1  Rx        00AD -  5    01 00 00 E0 76 
  1204)       889.952 1  Rx        0077 -  2    03 02 
  1205)       891.189 1  Rx        0023 -  8    10 02 10 00 00 00 D5 40 
  1206)       891.829 1  Rx        002F -  8    00 00 00 00 00 D6 7C 00 
  1207)       892.085 1  Rx        0087 -  8    00 00 00 00 00 66 30 6A 
  1208)       892.341 1  Rx        0089 -  8    FF FF FF 6D FF FF 30 FF 
  1209)       892.554 1  Rx        008B -  8    00 00 00 00 00 00 00 00 
  1210)       892.810 1  Rx        0037 -  8    1F FE 00 00 0A 28 80 A6 
  1211)       893.066 1  Rx        00A7 -  8    00 00 00 9E 40 9B 30 36 
  1212)       893.706 1  Rx        0095 -  7    00 00 00 00 00 40 E5 
  1213)       894.688 1  Rx        00AB -  8    00 00 CD 0D 00 00 40 42 
  1214)       895.712 1  Rx        00B3 -  8    00 00 00 00 00 00 40 19 
  1215)       899.978 1  Rx        009B -  8    2A 00 00 55 00 79 00 FF 
  1216)       900.234 1  Rx        012B -  8    98 1A F4 60 1F FF 7B FF 
  1217)       900.490 1  Rx        013F -  8    FF FF C2 43 01 27 00 00 
  1218)       901.216 1  Rx        0023 -  8    10 02 10 00 00 00 E5 0A 
  1219)       901.813 1  Rx        002F -  8    00 00 00 00 00 D6 7C 00 
  1220)       902.069 1  Rx        0071 -  8    1F FF 00 00 6D 00 40 20 
  1221)       902.325 1  Rx        0079 -  8    80 00 00 00 00 00 40 B8 
  1222)       902.538 1  Rx        007F -  8    41 B9 00 7A 00 00 FF FF 
  1223)       902.794 1  Rx        0037 -  8    1F FE 00 00 0A 28 90 6B 
  1224)       903.050 1  Rx        0083 -  8    80 04 00 00 00 00 40 BD 
  1225)       903.733 1  Rx        0085 -  8    20 DD 04 00 00 00 00 10 
  1226)       904.714 1  Rx        0093 -  8    80 FC 50 00 00 00 41 17 
  1227)       906.079 1  Rx        00B1 -  3    00 90 55 
  1228)       909.237 1  Rx        00AD -  5    01 00 00 F0 BB 
  1229)       909.919 1  Rx        0077 -  2    03 02 
  1230)       911.199 1  Rx        0023 -  8    10 02 10 00 00 00 F5 C7 
  1231)       911.839 1  Rx        002F -  8    00 00 00 00 00 D6 7C 00 
  1232)       912.095 1  Rx        0087 -  8    00 00 00 00 00 66 40 33 
  1233)       912.309 1  Rx        0089 -  8    FF FF FF 6D FF FF 40 FF 
  1234)       912.565 1  Rx        008B -  8    00 00 00 00 00 00 00 00 
  1235)       912.821 1  Rx        0037 -  8    1F FE 00 00 0A 28 A0 21 
  1236)       913.034 1  Rx        00A7 -  8    00 00 00 9E 40 9B 40 6F 
  1237)       913.674 1  Rx        0095 -  7    00 00 00 00 00 50 28 
  1238)       914.698 1  Rx        00AB -  8    00 00 CD 0D 00 00 50 8F 
  1239)       915.679 1  Rx        00B3 -  8    00 00 00 00 00 00 50 D4 
  1240)       919.989 1  Rx        009B -  8    2A 00 00 55 00 79 00 FF 
  1241)       921.183 1  Rx        0023 -  8    10 02 10 00 00 00 05 B8 
  1242)       921.823 1  Rx        002F -  8    00 00 00 00 00 D6 7C 00 
  1243)       922.037 1  Rx        0071 -  8    1F FF 00 00 6D 00 50 ED 
  1244)       922.293 1  Rx        0079 -  8    80 00 00 00 00 00 50 75 
  1245)       922.549 1  Rx        007F -  8    41 B9 00 7A 00 00 FF FF 
  1246)       922.762 1  Rx        0037 -  8    1F FE 00 00 0A 28 B0 EC 
  1247)       923.018 1  Rx        0083 -  8    80 04 00 00 00 00 50 70 
  1248)       923.274 1  Rx        00DD -  8    0F 36 0F 84 00 80 00 00 
  1249)       923.701 1  Rx        0085 -  8    20 DD 04 00 00 00 00 14 
  1250)       924.682 1  Rx        0093 -  8    80 FC 50 00 00 00 51 DA 
  1251)       926.047 1  Rx        00B1 -  3    00 A0 1F 
  1252)       929.247 1  Rx        00AD -  5    01 00 00 00 C4 
  1253)       929.972 1  Rx        0077 -  2    03 02 
  1254)       931.210 1  Rx        0023 -  8    10 02 10 00 00 00 15 75 
  1255)       931.850 1  Rx        002F -  8    00 00 00 00 00 D6 7C 00 
  1256)       932.063 1  Rx        0087 -  8    00 00 00 00 00 66 50 FE 
  1257)       932.319 1  Rx        0089 -  8    FF FF FF 6D FF FF 50 FF 
  1258)       932.575 1  Rx        008B -  8    00 00 00 00 00 00 00 00 
  1259)       932.831 1  Rx        0037 -  8    1F FE 00 00 0A 28 C0 B5 
  1260)       933.044 1  Rx        00A7 -  8    00 00 00 9E 40 9C 50 5B 
  1261)       933.684 1  Rx        0095 -  7    00 00 00 00 00 60 62 
  1262)       934.708 1  Rx        00AB -  8    00 00 CD 0D 00 00 60 C5 
  1263)       935.690 1  Rx        00B3 -  8    00 00 00 00 00 00 60 9E 
  1264)       939.999 1  Rx        009B -  8    2A 00 00 55 00 79 00 FF 
  1265)       941.151 1  Rx        0023 -  8    10 02 10 00 00 00 25 3F 
  1266)       941.834 1  Rx        002F -  8    00 00 00 00 00 D6 7C 00 
  1267)       942.047 1  Rx        0071 -  8    1F FF 00 00 6D 00 60 A7 
  1268)       942.303 1  Rx        0079 -  8    80 00 00 00 00 00 60 3F 
  1269)       942.559 1  Rx        007F -  8    41 B9 00 7A 00 00 FF FF 
  1270)       942.772 1  Rx        0037 -  8    1F FE 00 00 0A 28 D0 78 
  1271)       943.028 1  Rx        0083 -  8    80 04 00 00 00 00 60 3A 
  1272)       943.711 1  Rx        0085 -  8    20 DD 04 00 00 00 00 18 
  1273)       944.692 1  Rx        0093 -  8    80 FC 50 00 00 00 61 90 
  1274)       946.058 1  Rx        00B1 -  3    00 B0 D2 
  1275)       949.087 1  Rx        0129 -  4    2E 00 00 00 
  1276)       949.257 1  Rx        00AD -  5    01 00 00 10 09 
  1277)       949.940 1  Rx        0077 -  2    03 02 
  1278)       951.220 1  Rx        0023 -  8    10 02 10 00 00 00 35 F2 
  1279)       951.817 1  Rx        002F -  8    00 00 00 00 00 D6 7C 00 
  1280)       952.073 1  Rx        0087 -  8    00 00 00 00 00 66 60 B4 
  1281)       952.329 1  Rx        0089 -  8    FF FF FF 6D FF FF 60 FF 
  1282)       952.585 1  Rx        008B -  8    00 00 00 00 00 00 00 00 
  1283)       952.799 1  Rx        0037 -  8    1F FE 00 00 0A 28 E0 32 
  1284)       953.055 1  Rx        00A7 -  8    00 00 00 9E 40 9C 60 11 
  1285)       953.695 1  Rx        0095 -  7    00 00 00 00 00 70 AF 
  1286)       954.719 1  Rx        00AB -  8    00 00 CD 0D 00 00 70 08 
  1287)       955.700 1  Rx        00B3 -  8    00 00 00 00 00 00 70 53 
  1288)       957.535 1  Rx        02F2 -  8    00 00 00 00 00 00 00 00 
  1289)       959.113 1  Rx        01C0 -  6    00 00 00 00 00 00 
  1290)       960.009 1  Rx        009B -  8    2A 00 00 55 00 79 00 FF 
  1291)       961.161 1  Rx        0023 -  8    10 02 10 00 00 00 45 AB 
  1292)       961.801 1  Rx        002F -  8    00 00 00 00 00 D6 7C 00 
  1293)       962.057 1  Rx        0071 -  8    1F FF 00 00 6D 00 70 6A 
  1294)       962.313 1  Rx        0079 -  8    80 00 00 00 00 00 70 F2 
  1295)       962.527 1  Rx        007F -  8    41 B9 00 7A 00 00 FF FF 
  1296)       962.783 1  Rx        0037 -  8    1F FE 00 00 0A 28 F0 FF 
  1297)       963.039 1  Rx        0083 -  8    80 04 00 00 00 00 70 F7 
  1298)       963.679 1  Rx        0085 -  8    20 DD 04 00 00 00 00 1C 
  1299)       964.660 1  Rx        0093 -  8    80 FC 50 00 00 00 71 5D 
  1300)       966.068 1  Rx        00B1 -  3    00 C0 8B 
  1301)       969.225 1  Rx        00AD -  5    01 00 00 20 43 
  1302)       969.908 1  Rx        0077 -  2    03 02 
  1303)       971.188 1  Rx        0023 -  8    10 02 10 00 00 00 55 66 
  1304)       971.828 1  Rx        002F -  8    00 00 00 00 00 D6 7C 00 
  1305)       972.084 1  Rx        0087 -  8    00 00 00 00 00 66 70 79 
  1306)       972.340 1  Rx        0089 -  8    FF FF FF 6D FF FF 70 FF 
  1307)       972.596 1  Rx        008B -  8    00 00 00 00 00 00 00 00 
  1308)       972.809 1  Rx        0037 -  8    1F FE 00 00 0A 28 00 80 
  1309)       973.065 1  Rx        00A7 -  8    00 00 00 9E 40 9B 70 25 
  1310)       973.278 1  Rx        00DD -  8    0F 36 0F 84 00 80 00 00 
  1311)       973.662 1  Rx        0095 -  7    00 00 00 00 00 80 D0 
  1312)       974.302 1  Rx        0409 -  8    FD 23 BF FF FF FF FF FF 
  1313)       974.686 1  Rx        00AB -  8    00 00 CD 0D 00 00 80 77 
  1314)       975.668 1  Rx        00B3 -  8    00 00 00 00 00 00 80 2C 
  1315)       980.105 1  Rx        009B -  8    2A 00 00 55 00 79 00 FF 
  1316)       980.404 1  Rx        0133 -  8    00 00 00 00 FF 03 0C FF 
  1317)       981.172 1  Rx        0023 -  8    10 02 10 00 00 00 65 2C 
  1318)       981.556 1  Rx        0318 -  8    00 00 00 00 00 00 FF 00 
  1319)       981.812 1  Rx        002F -  8    00 00 00 00 00 D6 7C 00 
  1320)       982.068 1  Rx        0071 -  8    1F FF 00 00 6D 00 80 15 
  1321)       982.324 1  Rx        0079 -  8    80 00 00 00 00 00 80 8D 
  1322)       982.537 1  Rx        007F -  8    41 B9 00 7A 00 00 FF FF 
  1323)       982.793 1  Rx        0037 -  8    1F FE 00 00 0A 28 10 4D 
  1324)       983.049 1  Rx        0083 -  8    80 04 00 00 00 00 80 88 
  1325)       983.732 1  Rx        0085 -  8    20 DD 04 00 00 00 00 20 
  1326)       984.713 1  Rx        0093 -  8    80 FC 50 00 00 00 81 22 
  1327)       985.652 1  Rx        0125 -  3    00 5E 00 
  1328)       986.078 1  Rx        00B1 -  3    00 D0 46 
  1329)       989.236 1  Rx        00AD -  5    01 00 00 30 8E 
  1330)       989.918 1  Rx        0077 -  2    03 02 
  1331)       991.198 1  Rx        0023 -  8    10 02 10 00 00 00 75 E1 
  1332)       991.838 1  Rx        002F -  8    00 00 00 00 00 D6 7C 00 
  1333)       992.094 1  Rx        0087 -  8    00 00 00 00 00 66 80 06 
  1334)       992.307 1  Rx        0089 -  8    FF FF FF 6D FF FF 80 FF 
  1335)       992.563 1  Rx        008B -  8    00 00 00 00 00 00 00 00 
  1336)       992.819 1  Rx        0037 -  8    1F FE 00 00 0A 28 20 07 
  1337)       993.075 1  Rx        00A7 -  8    00 00 00 9E 40 9B 80 5A 
  1338)       993.673 1  Rx        0095 -  7    00 00 00 00 00 90 1D 
  1339)       994.697 1  Rx        00AB -  8    00 00 CD 0D 00 00 90 BA 
  1340)       995.678 1  Rx        00B3 -  8    00 00 00 00 00 00 90 E1 
  1341)       999.945 1  Rx        009B -  8    2A 00 00 55 00 79 00 FF 
  1342)      1000.243 1  Rx        012B -  8    98 1A F4 60 1F FF 7B FF 
  1343)      1000.457 1  Rx        013F -  8    FF FF C2 43 01 27 00 00 
  1344)      1001.225 1  Rx        0023 -  8    10 02 10 00 00 00 85 9E 
  1345)      1001.822 1  Rx        002F -  8    00 00 00 00 00 D6 7C 00 
  1346)      1002.078 1  Rx        0071 -  8    1F FF 00 00 6D 00 90 D8 
  1347)      1002.291 1  Rx        0079 -  8    80 00 00 00 00 00 90 40 
  1348)      1002.547 1  Rx        007F -  8    41 B9 00 7A 00 00 FF FF 
  1349)      1002.803 1  Rx        0037 -  8    1F FE 00 00 0A 28 30 CA 
  1350)      1003.059 1  Rx        0083 -  8    80 04 00 00 00 00 90 45 
  1351)      1003.699 1  Rx        0085 -  8    20 DD 04 00 00 00 00 24 
  1352)      1004.681 1  Rx        0093 -  8    80 FC 50 00 00 00 91 EF 
  1353)      1006.089 1  Rx        00B1 -  3    00 E0 0C 
  1354)      1009.246 1  Rx        00AD -  5    01 00 00 40 D7 
  1355)      1009.886 1  Rx        0077 -  2    03 02 
  1356)      1011.209 1  Rx        0023 -  8    10 02 10 00 00 00 95 53 
  1357)      1011.848 1  Rx        002F -  8    00 00 00 00 00 D6 7C 00 
  1358)      1012.104 1  Rx        0087 -  8    00 00 00 00 00 66 90 CB 
  1359)      1012.318 1  Rx        0089 -  8    FF FF FF 6D FF FF 90 FF 
  1360)      1012.574 1  Rx        008B -  8    00 00 00 00 00 00 00 00 
  1361)      1012.830 1  Rx        0037 -  8    1F FE 00 00 0A 28 40 93 
  1362)      1013.043 1  Rx        00A7 -  8    00 00 00 9E 40 9B 90 97 
  1363)      1013.640 1  Rx        0095 -  7    00 00 00 00 00 A0 57 
  1364)      1014.664 1  Rx        00AB -  8    00 00 CD 0D 00 00 A0 F0 
  1365)      1015.688 1  Rx        00B3 -  8    00 00 00 00 00 00 A0 AB 
  1366)      1019.955 1  Rx        009B -  8    2A 00 00 55 00 79 00 FF 
  1367)      1021.192 1  Rx        0023 -  8    10 02 10 00 00 00 A5 19 
  1368)      1021.832 1  Rx        002F -  8    00 00 00 00 00 D5 7C 00 
  1369)      1022.046 1  Rx        0071 -  8    1F FF 00 00 6D 00 A0 92 
  1370)      1022.302 1  Rx        0079 -  8    80 00 00 00 00 00 A0 0A 
  1371)      1022.558 1  Rx        007F -  8    41 B9 00 7A 00 00 FF FF 
  1372)      1022.771 1  Rx        0037 -  8    1F FE 00 00 0A 28 50 5E 
  1373)      1023.027 1  Rx        0083 -  8    80 04 00 00 00 00 A0 0F 
  1374)      1023.283 1  Rx        00DD -  8    0F 36 0F 84 00 80 00 00 
  1375)      1023.710 1  Rx        0085 -  8    20 DD 04 00 00 00 00 28 
  1376)      1024.691 1  Rx        0093 -  8    80 FC 50 00 00 00 A1 A5 
  1377)      1026.099 1  Rx        00B1 -  3    00 F0 C1 
  1378)      1029.256 1  Rx        00AD -  5    01 00 00 50 1A 
  1379)      1029.982 1  Rx        0077 -  2    03 02 
  1380)      1031.219 1  Rx        0023 -  8    10 02 10 00 00 00 B5 D4 
  1381)      1031.859 1  Rx        002F -  8    00 00 00 00 00 D6 7C 00 
  1382)      1032.072 1  Rx        0087 -  8    00 00 00 00 00 66 A0 81 
  1383)      1032.328 1  Rx        0089 -  8    FF FF FF 6D FF FF A0 FF 
  1384)      1032.584 1  Rx        008B -  8    00 00 00 00 00 00 00 00 
  1385)      1032.840 1  Rx        0037 -  8    1F FE 00 00 0A 28 60 14 
  1386)      1033.053 1  Rx        00A7 -  8    00 00 00 9E 40 9B A0 DD 
  1387)      1033.693 1  Rx        0095 -  7    00 00 00 00 00 B0 9A 
  1388)      1034.717 1  Rx        00AB -  8    00 00 CD 0D 00 00 B0 3D 
  1389)      1035.699 1  Rx        00B3 -  8    00 00 00 00 00 00 B0 66 
  1390)      1040.008 1  Rx        009B -  8    2A 00 00 55 00 79 00 FF 
  1391)      1041.160 1  Rx        0023 -  8    10 02 10 00 00 00 C5 8D 
  1392)      1041.800 1  Rx        002F -  8    00 00 00 00 00 D5 7C 00 
  1393)      1042.056 1  Rx        0071 -  8    1F FF 00 00 6D 00 B0 5F 
  1394)      1042.312 1  Rx        0079 -  8    80 00 00 00 00 00 B0 C7 
