;$FILEVERSION=1.3
;$STARTTIME=44371.3658196418
;
;   C:\Documents and Settings\jpaullus\My Documents\2018JL_A_OFF_TAZER_PASSIVE.trc
;   Start time: 6/24/2021 08:46:46.817.0
;-------------------------------------------------------------------------------
;   Bus  Name  Connection     Protocol
;   1    500k  500k@pcan_usb  CAN
;-------------------------------------------------------------------------------
;   Message Number
;   |         Time Offset (ms)
;   |         |       Bus
;   |         |       |    Type
;   |         |       |    |       ID (hex)
;   |         |       |    |       |    Reserved
;   |         |       |    |       |    |   Data Length Code
;   |         |       |    |       |    |   |    Data Bytes (hex) ...
;   |         |       |    |       |    |   |    |
;   |         |       |    |       |    |   |    |
;---+-- ------+------ +- --+-- ----+--- +- -+-- -+ -- -- -- -- -- -- --
     1)         1.189 1  Rx        01F7 -  8    FF FF 0F FF 00 80 00 00 
     2)         3.323 1  Rx        0023 -  8    10 12 10 00 00 00 B6 E7 
     3)         4.091 1  Rx        009B -  8    15 00 00 55 00 79 00 FF 
     4)         4.261 1  Rx        00AD -  5    01 00 00 50 1A 
     5)         5.115 1  Rx        002F -  8    00 00 00 00 00 D8 80 00 
     6)         5.328 1  Rx        0087 -  8    00 00 00 00 00 67 80 4A 
     7)         5.584 1  Rx        0089 -  8    FF FF FF 6D FF FF 80 FF 
     8)         5.840 1  Rx        008B -  8    00 00 00 00 00 00 00 00 
     9)         6.053 1  Rx        00A7 -  8    00 00 00 9E 40 9B 80 5A 
    10)        13.306 1  Rx        0023 -  8    10 12 10 00 00 00 C7 A3 
    11)        13.946 1  Rx        0077 -  2    00 01 
    12)        15.098 1  Rx        002F -  8    00 00 00 00 00 D8 80 00 
    13)        15.354 1  Rx        0071 -  8    1F FF 00 00 6B 00 90 DD 
    14)        15.568 1  Rx        0079 -  8    80 00 00 00 00 00 90 40 
    15)        15.824 1  Rx        007F -  8    4B 33 00 00 00 00 FF FF 
    16)        16.080 1  Rx        0083 -  8    80 04 00 00 00 00 90 45 
    17)        18.298 1  Rx        00B1 -  3    00 00 BE 
    18)        23.333 1  Rx        0023 -  8    10 12 10 00 00 00 D6 73 
    19)        24.058 1  Rx        009B -  8    15 00 00 55 00 79 00 FF 
    20)        24.272 1  Rx        00AD -  5    01 00 00 60 50 
    21)        25.082 1  Rx        002F -  8    00 00 00 00 00 D8 80 00 
    22)        25.338 1  Rx        0087 -  8    00 00 00 00 00 67 90 87 
    23)        25.594 1  Rx        0089 -  8    FF FF FF 6D FF FF 90 FF 
    24)        25.808 1  Rx        008B -  8    00 00 00 00 00 00 00 00 
    25)        26.064 1  Rx        00A7 -  8    00 00 00 9E 40 9B 90 97 
    26)        33.402 1  Rx        0023 -  8    10 12 10 00 00 00 E6 39 
    27)        33.999 1  Rx        0077 -  2    00 01 
    28)        35.109 1  Rx        002F -  8    00 00 00 00 00 D8 80 00 
    29)        35.322 1  Rx        0071 -  8    1F FF 00 00 6B 00 A0 97 
    30)        35.578 1  Rx        0079 -  8    80 00 00 00 00 00 A0 0A 
    31)        35.834 1  Rx        007F -  8    4B 33 00 00 00 00 FF FF 
    32)        36.090 1  Rx        0083 -  8    80 04 00 00 00 00 A0 0F 
    33)        36.303 1  Rx        00DD -  8    00 00 00 00 00 80 00 00 
    34)        38.309 1  Rx        00B1 -  3    00 10 73 
    35)        43.386 1  Rx        0023 -  8    10 12 10 00 00 00 F6 F4 
    36)        44.111 1  Rx        009B -  8    15 00 00 55 00 79 00 FF 
    37)        44.325 1  Rx        00AD -  5    01 00 00 70 9D 
    38)        44.538 1  Rx        0133 -  8    00 00 00 00 FF 03 0C FF 
    39)        45.093 1  Rx        002F -  8    00 00 00 00 00 D8 80 00 
    40)        45.349 1  Rx        0087 -  8    00 00 00 00 00 67 A0 CD 
    41)        45.605 1  Rx        0089 -  8    FF FF FF 6D FF FF A0 FF 
    42)        45.818 1  Rx        008B -  8    00 00 00 00 00 00 00 00 
    43)        46.074 1  Rx        00A7 -  8    00 00 00 9E 40 9C A0 24 
    44)        53.412 1  Rx        0023 -  8    10 12 10 00 00 00 06 8B 
    45)        53.796 1  Rx        0318 -  8    00 00 00 00 00 00 FF 00 
    46)        54.095 1  Rx        0077 -  2    00 01 
    47)        55.076 1  Rx        002F -  8    00 00 00 00 00 D8 80 00 
    48)        55.332 1  Rx        0071 -  8    1F FF 00 00 6B 00 B0 5A 
    49)        55.588 1  Rx        0079 -  8    80 00 00 00 00 00 B0 C7 
    50)        55.844 1  Rx        007F -  8    4B 33 00 00 00 00 FF FF 
    51)        56.058 1  Rx        0083 -  8    80 04 00 00 00 00 B0 C2 
    52)        58.276 1  Rx        00B1 -  3    00 20 39 
    53)        62.543 1  Rx        0129 -  4    01 00 00 00 
    54)        63.396 1  Rx        0023 -  8    10 12 10 00 00 00 16 46 
    55)        64.036 1  Rx        009B -  8    15 00 00 55 00 79 00 FF 
    56)        64.207 1  Rx        00AD -  5    01 00 00 80 E2 
    57)        64.463 1  Rx        012B -  8    96 18 90 62 21 FF 7E FF 
    58)        64.719 1  Rx        013F -  8    FF FF C2 72 01 32 00 00 
    59)        65.103 1  Rx        002F -  8    00 00 00 00 00 D9 80 00 
    60)        65.359 1  Rx        0087 -  8    00 00 00 00 00 68 B0 A3 
    61)        65.615 1  Rx        0089 -  8    FF FF FF 6D FF FF B0 FF 
    62)        65.828 1  Rx        008B -  8    00 00 00 00 00 00 00 00 
    63)        66.084 1  Rx        00A7 -  8    00 00 00 9E 40 9B B0 10 
    64)        73.423 1  Rx        0023 -  8    10 12 10 00 00 00 26 0C 
    65)        73.935 1  Rx        0077 -  2    00 01 
    66)        75.087 1  Rx        002F -  8    00 00 00 00 00 DA 80 00 
    67)        75.343 1  Rx        0071 -  8    1F FF 00 00 6A 00 C0 8C 
    68)        75.599 1  Rx        0079 -  8    80 00 00 00 00 00 C0 9E 
    69)        75.812 1  Rx        007F -  8    4B 33 00 00 00 00 FF FF 
    70)        76.068 1  Rx        0083 -  8    80 04 00 00 00 00 C0 9B 
    71)        78.287 1  Rx        00B1 -  3    00 30 F4 
    72)        83.407 1  Rx        0023 -  8    10 12 10 00 00 00 36 C1 
    73)        84.047 1  Rx        009B -  8    15 00 00 55 00 79 00 FF 
    74)        84.260 1  Rx        00AD -  5    01 00 00 90 2F 
    75)        85.113 1  Rx        002F -  8    00 00 00 00 00 DC 80 00 
    76)        85.327 1  Rx        0087 -  8    00 00 00 00 00 67 C0 59 
    77)        85.583 1  Rx        0089 -  8    FF FF FF 6D FF FF C0 FF 
    78)        85.839 1  Rx        008B -  8    00 00 00 00 00 00 00 00 
    79)        86.095 1  Rx        00A7 -  8    00 00 00 9E 40 9C C0 B0 
    80)        86.308 1  Rx        00DD -  8    00 00 00 00 00 80 00 00 
    81)        88.484 1  Rx        0423 -  8    FD 00 84 0F 00 00 00 00 
    82)        91.215 1  Rx        02F2 -  8    00 00 00 00 00 00 00 00 
    83)        93.391 1  Rx        0023 -  8    10 12 10 00 00 00 46 98 
    84)        94.116 1  Rx        0077 -  2    00 01 
    85)        95.097 1  Rx        002F -  8    00 00 00 00 00 E1 80 00 
    86)        95.353 1  Rx        0071 -  8    1F FF 00 00 6B 00 D0 CE 
    87)        95.566 1  Rx        0079 -  8    80 00 00 00 00 00 D0 53 
    88)        95.822 1  Rx        007F -  8    4B 33 00 00 00 00 FF FF 
    89)        96.078 1  Rx        0083 -  8    80 04 00 00 00 00 D0 56 
    90)        98.297 1  Rx        00B1 -  3    00 40 AD 
    91)       103.374 1  Rx        0023 -  8    10 12 10 00 00 00 56 55 
    92)       104.057 1  Rx        009B -  8    15 00 00 55 00 79 00 FF 
    93)       104.228 1  Rx        00AD -  5    01 00 00 A0 65 
    94)       105.124 1  Rx        002F -  8    00 00 00 00 00 E9 80 00 
    95)       105.337 1  Rx        0087 -  8    00 00 00 00 00 67 D0 94 
    96)       105.593 1  Rx        0089 -  8    FF FF FF 6D FF FF D0 FF 
    97)       105.849 1  Rx        008B -  8    00 00 00 00 00 00 00 00 
    98)       106.062 1  Rx        00A7 -  8    00 00 00 9E 40 9C D0 7D 
    99)       113.401 1  Rx        0023 -  8    10 12 10 00 00 00 66 1F 
   100)       113.956 1  Rx        0077 -  2    00 01 
   101)       115.108 1  Rx        002F -  8    00 00 00 00 00 F2 80 00 
   102)       115.363 1  Rx        0071 -  8    1F FF 00 00 6D 00 E0 81 
   103)       115.577 1  Rx        0079 -  8    80 00 00 00 00 00 E0 19 
   104)       115.833 1  Rx        007F -  8    4B 33 00 00 00 00 FF FF 
   105)       116.089 1  Rx        0083 -  8    80 04 00 00 00 00 E0 1C 
   106)       118.307 1  Rx        00B1 -  3    00 50 60 
   107)       123.385 1  Rx        0023 -  8    10 12 10 00 00 00 76 D2 
   108)       124.067 1  Rx        009B -  8    15 00 00 55 00 79 00 FF 
   109)       124.238 1  Rx        00AD -  5    01 00 00 B0 A8 
   110)       125.262 1  Rx        002F -  8    00 00 00 00 00 FE 80 00 
   111)       125.518 1  Rx        0087 -  8    00 00 00 00 00 66 E0 92 
   112)       125.774 1  Rx        0089 -  8    FF FF FF 6D FF FF E0 FF 
   113)       126.030 1  Rx        008B -  8    00 00 00 00 00 00 00 00 
   114)       126.243 1  Rx        00A7 -  8    00 00 00 A5 40 A3 E0 1C 
   115)       133.411 1  Rx        0023 -  8    10 12 10 00 00 00 86 AD 
   116)       133.966 1  Rx        0077 -  2    00 01 
   117)       135.289 1  Rx        002F -  8    00 00 00 00 01 08 80 00 
   118)       135.502 1  Rx        0071 -  8    1F FF 00 00 6E 00 F0 C0 
   119)       135.758 1  Rx        0079 -  8    80 10 00 90 00 00 F0 D0 
   120)       136.014 1  Rx        007F -  8    4B 33 00 00 00 00 FF FF 
   121)       136.270 1  Rx        0083 -  8    85 04 00 00 00 00 F0 E5 
   122)       136.483 1  Rx        00DD -  8    00 00 00 00 00 80 00 00 
   123)       138.318 1  Rx        00B1 -  3    00 60 2A 
   124)       143.395 1  Rx        0023 -  8    10 12 10 00 00 00 96 60 
   125)       144.120 1  Rx        009B -  8    15 00 00 55 00 79 00 FF 
   126)       144.291 1  Rx        00AD -  5    01 00 00 C0 F1 
   127)       144.547 1  Rx        0133 -  8    00 00 00 00 FF 03 0C FF 
   128)       145.144 1  Rx        002F -  8    00 00 00 00 01 10 80 00 
   129)       145.358 1  Rx        0087 -  8    00 4E 00 00 00 65 F0 58 
   130)       145.614 1  Rx        0089 -  8    FF FF FF 6D FF FF F0 FF 
   131)       145.870 1  Rx        008B -  8    00 00 00 00 00 00 00 00 
   132)       146.083 1  Rx        00A7 -  8    00 00 00 B2 40 B0 F0 60 
   133)       153.422 1  Rx        0023 -  8    10 12 10 00 00 00 A6 2A 
   134)       153.806 1  Rx        0318 -  8    00 00 00 00 00 00 FF 00 
   135)       154.062 1  Rx        0077 -  2    00 01 
   136)       155.256 1  Rx        002F -  8    00 00 00 00 01 1A 80 00 
   137)       155.512 1  Rx        0071 -  8    1F FF 00 00 70 00 00 AE 
   138)       155.768 1  Rx        0079 -  8    80 2E 00 D3 00 00 00 3E 
   139)       156.024 1  Rx        007F -  8    4B 33 00 00 00 00 FF FF 
   140)       156.238 1  Rx        0083 -  8    85 04 00 00 00 00 00 9A 
   141)       158.285 1  Rx        00B1 -  3    00 70 E7 
   142)       162.552 1  Rx        0129 -  4    01 00 00 00 
   143)       163.363 1  Rx        0023 -  8    10 12 10 00 00 00 B7 FA 
   144)       164.045 1  Rx        009B -  8    15 00 00 55 00 79 00 FF 
   145)       164.259 1  Rx        00AD -  5    01 00 00 D0 3C 
   146)       164.472 1  Rx        012B -  8    96 18 90 62 21 FF 7E FF 
   147)       164.728 1  Rx        013F -  8    FF FF C2 72 01 32 00 00 
   148)       165.283 1  Rx        002F -  8    00 00 00 00 01 25 80 00 
   149)       165.539 1  Rx        0087 -  8    00 5F 00 00 00 63 00 C0 
   150)       165.752 1  Rx        0089 -  8    FF FF FF 6D FF FF 00 FF 
   151)       166.051 1  Rx        008B -  8    00 00 00 00 00 00 00 00 
   152)       166.264 1  Rx        00A7 -  8    00 00 00 B7 40 B5 00 AD 
   153)       172.621 1  Rx        01C0 -  6    00 00 00 00 00 00 
   154)       173.432 1  Rx        0023 -  8    10 12 10 00 00 00 C7 A3 
   155)       173.987 1  Rx        0077 -  2    00 01 
   156)       175.139 1  Rx        002F -  8    00 00 00 00 01 31 80 00 
   157)       175.395 1  Rx        0071 -  8    1F FF 00 00 72 00 10 60 
   158)       175.608 1  Rx        0079 -  8    80 5B 00 FE 00 00 10 D9 
   159)       175.864 1  Rx        007F -  8    4B 33 00 00 00 00 FF FF 
   160)       176.120 1  Rx        0083 -  8    85 04 00 00 00 00 10 57 
   161)       178.296 1  Rx        00B1 -  3    00 80 98 
   162)       183.416 1  Rx        0023 -  8    10 12 10 00 00 00 D7 6E 
   163)       184.056 1  Rx        009B -  8    15 00 04 55 00 79 00 FF 
   164)       184.269 1  Rx        00AD -  5    01 00 00 E0 76 
   165)       185.250 1  Rx        002F -  8    00 00 00 00 01 3D 80 00 
   166)       185.506 1  Rx        0087 -  8    00 75 00 00 00 62 10 EF 
   167)       185.762 1  Rx        0089 -  8    FF FF FF 6D FF FF 10 FF 
   168)       186.018 1  Rx        008B -  8    00 00 00 00 00 00 00 00 
   169)       186.232 1  Rx        00A7 -  8    00 00 00 BD 40 BA 10 78 
   170)       186.488 1  Rx        00DD -  8    00 00 00 00 00 80 00 00 
   171)       187.768 1  Rx        0400 -  8    FD 01 BF FF FF FF FF FF 
   172)       191.224 1  Rx        02F2 -  8    00 00 00 00 00 00 00 00 
   173)       193.400 1  Rx        0023 -  8    10 12 10 00 00 00 E7 24 
   174)       194.040 1  Rx        0077 -  2    00 01 
   175)       195.149 1  Rx        002F -  8    00 00 00 00 01 4B 80 00 
   176)       195.362 1  Rx        0071 -  8    1F FF 00 00 74 00 20 2F 
   177)       195.618 1  Rx        0079 -  8    80 9C 01 3D 00 00 20 DD 
   178)       195.832 1  Rx        007F -  8    4B 33 00 00 00 00 FF FF 
   179)       196.088 1  Rx        0083 -  8    85 04 00 00 00 00 20 1D 
   180)       198.306 1  Rx        00B1 -  3    00 90 55 
   181)       203.383 1  Rx        0023 -  8    10 12 10 00 00 00 F7 E9 
   182)       204.109 1  Rx        00AD -  5    01 00 00 F0 BB 
   183)       204.322 1  Rx        009B -  8    15 00 04 55 00 79 00 FF 
   184)       205.133 1  Rx        002F -  8    00 00 00 00 01 59 80 00 
   185)       205.389 1  Rx        0087 -  8    00 93 00 00 00 60 20 6C 
   186)       205.602 1  Rx        0089 -  8    FF FF FF 6D FF FF 20 FF 
   187)       205.858 1  Rx        008B -  8    00 00 00 00 00 00 00 00 
   188)       206.114 1  Rx        00A7 -  8    00 00 00 C5 40 C3 20 68 
   189)       213.410 1  Rx        0023 -  8    10 12 10 00 00 00 07 96 
   190)       213.965 1  Rx        0077 -  2    00 01 
   191)       215.117 1  Rx        002F -  8    00 00 00 00 01 67 80 00 
   192)       215.373 1  Rx        0071 -  8    1F FF 00 00 76 00 30 E1 
   193)       215.586 1  Rx        0079 -  8    80 F0 01 84 00 00 30 3C 
   194)       215.842 1  Rx        007F -  8    4B 33 00 00 00 00 FF FF 
   195)       216.098 1  Rx        0083 -  8    85 04 00 00 00 00 30 D0 
   196)       218.317 1  Rx        00B1 -  3    00 A0 1F 
   197)       223.394 1  Rx        0023 -  8    10 12 10 00 00 00 17 5B 
   198)       224.034 1  Rx        009B -  8    15 00 04 55 00 79 00 FF 
   199)       224.247 1  Rx        00AD -  5    01 00 00 00 C4 
   200)       225.100 1  Rx        002F -  8    00 00 00 00 01 75 80 00 
   201)       225.356 1  Rx        0087 -  8    00 AE 00 00 00 5F 30 B6 
   202)       225.612 1  Rx        0089 -  8    FF FF FF 6D FF FF 30 FF 
   203)       225.826 1  Rx        008B -  8    00 00 00 00 00 00 00 00 
   204)       226.082 1  Rx        00A7 -  8    00 00 00 CC 40 CA 30 B2 
   205)       233.420 1  Rx        0023 -  8    10 12 10 00 00 00 27 11 
   206)       233.975 1  Rx        0077 -  2    00 01 
   207)       235.127 1  Rx        002F -  8    00 00 00 00 01 80 80 00 
   208)       235.383 1  Rx        0071 -  8    1F FF 00 00 78 00 40 B1 
   209)       235.596 1  Rx        0079 -  8    81 45 01 BC 00 00 40 14 
   210)       235.852 1  Rx        007F -  8    4B 33 00 00 00 00 FF FF 
   211)       236.108 1  Rx        0083 -  8    85 04 00 00 00 00 40 89 
   212)       236.322 1  Rx        00DD -  8    00 00 00 00 00 80 00 00 
   213)       238.327 1  Rx        00B1 -  3    00 B0 D2 
   214)       243.404 1  Rx        0023 -  8    10 12 10 00 00 00 37 DC 
   215)       244.129 1  Rx        009B -  8    15 00 04 55 00 79 00 FF 
   216)       244.300 1  Rx        00AD -  5    01 00 00 10 09 
   217)       244.556 1  Rx        0133 -  8    00 00 00 00 FF 03 0C FF 
   218)       245.111 1  Rx        002F -  8    00 00 00 00 01 8C 80 00 
   219)       245.367 1  Rx        0087 -  8    00 C2 00 00 00 5D 40 00 
   220)       245.623 1  Rx        0089 -  8    FF FF FF 6D FF FF 40 FF 
   221)       245.836 1  Rx        008B -  8    00 00 00 00 00 00 00 00 
   222)       246.092 1  Rx        00A7 -  8    00 00 00 D1 40 CF 40 E0 
   223)       253.431 1  Rx        0023 -  8    10 12 10 00 00 00 47 85 
   224)       253.815 1  Rx        0318 -  8    00 00 00 00 00 00 FF 00 
   225)       254.071 1  Rx        0077 -  2    00 01 
   226)       255.095 1  Rx        002F -  8    00 00 00 00 01 94 80 00 
   227)       255.351 1  Rx        0071 -  8    1F FF 00 00 7A 00 50 7F 
   228)       255.607 1  Rx        0079 -  8    81 8D 01 E7 00 00 50 B4 
   229)       255.863 1  Rx        007F -  8    4B 33 00 00 00 00 FF FF 
   230)       256.076 1  Rx        0083 -  8    85 04 00 00 00 00 50 44 
   231)       258.295 1  Rx        00B1 -  3    00 C0 8B 
   232)       262.561 1  Rx        0129 -  4    01 00 00 00 
   233)       263.415 1  Rx        0023 -  8    10 12 10 00 00 00 57 48 
   234)       264.055 1  Rx        009B -  8    15 00 04 55 00 79 00 FF 
   235)       264.268 1  Rx        00AD -  5    01 00 00 20 43 
   236)       264.481 1  Rx        012B -  8    96 18 90 62 21 FF 7D FF 
   237)       264.737 1  Rx        013F -  8    FF FF C2 0A 01 31 00 00 
   238)       265.121 1  Rx        002F -  8    00 00 00 00 01 9F 80 00 
   239)       265.377 1  Rx        0087 -  8    00 D4 00 00 00 5C 50 1C 
   240)       265.633 1  Rx        0089 -  8    FF FF FF 6D FF FF 50 FF 
   241)       265.846 1  Rx        008B -  8    00 00 00 00 00 00 00 00 
   242)       266.102 1  Rx        00A7 -  8    00 00 00 D6 40 D4 50 E3 
   243)       273.441 1  Rx        0023 -  8    10 12 10 00 00 00 67 02 
   244)       273.953 1  Rx        0077 -  2    00 01 
   245)       275.105 1  Rx        002F -  8    00 00 00 00 01 A6 80 00 
   246)       275.361 1  Rx        0071 -  8    1F FF 00 00 7C 00 60 30 
   247)       275.617 1  Rx        0079 -  8    81 C8 02 0F 00 00 60 24 
   248)       275.830 1  Rx        007F -  8    4B 33 00 00 00 00 FF FF 
   249)       276.086 1  Rx        0083 -  8    85 04 00 00 00 00 60 0E 
   250)       278.305 1  Rx        00B1 -  3    00 D0 46 
   251)       283.425 1  Rx        0023 -  8    10 12 10 00 00 00 77 CF 
   252)       284.065 1  Rx        009B -  8    15 00 04 55 00 79 00 FF 
   253)       284.236 1  Rx        00AD -  5    01 00 00 30 8E 
   254)       285.132 1  Rx        002F -  8    00 00 00 00 01 AC 80 00 
   255)       285.345 1  Rx        0087 -  8    00 E4 00 00 00 5B 60 93 
   256)       285.601 1  Rx        0089 -  8    FF FF FF 6D FF FF 60 FF 
   257)       285.857 1  Rx        008B -  8    00 00 00 00 00 00 00 00 
   258)       286.070 1  Rx        00A7 -  8    00 00 00 DA 40 D8 60 0C 
   259)       286.326 1  Rx        00DD -  8    00 00 00 00 00 80 00 00 
   260)       286.582 1  Rx        0401 -  8    FD 02 04 0F 02 00 00 00 
   261)       291.233 1  Rx        02F2 -  8    00 00 00 00 00 00 00 00 
   262)       293.409 1  Rx        0023 -  8    10 12 10 00 00 00 87 B0 
   263)       294.049 1  Rx        0077 -  2    00 01 
   264)       295.115 1  Rx        002F -  8    00 00 00 00 01 B3 80 00 
   265)       295.371 1  Rx        0071 -  8    1F FF 00 00 7E 00 70 FE 
   266)       295.627 1  Rx        0079 -  8    81 FC 02 36 00 00 70 BE 
   267)       295.841 1  Rx        007F -  8    4B 33 00 00 00 00 FF FF 
   268)       296.097 1  Rx        0083 -  8    85 04 00 00 00 00 70 C3 
   269)       298.315 1  Rx        00B1 -  3    00 E0 0C 
   270)       303.393 1  Rx        0023 -  8    10 12 10 00 00 00 97 7D 
   271)       304.118 1  Rx        00AD -  5    01 00 00 40 D7 
   272)       304.331 1  Rx        009B -  8    15 00 04 55 00 79 00 FF 
   273)       305.099 1  Rx        002F -  8    00 00 00 00 01 B9 80 00 
   274)       305.398 1  Rx        0087 -  8    00 F5 00 00 00 5A 70 40 
   275)       305.611 1  Rx        0089 -  8    FF FF FF 6D FF FF 70 FF 
   276)       305.867 1  Rx        008B -  8    00 00 00 00 00 00 00 00 
   277)       306.081 1  Rx        00A7 -  8    00 00 00 DF 40 DC 70 3F 
   278)       313.419 1  Rx        0023 -  8    10 12 10 00 00 00 A7 37 
   279)       313.974 1  Rx        0077 -  2    00 01 
   280)       315.126 1  Rx        002F -  8    00 00 00 00 01 BF 80 00 
   281)       315.424 1  Rx        0071 -  8    1F FF 00 00 7F 00 80 0E 
   282)       315.595 1  Rx        0079 -  8    82 2C 02 5E 00 00 80 80 
   283)       315.851 1  Rx        007F -  8    4B 33 00 00 00 00 FF FF 
   284)       316.064 1  Rx        0083 -  8    85 04 00 00 00 00 80 BC 
   285)       318.326 1  Rx        00B1 -  3    00 F0 C1 
   286)       322.550 1  Rx        0129 -  4    22 00 00 00 
   287)       323.403 1  Rx        0023 -  8    10 12 10 00 00 00 B7 FA 
   288)       323.744 1  Rx        020C -  8    05 02 DF 31 85 1B 08 40 
   289)       324.086 1  Rx        00AD -  5    01 00 00 50 1A 
   290)       324.342 1  Rx        009B -  8    15 00 04 55 00 79 00 FF 
   291)       325.110 1  Rx        002F -  8    00 00 00 00 01 C4 80 00 
   292)       325.366 1  Rx        0087 -  8    01 06 00 00 00 59 80 B0 
   293)       325.622 1  Rx        0089 -  8    FF FF FF 6D FF FF 80 FF 
   294)       325.835 1  Rx        008B -  8    00 00 00 00 00 00 00 00 
   295)       326.121 1  Rx        00A7 -  8    00 00 00 E3 40 E1 80 07 
   296)       333.459 1  Rx        0023 -  8    10 12 10 00 00 00 C7 A3 
   297)       334.057 1  Rx        0077 -  2    00 01 
   298)       334.313 1  Rx        025D -  8    03 FC 00 00 7F 7F 7F 7F 
   299)       334.569 1  Rx        028B -  8    00 00 00 00 00 1E 00 00 
   300)       334.867 1  Rx        038A -  8    01 00 00 00 00 00 00 00 
   301)       335.166 1  Rx        002F -  8    00 00 00 00 01 C8 80 00 
   302)       335.379 1  Rx        0071 -  8    1F FF 00 00 80 00 90 CD 
   303)       335.635 1  Rx        0079 -  8    82 5A 02 89 00 00 90 D8 
   304)       335.891 1  Rx        007F -  8    4B 33 00 00 00 00 FF FF 
   305)       336.147 1  Rx        0083 -  8    85 04 00 00 00 00 90 71 
   306)       336.361 1  Rx        00DD -  8    00 00 00 00 00 80 00 00 
   307)       338.366 1  Rx        00B1 -  3    00 00 BE 
   308)       339.305 1  Rx        020E -  6    AB 30 10 0D 00 00 
   309)       343.443 1  Rx        0023 -  8    10 12 10 00 00 00 D7 6E 
   310)       344.126 1  Rx        00AD -  5    01 00 00 60 50 
   311)       344.382 1  Rx        009B -  8    15 00 04 55 00 79 00 FF 
   312)       344.638 1  Rx        0133 -  8    00 00 00 00 FF 03 0C FF 
   313)       344.894 1  Rx        03A9 -  8    0E 3C 1E FF FF 61 D0 02 
   314)       345.150 1  Rx        002F -  8    00 00 00 00 01 CD 80 00 
   315)       345.363 1  Rx        0087 -  8    01 17 00 00 00 58 90 63 
   316)       345.619 1  Rx        0089 -  8    FF FF FF 6D FF FF 90 FF 
   317)       345.875 1  Rx        008B -  8    00 00 00 00 00 00 00 00 
   318)       346.089 1  Rx        00A7 -  8    00 00 00 E8 40 E5 90 C1 
   319)       346.345 1  Rx        03E4 -  8    81 DF 88 46 06 00 00 00 
   320)       352.616 1  Rx        0129 -  4    36 00 00 00 
   321)       353.470 1  Rx        0023 -  8    10 12 10 00 00 00 E7 24 
   322)       353.896 1  Rx        0318 -  8    00 00 00 00 00 00 FF 00 
   323)       354.195 1  Rx        0077 -  2    00 02 
   324)       354.451 1  Rx        038E -  8    00 00 00 20 4C 21 C6 CC 
   325)       354.707 1  Rx        03E3 -  8    11 04 10 08 00 00 00 00 
   326)       354.963 1  Rx        03E8 -  8    49 31 A2 43 00 0E 50 5C 
   327)       355.219 1  Rx        002F -  8    00 00 00 00 01 D1 80 00 
   328)       355.432 1  Rx        0071 -  8    1F FF 00 00 81 00 A0 08 
   329)       355.688 1  Rx        0079 -  8    82 84 02 B2 00 00 A0 BC 
   330)       355.944 1  Rx        007F -  8    4B 33 00 00 00 00 FF FF 
   331)       356.158 1  Rx        0083 -  8    85 04 00 00 00 00 A0 3B 
   332)       358.376 1  Rx        00B1 -  3    00 10 73 
   333)       363.454 1  Rx        0023 -  8    10 12 10 00 00 00 F7 E9 
   334)       364.136 1  Rx        009B -  8    15 00 04 55 00 79 00 FF 
   335)       364.307 1  Rx        00AD -  5    01 00 00 70 9D 
   336)       364.563 1  Rx        012B -  8    96 18 90 62 21 FF 7D FF 
   337)       364.819 1  Rx        013F -  8    FF FF C1 96 01 31 00 00 
   338)       364.990 1  Rx        01C8 -  4    00 00 00 00 
   339)       365.246 1  Rx        03E9 -  8    01 5C 64 00 24 24 00 00 
   340)       365.502 1  Rx        002F -  8    00 00 00 00 01 D5 80 00 
   341)       365.758 1  Rx        0087 -  8    01 29 00 00 00 58 A0 96 
   342)       365.971 1  Rx        0089 -  8    FF FF FF 6D FF FF A0 FF 
   343)       366.227 1  Rx        008B -  8    00 00 00 00 00 00 00 00 
   344)       366.483 1  Rx        00A7 -  8    00 00 00 EC 40 EA A0 66 
   345)       367.464 1  Rx        0620 -  8    02 3E 00 00 00 00 00 00 
   346)       372.584 1  Rx        0129 -  4    36 00 00 00 
   347)       373.480 1  Rx        0023 -  8    10 12 10 00 00 00 07 96 
   348)       373.992 1  Rx        0077 -  2    00 02 
   349)       374.291 1  Rx        025F -  8    00 00 00 00 00 00 00 00 
   350)       374.547 1  Rx        0504 -  8    02 7E 00 C2 03 00 C8 0D 
   351)       374.760 1  Rx        039E -  3    01 00 00 
   352)       374.973 1  Rx        03EA -  8    41 47 1E 08 8A 34 41 A4 
   353)       375.229 1  Rx        002F -  8    00 00 00 00 01 DA 80 00 
   354)       375.443 1  Rx        0071 -  8    1F FF 00 00 82 00 B0 49 
   355)       375.699 1  Rx        0079 -  8    82 AE 02 DB 00 00 B0 00 
   356)       375.955 1  Rx        007F -  8    4B 33 00 00 00 00 FF FF 
   357)       376.168 1  Rx        0083 -  8    85 04 00 00 00 00 B0 F6 
   358)       377.661 1  Rx        01C0 -  6    00 00 00 00 00 00 
   359)       378.344 1  Rx        00B1 -  3    00 20 39 
   360)       381.288 1  Rx        0402 -  8    FD 03 BF FF FF FF FF FF 
   361)       382.696 1  Rx        02A7 -  8    00 00 00 00 00 00 00 00 
   362)       383.464 1  Rx        0023 -  8    10 12 10 00 00 00 17 5B 
   363)       384.061 1  Rx        009B -  8    15 00 04 55 00 79 00 FF 
   364)       384.275 1  Rx        00AD -  5    01 00 00 80 E2 
   365)       384.531 1  Rx        0332 -  8    00 E0 03 FF 00 00 03 E8 
   366)       384.744 1  Rx        03EB -  8    43 E8 0D 7A 0A A0 09 8D 
   367)       385.341 1  Rx        002F -  8    00 00 00 00 01 DE 80 00 
   368)       385.555 1  Rx        0087 -  8    01 3A 00 00 00 57 B0 26 
   369)       385.811 1  Rx        0089 -  8    FF FF FF 6D FF FF B0 FF 
   370)       386.067 1  Rx        008B -  8    00 00 00 00 00 00 00 00 
   371)       386.280 1  Rx        00A7 -  8    00 00 00 F1 40 EE B0 EC 
   372)       386.536 1  Rx        00DD -  8    00 00 00 00 00 80 00 00 
   373)       391.272 1  Rx        02F2 -  8    00 00 00 00 00 00 00 00 
   374)       393.490 1  Rx        0023 -  8    10 12 10 00 00 00 27 11 
   375)       394.088 1  Rx        0077 -  2    00 02 
   376)       394.344 1  Rx        0230 -  8    00 3B 31 08 00 00 00 00 
   377)       394.600 1  Rx        03B3 -  8    01 30 70 01 E4 A1 07 10 
   378)       394.898 1  Rx        03F0 -  8    3D CD 04 11 43 E8 80 9F 
   379)       395.154 1  Rx        002F -  8    00 00 00 00 01 E0 80 00 
   380)       395.368 1  Rx        0071 -  8    1F FF 00 00 82 00 C0 10 
   381)       395.624 1  Rx        0079 -  8    82 D7 03 01 00 00 C0 2C 
   382)       395.880 1  Rx        007F -  8    4B 33 00 00 00 00 FF FF 
   383)       396.136 1  Rx        0083 -  8    85 04 00 00 00 00 C0 AF 
   384)       396.349 1  Rx        044A -  8    01 00 00 00 00 00 00 20 
   385)       398.354 1  Rx        00B1 -  3    00 30 F4 
   386)       403.432 1  Rx        0023 -  8    10 12 10 00 00 00 36 C1 
   387)       404.157 1  Rx        009B -  8    15 00 04 55 00 79 00 FF 
   388)       404.328 1  Rx        00AD -  5    01 00 00 90 2F 
   389)       404.584 1  Rx        0248 -  8    00 00 FF FF FF 03 FF FF 
   390)       404.797 1  Rx        02B1 -  5    7F 0F 08 7F 7F 
   391)       405.096 1  Rx        03B4 -  8    35 80 00 00 00 00 04 00 
   392)       405.309 1  Rx        002F -  8    00 00 00 00 01 E4 80 00 
   393)       405.565 1  Rx        0087 -  8    01 47 00 00 00 57 C0 5A 
   394)       405.821 1  Rx        0089 -  8    FF FF FF 6D FF FF C0 FF 
   395)       406.034 1  Rx        008B -  8    00 00 00 00 00 00 00 00 
   396)       406.290 1  Rx        00A7 -  8    00 00 00 F4 40 F2 C0 A5 
   397)       406.504 1  Rx        03F1 -  8    0D B9 0F 00 0C 04 6F C0 
   398)       406.802 1  Rx        044C -  8    79 00 00 00 00 00 FF FF 
   399)       413.458 1  Rx        0023 -  8    10 12 10 00 00 00 46 98 
   400)       414.055 1  Rx        0077 -  2    05 02 
   401)       414.311 1  Rx        03F2 -  8    05 02 B0 01 08 20 10 04 
   402)       414.567 1  Rx        03F7 -  8    C1 2E 01 3C A1 88 48 00 
   403)       415.165 1  Rx        002F -  8    00 00 00 00 01 E5 80 00 
   404)       415.378 1  Rx        0071 -  8    1F FF 00 00 83 00 D0 52 
   405)       415.634 1  Rx        0079 -  8    82 F8 03 1B 00 00 D0 92 
   406)       415.890 1  Rx        007F -  8    4B 33 00 00 00 00 FF FF 
   407)       416.103 1  Rx        0083 -  8    85 04 00 00 00 00 D0 62 
   408)       418.365 1  Rx        00B1 -  3    00 40 AD 
   409)       423.442 1  Rx        0023 -  8    10 12 10 00 00 00 56 55 
   410)       424.125 1  Rx        009B -  8    15 00 04 55 00 79 00 FF 
   411)       424.295 1  Rx        00AD -  5    01 00 00 A0 65 
   412)       424.551 1  Rx        0261 -  8    19 67 17 F1 17 CE 03 E3 
   413)       424.807 1  Rx        03D8 -  8    FD 00 64 FA 58 23 00 00 
   414)       425.063 1  Rx        03F3 -  8    81 00 20 00 00 02 00 00 
   415)       425.319 1  Rx        002F -  8    00 00 00 00 01 E7 80 00 
   416)       425.533 1  Rx        0087 -  8    01 52 00 00 00 56 D0 8C 
   417)       425.789 1  Rx        0089 -  8    FF FF FF 6D FF FF D0 FF 
   418)       426.045 1  Rx        008B -  8    00 00 00 00 00 00 00 00 
   419)       426.258 1  Rx        00A7 -  8    00 00 00 F7 40 F5 D0 2B 
   420)       433.469 1  Rx        0023 -  8    10 12 10 00 00 00 66 1F 
   421)       434.023 1  Rx        0077 -  2    05 02 
   422)       434.279 1  Rx        0297 -  8    F0 FF 03 00 00 0C 00 FF 
   423)       434.578 1  Rx        03D7 -  8    01 00 00 00 00 00 00 00 
   424)       434.834 1  Rx        03F4 -  8    11 0F FF 20 02 00 00 00 
   425)       435.133 1  Rx        002F -  8    00 00 00 00 01 E9 80 00 
   426)       435.388 1  Rx        0071 -  8    1F FF 00 00 83 00 E0 18 
   427)       435.644 1  Rx        0079 -  8    83 16 03 33 00 00 E0 08 
   428)       435.858 1  Rx        007F -  8    4B 33 00 00 00 00 FF FF 
   429)       436.114 1  Rx        0083 -  8    85 04 00 00 00 00 E0 28 
   430)       436.370 1  Rx        00DD -  8    00 00 00 00 00 80 00 00 
   431)       438.375 1  Rx        00B1 -  3    00 50 60 
   432)       443.452 1  Rx        0023 -  8    10 12 10 00 00 00 76 D2 
   433)       444.178 1  Rx        009B -  8    15 00 04 55 00 79 00 FF 
   434)       444.348 1  Rx        00AD -  5    01 00 00 B0 A8 
   435)       444.604 1  Rx        0133 -  8    00 00 00 00 FF 03 0C FF 
   436)       444.860 1  Rx        022D -  8    FF 00 00 00 00 00 00 00 
   437)       445.116 1  Rx        002F -  8    00 00 00 00 01 EB 80 00 
   438)       445.372 1  Rx        0087 -  8    01 5A 00 00 00 56 E0 CC 
   439)       445.586 1  Rx        0089 -  8    80 00 80 6D 80 80 E0 80 
   440)       445.842 1  Rx        008B -  8    C0 00 C0 00 C0 00 C0 00 
   441)       446.098 1  Rx        00A7 -  8    00 00 00 F9 40 F7 E0 0C 
   442)       446.354 1  Rx        02AD -  8    00 00 00 00 00 00 FF FF 
   443)       446.610 1  Rx        03F5 -  8    01 00 00 00 0C 00 10 10 
   444)       452.796 1  Rx        0296 -  8    21 00 00 25 25 25 24 FF 
   445)       453.479 1  Rx        0023 -  8    10 12 0F FF 00 00 85 BE 
   446)       453.906 1  Rx        0318 -  8    00 00 00 00 00 00 FF 00 
   447)       454.119 1  Rx        0077 -  2    05 02 
   448)       454.375 1  Rx        0332 -  8    00 E1 03 FF 00 00 03 E8 
   449)       454.631 1  Rx        0350 -  8    22 2E 08 07 E5 06 18 39 
   450)       454.930 1  Rx        03D5 -  8    01 00 00 00 00 00 00 00 
   451)       455.143 1  Rx        002F -  8    00 00 00 00 01 ED 80 00 
   452)       455.399 1  Rx        0071 -  8    1F FF 00 00 84 00 F0 5F 
   453)       455.655 1  Rx        0079 -  8    83 2E 03 47 00 00 F0 46 
   454)       455.911 1  Rx        007F -  8    4B 33 00 00 00 00 FF FF 
   455)       456.124 1  Rx        0083 -  8    85 04 00 00 00 00 F0 E5 
   456)       458.428 1  Rx        00B1 -  3    00 60 2A 
   457)       463.505 1  Rx        0023 -  8    10 12 0F FF 00 00 95 73 
   458)       463.676 1  Rx        0129 -  4    36 00 00 00 
   459)       463.932 1  Rx        027B -  8    00 00 07 FF 00 00 00 00 
   460)       464.188 1  Rx        009B -  8    15 11 04 55 00 79 00 FF 
   461)       464.359 1  Rx        00AD -  5    01 00 00 C0 F1 
   462)       464.572 1  Rx        012B -  8    96 18 90 62 21 FF 7C FF 
   463)       464.871 1  Rx        013F -  8    FF FF C1 A4 01 30 00 00 
   464)       465.084 1  Rx        002F -  8    00 00 00 00 01 EE 80 00 
   465)       465.340 1  Rx        0087 -  8    01 62 00 00 00 56 F0 37 
   466)       465.596 1  Rx        0089 -  8    80 00 80 6D 80 80 F0 80 
   467)       465.809 1  Rx        008B -  8    C0 00 C0 00 C0 00 C0 00 
   468)       466.065 1  Rx        00A7 -  8    00 00 00 FB 40 F9 F0 09 
   469)       466.321 1  Rx        0281 -  8    E8 23 00 21 00 00 00 7C 
   470)       466.577 1  Rx        0328 -  8    40 41 00 4D 00 55 00 53 
   471)       466.748 1  Rx        0358 -  4    FF 01 FF 00 
   472)       467.004 1  Rx        03D3 -  8    1D 13 0A 03 FF DA 0F 0F 
   473)       467.260 1  Rx        03D4 -  8    41 60 20 40 00 00 00 00 
   474)       467.516 1  Rx        03D6 -  8    69 30 00 00 36 11 05 00 
   475)       469.393 1  Rx        0091 -  8    01 FF 7F 00 00 00 00 92 
   476)       469.649 1  Rx        0277 -  8    00 00 4C 00 00 00 C0 00 
   477)       472.081 1  Rx        0037 -  8    7F FF 00 00 1F FF 00 88 
   478)       472.337 1  Rx        002B -  8    F0 00 30 00 0F FF 00 FF 
   479)       472.551 1  Rx        01A1 -  8    00 00 80 00 00 00 00 00 
   480)       472.849 1  Rx        0403 -  8    FD 07 BF FF FF FF FF FF 
   481)       473.063 1  Rx        0095 -  7    07 FF 00 00 00 00 D6 
   482)       473.532 1  Rx        0023 -  8    10 12 0F FF 00 00 A5 39 
   483)       474.087 1  Rx        00AB -  8    00 00 0F 0F 00 00 00 1E 
   484)       474.215 1  Rx        0077 -  2    05 02 
   485)       474.471 1  Rx        0230 -  8    03 3B 31 08 00 00 00 00 
   486)       474.769 1  Rx        0283 -  8    00 08 00 00 00 01 00 00 
   487)       474.940 1  Rx        02B1 -  5    15 0F 08 7F 7F 
   488)       475.196 1  Rx        00B3 -  8    00 00 00 00 00 00 00 0A 
   489)       475.367 1  Rx        035C -  6    00 00 00 00 00 00 
   490)       475.623 1  Rx        0257 -  8    FF 0F 00 36 36 36 00 00 
   491)       475.879 1  Rx        002F -  8    00 00 00 00 01 F0 80 00 
   492)       476.135 1  Rx        0071 -  8    1F FF 00 00 84 00 00 20 
   493)       476.348 1  Rx        0079 -  8    83 41 00 00 00 00 00 5A 
   494)       476.604 1  Rx        007F -  8    4B 33 00 00 00 00 FF FF 
   495)       476.860 1  Rx        0083 -  8    85 04 00 00 00 00 00 9A 
   496)       477.073 1  Rx        01D0 -  8    44 E7 0F 0F 00 07 00 00 
   497)       478.353 1  Rx        00B1 -  3    00 70 E7 
   498)       479.377 1  Rx        008D -  8    C6 C0 FF FF FF FF FF FF 
   499)       482.022 1  Rx        0037 -  8    7F FF 00 00 1F FF 10 45 
   500)       482.278 1  Rx        002B -  8    F0 00 30 00 0F FF 00 FF 
   501)       483.046 1  Rx        0085 -  8    00 FF 04 FF FF FF FF 00 
   502)       483.473 1  Rx        0023 -  8    10 12 0F FE 00 00 B4 74 
   503)       484.070 1  Rx        0093 -  8    1C FF FF 00 00 00 01 F3 
   504)       484.284 1  Rx        009B -  8    15 11 04 55 00 79 00 FF 
   505)       484.454 1  Rx        00AD -  5    01 00 00 D0 3C 
   506)       484.625 1  Rx        03C9 -  4    71 3F 00 00 
   507)       484.881 1  Rx        03F6 -  8    09 A9 82 33 88 88 88 44 
   508)       485.606 1  Rx        002F -  8    00 00 00 00 01 F1 80 00 
   509)       485.862 1  Rx        0087 -  8    00 00 00 00 00 56 00 E1 
   510)       486.076 1  Rx        0089 -  8    80 00 80 6D 80 80 00 80 
   511)       486.332 1  Rx        008B -  8    C0 00 C0 00 C0 00 C0 00 
   512)       486.588 1  Rx        00A7 -  8    00 00 00 FD 40 FB 00 87 
   513)       486.844 1  Rx        00DD -  8    00 00 00 00 00 80 00 00 
   514)       489.361 1  Rx        0091 -  8    01 FF 7F 00 00 00 10 5F 
   515)       491.281 1  Rx        02F2 -  8    00 00 00 00 00 00 00 00 
   516)       492.006 1  Rx        0037 -  8    7F FF 00 00 1F FF 20 0F 
   517)       492.262 1  Rx        002B -  8    F0 00 30 00 0F FF 00 FF 
   518)       492.518 1  Rx        01A1 -  8    00 00 80 00 00 00 00 00 
   519)       493.030 1  Rx        0095 -  7    07 FF 00 00 00 10 1B 
   520)       493.500 1  Rx        0023 -  8    10 12 0F FE 00 00 C4 2D 
   521)       494.012 1  Rx        00AB -  8    00 00 0F 0F 00 00 10 D3 
   522)       494.182 1  Rx        0077 -  2    05 02 
   523)       494.438 1  Rx        0291 -  8    40 00 06 00 00 01 00 00 
   524)       494.694 1  Rx        02C2 -  8    41 94 3F 03 E3 DA 00 00 
   525)       495.036 1  Rx        00B3 -  8    00 00 00 00 00 00 10 C7 
   526)       495.420 1  Rx        002F -  8    00 00 00 00 01 F4 80 00 
   527)       495.676 1  Rx        0071 -  8    1F FF 00 00 84 00 10 ED 
   528)       495.889 1  Rx        0079 -  8    8F FF 00 00 00 00 10 33 
   529)       496.145 1  Rx        007F -  8    4B 33 00 00 00 00 FF FF 
   530)       496.401 1  Rx        0083 -  8    85 04 00 00 00 00 10 57 
   531)       496.614 1  Rx        0328 -  8    30 01 00 49 00 43 00 20 
   532)       498.364 1  Rx        00B1 -  3    00 80 98 
   533)       499.345 1  Rx        008D -  8    C6 C0 FF FF FF FF FF FF 
   534)       501.265 1  Rx        01F7 -  8    FF FF 0F FF 00 80 00 00 
   535)       502.033 1  Rx        0037 -  8    7F FF 00 00 1F FF 30 C2 
   536)       502.289 1  Rx        002B -  8    F0 00 30 00 0F FF 00 FF 
   537)       503.057 1  Rx        0085 -  8    00 FF 04 FF FF FF FF 04 
   538)       503.483 1  Rx        0023 -  8    10 12 0F FE 00 00 D4 E0 
   539)       504.038 1  Rx        0093 -  8    1C FF FF 00 00 00 11 3E 
   540)       504.294 1  Rx        009B -  8    15 11 04 55 00 79 00 FF 
   541)       504.465 1  Rx        00AD -  5    01 00 00 E0 76 
   542)       504.721 1  Rx        0289 -  8    30 00 07 1E C0 FE 80 00 
   543)       504.977 1  Rx        02C5 -  8    01 EE EE 1C 01 00 00 00 
   544)       505.190 1  Rx        002F -  8    00 00 00 00 01 F5 80 00 
   545)       505.446 1  Rx        0087 -  8    01 70 00 00 00 55 10 C9 
   546)       505.702 1  Rx        0089 -  8    80 00 80 6D 80 80 10 80 
   547)       505.915 1  Rx        008B -  8    C0 00 C0 00 C0 00 C0 00 
   548)       506.171 1  Rx        00A7 -  8    00 00 00 FF 40 FD 10 D8 
   549)       509.371 1  Rx        0091 -  8    01 FF 7F 00 00 00 20 15 
   550)       511.249 1  Rx        027A -  8    10 7A 00 00 01 6B EB 07 
   551)       511.547 1  Rx        03AA -  8    00 00 00 00 00 00 00 00 
   552)       512.059 1  Rx        0037 -  8    7F FF 00 00 1F FF 40 9B 
   553)       512.315 1  Rx        002B -  8    F0 00 30 00 0F FF 00 FF 
   554)       513.041 1  Rx        0095 -  7    07 FF 00 00 00 20 51 
   555)       513.467 1  Rx        0023 -  8    10 12 0F FE 00 00 E4 AA 
   556)       514.065 1  Rx        00AB -  8    00 00 0F 0F 00 00 20 99 
   557)       514.193 1  Rx        0077 -  2    05 02 
   558)       514.449 1  Rx        026F -  8    00 C0 FF FF FF 7F 7F 7F 
   559)       514.705 1  Rx        02C6 -  8    41 03 01 13 00 00 00 00 
   560)       515.089 1  Rx        00B3 -  8    00 00 00 00 00 00 20 8D 
   561)       515.302 1  Rx        002F -  8    00 00 00 00 01 F7 80 00 
   562)       515.558 1  Rx        0071 -  8    1F FF 00 00 85 00 20 28 
   563)       515.814 1  Rx        0079 -  8    82 6E 03 7B 00 00 20 0E 
   564)       516.070 1  Rx        007F -  8    4B 33 00 00 00 00 FF FF 
   565)       516.283 1  Rx        0083 -  8    85 04 00 00 00 00 20 1D 
   566)       518.374 1  Rx        00B1 -  3    00 90 55 
   567)       519.355 1  Rx        008D -  8    C6 C0 FF FF FF FF FF FF 
   568)       521.275 1  Rx        02A1 -  8    80 08 FC F3 A9 FE 7D FE 
   569)       522.043 1  Rx        0037 -  8    7F FF 00 00 1F FF 50 56 
   570)       522.256 1  Rx        002B -  8    F0 00 30 00 0F FF 00 FF 
   571)       523.024 1  Rx        0085 -  8    00 FF 04 FF FF FF FF 08 
   572)       523.451 1  Rx        0023 -  8    10 12 0F FE 00 00 F4 67 
   573)       524.048 1  Rx        0093 -  8    1C FF FF 00 00 00 21 74 
   574)       524.304 1  Rx        009B -  8    15 11 04 55 00 79 00 FF 
   575)       524.432 1  Rx        00AD -  5    01 00 00 F0 BB 
   576)       524.688 1  Rx        0265 -  8    00 00 00 00 00 00 06 00 
   577)       524.944 1  Rx        0381 -  8    89 8D 00 00 00 04 00 00 
   578)       525.286 1  Rx        002F -  8    00 00 00 00 01 F8 80 00 
   579)       525.542 1  Rx        0087 -  8    01 77 00 00 00 55 20 4C 
   580)       525.798 1  Rx        0089 -  8    80 00 80 6D 80 80 20 80 
   581)       526.011 1  Rx        008B -  8    C0 00 C0 00 C0 00 C0 00 
   582)       526.267 1  Rx        00A7 -  8    00 00 01 01 40 FE 20 17 
   583)       526.523 1  Rx        0328 -  8    20 01 00 4F 00 46 00 46 
   584)       529.339 1  Rx        0091 -  8    01 FF 7F 00 00 00 30 D8 
   585)       531.259 1  Rx        027B -  8    00 00 07 FF 00 00 00 00 
   586)       532.027 1  Rx        0037 -  8    7F FF 00 00 1F FF 60 1C 
   587)       532.240 1  Rx        002B -  8    F0 00 30 00 0F FF 00 FF 
   588)       533.008 1  Rx        0095 -  7    07 FF 00 00 00 30 9C 
   589)       533.478 1  Rx        0023 -  8    10 12 0F FE 00 00 04 18 
   590)       534.032 1  Rx        00AB -  8    00 00 0F 0F 00 00 30 54 
   591)       534.160 1  Rx        0077 -  2    05 02 
   592)       535.014 1  Rx        00B3 -  8    00 00 00 00 00 00 30 40 
   593)       535.270 1  Rx        002F -  8    00 00 00 00 01 FA 80 00 
   594)       535.526 1  Rx        0071 -  8    1F FF 00 00 85 00 30 E5 
   595)       535.739 1  Rx        0079 -  8    82 F8 03 8C 00 00 30 C4 
   596)       535.995 1  Rx        007F -  8    4B 33 00 00 00 00 FF FF 
   597)       536.251 1  Rx        0083 -  8    85 04 00 00 00 00 30 D0 
   598)       536.464 1  Rx        00DD -  8    00 00 00 00 00 80 00 00 
   599)       538.384 1  Rx        00B1 -  3    00 A0 1F 
   600)       539.366 1  Rx        008D -  8    C6 C0 FF FF FF FF FF FF 
   601)       541.286 1  Rx        03AB -  8    00 46 00 00 00 00 00 00 
   602)       542.053 1  Rx        0037 -  8    7F FF 00 00 1F FF 70 D1 
   603)       542.267 1  Rx        002B -  8    F0 00 30 00 0F FF 00 FF 
   604)       543.035 1  Rx        0085 -  8    00 FF 04 FF FF FF FF 0C 
   605)       543.461 1  Rx        0023 -  8    10 12 0F FE 00 00 14 D5 
   606)       544.059 1  Rx        0093 -  8    1C FF FF 00 00 00 31 B9 
   607)       544.272 1  Rx        009B -  8    15 11 04 55 00 79 00 FF 
   608)       544.485 1  Rx        00AD -  5    01 00 00 00 C4 
   609)       544.699 1  Rx        0133 -  8    00 00 00 00 FF 03 0C FF 
   610)       545.339 1  Rx        002F -  8    00 00 00 00 01 FB 80 00 
   611)       545.552 1  Rx        0087 -  8    01 7E 00 00 00 55 30 CD 
   612)       545.808 1  Rx        0089 -  8    80 00 80 6D 80 80 30 80 
   613)       546.064 1  Rx        008B -  8    C0 00 C0 00 C0 00 C0 00 
   614)       546.277 1  Rx        00A7 -  8    00 00 01 03 41 00 30 7F 
   615)       549.349 1  Rx        0091 -  8    01 FF 7F 00 00 00 40 81 
   616)       551.269 1  Rx        027A -  8    10 7A 00 00 01 6B EB 07 
   617)       552.037 1  Rx        0037 -  8    7F FF 00 00 1F FF 80 AE 
   618)       552.293 1  Rx        002B -  8    F0 00 30 00 0F FF 00 FF 
   619)       553.019 1  Rx        0095 -  7    07 FF 00 00 00 40 C5 
   620)       553.488 1  Rx        0023 -  8    10 12 0F FE 00 00 24 9F 
   621)       553.915 1  Rx        0318 -  8    00 00 00 00 00 00 FF 00 
   622)       554.128 1  Rx        00AB -  8    00 00 0F 0F 00 00 40 0D 
   623)       554.299 1  Rx        0077 -  2    05 02 
   624)       555.067 1  Rx        00B3 -  8    00 00 00 00 00 00 40 19 
   625)       555.323 1  Rx        002F -  8    00 00 00 00 01 FC 80 00 
   626)       555.579 1  Rx        0071 -  8    1F FF 00 00 86 00 40 30 
   627)       555.835 1  Rx        0079 -  8    83 52 03 9D 00 00 40 76 
   628)       556.091 1  Rx        007F -  8    4B 33 00 00 00 00 FF FF 
   629)       556.304 1  Rx        0083 -  8    85 04 00 00 00 00 40 89 
   630)       556.560 1  Rx        0328 -  8    10 01 00 00 00 00 00 00 
   631)       556.816 1  Rx        0407 -  8    FD 09 04 0F E0 FF FF 00 
   632)       558.395 1  Rx        00B1 -  3    00 B0 D2 
   633)       559.376 1  Rx        008D -  8    C6 C0 FF FF FF FF FF FF 
   634)       559.675 1  Rx        01CE -  4    A4 00 00 07 
   635)       559.845 1  Rx        03C7 -  4    02 00 00 F2 
   636)       561.296 1  Rx        03CD -  8    00 00 00 00 00 00 00 00 
   637)       562.064 1  Rx        0037 -  8    7F FF 00 00 1F FF 90 63 
   638)       562.320 1  Rx        002B -  8    F0 00 30 00 0F FF 00 FF 
   639)       562.619 1  Rx        0129 -  4    36 00 00 00 
   640)       563.045 1  Rx        0085 -  8    00 FF 04 FF FF FF FF 10 
   641)       563.472 1  Rx        0023 -  8    10 12 0F FE 00 00 34 52 
   642)       564.069 1  Rx        0093 -  8    1C FF FF 00 00 00 41 E0 
   643)       564.282 1  Rx        009B -  8    15 E8 04 55 00 79 00 FF 
   644)       564.453 1  Rx        00AD -  5    01 00 00 10 09 
   645)       564.709 1  Rx        012B -  8    96 18 90 62 21 FF 7B FF 
   646)       564.965 1  Rx        013F -  8    FF FF C0 29 01 2F 00 00 
   647)       565.136 1  Rx        0125 -  3    F0 5A 00 
   648)       565.392 1  Rx        002F -  8    00 00 00 00 01 FD 80 00 
   649)       565.605 1  Rx        0087 -  8    01 86 00 00 00 55 40 52 
   650)       565.861 1  Rx        0089 -  8    80 00 80 6D 80 80 40 80 
   651)       566.074 1  Rx        008B -  8    C0 00 C0 00 C0 00 C0 00 
   652)       566.330 1  Rx        00A7 -  8    00 00 01 05 41 02 40 D7 
   653)       569.360 1  Rx        0091 -  8    01 FF 7F 00 00 00 50 4C 
   654)       569.786 1  Rx        0259 -  8    0F 0F 00 00 00 00 00 93 
   655)       571.493 1  Rx        01D0 -  8    C6 E7 7F 0F 00 07 00 00 
   656)       572.048 1  Rx        0037 -  8    7F FF 00 00 1F FF A0 29 
   657)       572.261 1  Rx        002B -  8    F0 00 30 00 0F FF 00 FF 
   658)       572.645 1  Rx        01C0 -  6    00 00 00 00 00 00 
   659)       573.029 1  Rx        0095 -  7    07 FF 00 00 00 50 08 
   660)       573.456 1  Rx        0035 -  8    00 00 00 00 00 00 1F 7C 
   661)       573.712 1  Rx        0023 -  8    10 12 0F FE 00 00 44 0B 
   662)       574.053 1  Rx        00AB -  8    00 00 0F 0F 00 00 50 C0 
   663)       574.181 1  Rx        0077 -  2    05 02 
   664)       574.394 1  Rx        007B -  7    00 00 00 00 00 10 3B 
   665)       575.034 1  Rx        00B3 -  8    00 00 00 00 00 00 50 D4 
   666)       575.290 1  Rx        0025 -  8    00 00 00 00 00 00 10 C7 
   667)       575.546 1  Rx        002F -  8    00 00 00 00 02 00 80 00 
   668)       575.802 1  Rx        0071 -  8    00 00 00 00 86 00 50 11 
   669)       576.016 1  Rx        0079 -  8    83 89 03 B0 00 00 50 9A 
   670)       576.272 1  Rx        007F -  8    4B 33 00 00 00 00 FF FF 
   671)       576.528 1  Rx        0083 -  8    85 04 00 00 00 00 50 44 
   672)       576.741 1  Rx        009D -  8    00 00 00 00 00 00 10 C7 
   673)       577.296 1  Rx        0027 -  8    80 00 00 00 00 00 10 66 
   674)       578.277 1  Rx        0081 -  8    18 00 7E 64 10 00 00 00 
   675)       578.405 1  Rx        00B1 -  3    00 C0 8B 
   676)       579.386 1  Rx        008D -  8    C6 C0 FF FF FF FF FF FF 
   677)       579.685 1  Rx        03C7 -  4    02 00 10 3F 
   678)       580.240 1  Rx        007D -  6    00 00 00 00 00 00 
   679)       582.032 1  Rx        0037 -  8    7F FF 00 00 1F FF B0 E4 
   680)       582.288 1  Rx        002B -  8    F0 00 30 00 0F FF 00 FF 
   681)       582.544 1  Rx        0137 -  8    00 00 00 00 00 00 00 00 
   682)       582.757 1  Rx        014D -  8    7B 7B 92 92 00 00 15 00 
   683)       583.056 1  Rx        0085 -  8    00 FF 04 FF FF FF FF 14 
   684)       583.269 1  Rx        0035 -  8    00 00 00 00 00 00 2F 36 
   685)       583.525 1  Rx        0023 -  8    10 12 0F FE 00 00 54 C6 
   686)       584.037 1  Rx        0093 -  8    1C FF FF 00 00 00 51 2D 
   687)       584.250 1  Rx        009B -  8    15 E8 04 55 00 79 00 FF 
   688)       584.464 1  Rx        00AD -  5    01 00 00 20 43 
   689)       585.274 1  Rx        0025 -  8    00 00 00 00 00 00 20 8D 
   690)       585.530 1  Rx        002F -  8    00 00 00 00 02 02 80 00 
   691)       585.786 1  Rx        0087 -  8    01 8E 00 00 00 55 50 95 
   692)       585.999 1  Rx        0089 -  8    80 00 80 6D 80 80 50 80 
   693)       586.255 1  Rx        008B -  8    C0 00 C0 00 C0 00 C0 00 
   694)       586.511 1  Rx        00A7 -  8    00 00 01 07 41 04 50 88 
   695)       586.767 1  Rx        00B5 -  8    00 00 00 00 00 00 00 00 
   696)       586.981 1  Rx        00DD -  8    00 00 00 00 00 80 00 01 
   697)       587.237 1  Rx        0328 -  8    00 01 00 00 00 00 00 00 
   698)       587.493 1  Rx        0027 -  8    87 D0 07 F3 00 00 20 39 
   699)       589.413 1  Rx        0091 -  8    01 FF 7F 00 00 00 60 06 
   700)       591.290 1  Rx        02F2 -  8    00 00 00 00 00 00 00 00 
   701)       591.546 1  Rx        03AC -  8    00 00 00 01 19 00 01 C6 
   702)       592.058 1  Rx        0037 -  8    7F FF 00 00 1F FF C0 BD 
   703)       592.314 1  Rx        002B -  8    F0 00 30 00 0F FF 00 FF 
   704)       592.527 1  Rx        0127 -  8    5D 81 64 00 C6 00 00 00 
   705)       592.783 1  Rx        03E0 -  8    00 31 43 34 47 4A 58 41 
   706)       593.039 1  Rx        0095 -  7    07 FF 00 00 00 60 42 
   707)       593.295 1  Rx        0035 -  8    07 F2 07 D0 00 00 37 52 
   708)       593.551 1  Rx        0023 -  8    10 12 0F FE 00 00 64 8C 
   709)       594.063 1  Rx        00AB -  8    00 00 0F 0F 00 00 60 8A 
   710)       594.277 1  Rx        007B -  7    07 F2 00 07 D0 20 E4 
   711)       594.405 1  Rx        0077 -  2    05 02 
   712)       595.045 1  Rx        00B3 -  8    00 00 00 00 00 00 60 9E 
   713)       595.301 1  Rx        0025 -  8    00 00 07 D0 07 D0 30 D2 
   714)       595.557 1  Rx        002F -  8    00 00 00 00 02 04 80 00 
   715)       595.813 1  Rx        0071 -  8    07 F2 00 00 86 00 60 95 
   716)       596.026 1  Rx        0079 -  8    83 AC 03 C3 00 00 60 FA 
   717)       596.282 1  Rx        007F -  8    4B 33 00 00 00 00 FF FF 
   718)       596.495 1  Rx        0083 -  8    85 04 00 00 00 00 60 0E 
   719)       596.751 1  Rx        009D -  8    00 00 00 00 00 00 20 8D 
   720)       597.263 1  Rx        0027 -  8    8C DC 07 D2 00 00 30 19 
   721)       598.287 1  Rx        0081 -  8    18 00 7E 64 10 00 00 00 
   722)       598.415 1  Rx        00B1 -  3    00 D0 46 
   723)       599.397 1  Rx        008D -  8    C6 C0 FF FF FF FF FF FF 
   724)       600.250 1  Rx        007D -  6    00 7A 00 00 03 1F 
   725)       602.042 1  Rx        0037 -  8    7F FF 00 00 1F FF D0 70 
   726)       602.298 1  Rx        002B -  8    F0 00 30 00 0F FF 00 FF 
   727)       602.511 1  Rx        015B -  8    00 00 00 00 00 00 00 00 
   728)       602.767 1  Rx        02A4 -  8    00 7E 00 00 00 00 00 FF 
   729)       603.066 1  Rx        0085 -  8    00 FF 04 FF FF FF FF 18 
   730)       603.279 1  Rx        0035 -  8    07 D2 06 F3 00 00 47 B9 
   731)       603.535 1  Rx        0023 -  8    10 12 0F FE 00 00 74 41 
   732)       604.047 1  Rx        0093 -  8    1C FF FF 00 00 00 61 67 
   733)       604.261 1  Rx        009B -  8    15 E8 04 55 00 79 00 FF 
   734)       604.474 1  Rx        00AD -  5    01 00 00 30 8E 
   735)       605.285 1  Rx        0025 -  8    00 00 06 F3 07 D2 40 89 
   736)       605.541 1  Rx        002F -  8    00 00 00 00 02 06 80 00 
   737)       605.754 1  Rx        0087 -  8    01 96 00 00 00 54 60 8D 
   738)       606.010 1  Rx        0089 -  8    80 00 80 6D 80 80 60 80 
   739)       606.266 1  Rx        008B -  8    C0 00 C0 00 C0 00 C0 00 
   740)       606.479 1  Rx        00A7 -  8    00 00 01 09 41 07 60 E3 
   741)       606.735 1  Rx        00B5 -  8    00 00 00 00 00 00 00 00 
   742)       607.290 1  Rx        0027 -  8    8B BB 07 D3 00 00 40 E4 
   743)       609.380 1  Rx        0091 -  8    01 FF 7F 00 00 00 70 CB 
   744)       609.636 1  Rx        01CE -  4    A4 00 10 CA 
   745)       612.154 1  Rx        002B -  8    F0 00 30 00 0F FF 00 FF 
   746)       612.410 1  Rx        0143 -  8    00 00 00 00 00 00 00 00 
   747)       612.623 1  Rx        0037 -  8    7F FF 00 00 1F FF E0 3A 
   748)       612.879 1  Rx        0157 -  8    00 00 00 00 00 00 00 00 
   749)       613.263 1  Rx        0035 -  8    07 D3 07 6E 00 00 57 07 
   750)       613.519 1  Rx        0023 -  8    10 12 0F FE 00 00 84 3E 
   751)       613.732 1  Rx        0095 -  7    07 FF 00 00 00 70 8F 
   752)       614.159 1  Rx        0077 -  2    05 02 
   753)       614.372 1  Rx        007B -  7    C7 D3 00 07 6E 30 95 
   754)       614.586 1  Rx        00AB -  8    00 00 0F 0F 00 00 70 47 
   755)       615.268 1  Rx        0025 -  8    00 00 07 6E 07 D3 50 3D 
   756)       615.524 1  Rx        002F -  8    00 00 00 00 02 08 80 00 
   757)       615.780 1  Rx        0071 -  8    07 D3 00 00 86 00 70 36 
   758)       615.994 1  Rx        0079 -  8    83 C5 03 D6 00 00 70 F5 
   759)       616.250 1  Rx        007F -  8    4B 33 00 00 00 00 FF FF 
   760)       616.506 1  Rx        0083 -  8    85 04 00 00 00 00 70 C3 
   761)       616.762 1  Rx        009D -  8    00 00 00 00 00 00 30 40 
   762)       616.975 1  Rx        00B3 -  8    00 00 00 00 00 00 70 53 
   763)       617.274 1  Rx        0027 -  8    8C 36 07 D4 00 00 50 BA 
   764)       617.828 1  Rx        0328 -  8    00 00 00 00 00 00 00 00 
   765)       618.255 1  Rx        0081 -  8    18 00 7D 64 08 00 00 00 
   766)       618.426 1  Rx        00B1 -  3    00 E0 0C 
   767)       619.407 1  Rx        008D -  8    C6 C0 FF FF FF FF FF FF 
   768)       620.218 1  Rx        007D -  6    00 7A 00 00 03 1E 
   769)       621.412 1  Rx        0037 -  8    1F FE 00 00 0A 28 F0 FF 
   770)       622.138 1  Rx        002B -  8    F0 00 30 00 0F FF 00 FF 
   771)       622.394 1  Rx        013D -  8    01 00 00 80 FF FF 28 00 
   772)       622.650 1  Rx        0085 -  8    20 FF 04 00 00 00 00 1C 
   773)       623.290 1  Rx        0035 -  8    07 D4 07 6E 00 00 67 82 
   774)       623.546 1  Rx        0023 -  8    10 12 0F FE 00 00 94 F3 
   775)       623.759 1  Rx        0093 -  8    9C FF FF 00 00 00 71 0B 
   776)       624.143 1  Rx        00AD -  5    01 00 00 40 D7 
   777)       624.356 1  Rx        009B -  8    15 E8 04 55 00 79 00 FF 
   778)       624.612 1  Rx        0289 -  8    30 00 07 1E C0 15 80 00 
   779)       625.295 1  Rx        0025 -  8    00 00 07 6E 07 D4 60 8E 
   780)       625.508 1  Rx        002F -  8    00 00 00 00 02 09 80 00 
   781)       625.764 1  Rx        0087 -  8    01 9E 00 00 00 54 70 4A 
   782)       626.020 1  Rx        0089 -  8    80 00 80 6D 80 80 70 80 
   783)       626.234 1  Rx        008B -  8    C0 00 C0 00 C0 00 C0 00 
   784)       626.490 1  Rx        00A7 -  8    00 00 01 0B 41 08 70 AA 
   785)       626.746 1  Rx        00B5 -  8    00 00 00 00 00 00 00 00 
   786)       627.300 1  Rx        0027 -  8    8C 36 07 D5 00 00 60 6D 
   787)       629.391 1  Rx        0091 -  8    01 FF 7F 00 00 00 80 B4 
   788)       631.012 1  Rx        0037 -  8    1F FE 00 00 0A 28 00 80 
   789)       631.993 1  Rx        0095 -  7    00 00 00 00 00 80 D0 
   790)       632.249 1  Rx        002B -  8    F0 00 30 00 0F FF 00 FF 
   791)       632.420 1  Rx        0121 -  5    00 01 00 15 00 
   792)       633.017 1  Rx        00AB -  8    00 00 CD 0D 00 00 80 77 
   793)       633.273 1  Rx        0035 -  8    07 D5 07 6E 00 00 77 09 
   794)       633.529 1  Rx        0023 -  8    10 12 0F FE 00 00 A4 B9 
   795)       634.041 1  Rx        00B3 -  8    00 00 00 00 00 00 80 2C 
   796)       634.169 1  Rx        0077 -  2    05 02 
   797)       634.383 1  Rx        007B -  7    C7 D5 00 07 6E 40 AD 
   798)       635.279 1  Rx        0025 -  8    00 00 07 6E 07 D5 70 0F 
   799)       635.535 1  Rx        002F -  8    00 00 00 00 02 0B 80 00 
   800)       635.791 1  Rx        0071 -  8    07 D5 00 00 87 00 80 4F 
   801)       636.004 1  Rx        0079 -  8    83 DC 03 EC 00 00 80 06 
   802)       636.260 1  Rx        007F -  8    4B 33 00 00 00 00 FF FF 
   803)       636.516 1  Rx        0083 -  8    85 04 00 00 00 00 80 BC 
   804)       636.772 1  Rx        009D -  8    00 00 00 00 00 00 40 19 
   805)       636.985 1  Rx        00DD -  8    00 00 00 00 00 80 00 01 
   806)       637.284 1  Rx        0027 -  8    8C 36 07 D6 00 00 70 1A 
   807)       638.265 1  Rx        0081 -  8    18 00 7D 64 08 00 00 00 
   808)       638.436 1  Rx        00B1 -  3    00 F0 C1 
   809)       639.417 1  Rx        008D -  8    C6 C0 FF FF FF FF FF FF 
   810)       640.228 1  Rx        007D -  6    00 7A 00 00 03 1D 
   811)       641.039 1  Rx        0037 -  8    1F FE 00 00 0A 28 10 4D 
   812)       641.337 1  Rx        03AD -  8    00 00 00 00 00 00 00 00 
   813)       642.063 1  Rx        0085 -  8    20 DD 04 00 00 00 00 20 
   814)       642.276 1  Rx        002B -  8    F0 00 30 00 0F FF 00 FF 
   815)       642.532 1  Rx        03E1 -  7    24 16 00 1C 00 FF FF 
   816)       643.044 1  Rx        0093 -  8    80 FC 50 00 00 00 81 22 
   817)       643.300 1  Rx        0035 -  8    07 D6 07 6E 00 3C 87 0A 
   818)       643.513 1  Rx        0023 -  8    10 12 0F FE 00 00 B4 74 
   819)       644.153 1  Rx        00AD -  5    01 00 00 50 1A 
   820)       644.367 1  Rx        009B -  8    15 E8 04 55 00 79 00 FF 
   821)       644.623 1  Rx        0133 -  8    00 00 00 00 FF 03 0C FF 
   822)       644.836 1  Rx        0205 -  7    05 02 B9 E0 9C 0C B4 
   823)       645.305 1  Rx        0025 -  8    00 00 07 6E 07 D6 80 A4 
   824)       645.519 1  Rx        002F -  8    00 00 00 00 02 0E 80 00 
   825)       645.775 1  Rx        0087 -  8    01 A8 00 00 00 54 80 80 
   826)       646.031 1  Rx        0089 -  8    80 00 80 6D 80 80 80 80 
   827)       646.244 1  Rx        008B -  8    C0 00 C0 00 C0 00 C0 00 
   828)       646.500 1  Rx        00A7 -  8    00 00 01 0E 41 0B 80 D2 
   829)       646.756 1  Rx        00B5 -  8    00 00 00 00 00 00 00 00 
   830)       647.311 1  Rx        0027 -  8    AC 36 07 D7 00 00 80 97 
   831)       649.188 1  Rx        0409 -  8    FD 23 BF FF FF FF FF FF 
   832)       649.444 1  Rx        0091 -  8    01 FF 7F 00 00 00 90 79 
   833)       649.657 1  Rx        0328 -  8    40 42 00 00 00 00 00 00 
   834)       651.022 1  Rx        0037 -  8    1F FE 00 00 0A 28 20 07 
   835)       652.004 1  Rx        0095 -  7    00 00 00 00 00 90 1D 
   836)       652.302 1  Rx        002B -  8    F0 00 30 00 0F FF 00 FF 
   837)       652.473 1  Rx        014E -  8    0B 15 0A 1C E3 00 08 7D 
   838)       653.028 1  Rx        00AB -  8    00 00 CD 0D 00 00 90 BA 
   839)       653.284 1  Rx        0035 -  8    07 D7 07 6E 00 3C 97 81 
   840)       653.540 1  Rx        0023 -  8    10 12 0F FF 00 00 C4 B0 
   841)       653.753 1  Rx        0204 -  7    AB 02 F0 00 00 00 00 
   842)       654.009 1  Rx        0318 -  8    00 00 00 00 00 00 FF 00 
   843)       654.265 1  Rx        00B3 -  8    00 00 00 00 00 00 90 E1 
   844)       654.393 1  Rx        0077 -  2    05 02 
   845)       654.606 1  Rx        007B -  7    C7 D7 00 07 6E 50 B4 
   846)       654.862 1  Rx        0332 -  8    00 E0 03 FF 00 00 03 E8 
   847)       655.289 1  Rx        0025 -  8    00 00 07 6E 07 D7 90 25 
   848)       655.545 1  Rx        002F -  8    00 00 00 00 02 12 80 00 
   849)       655.758 1  Rx        0071 -  8    07 D7 00 00 87 00 90 0E 
   850)       656.014 1  Rx        0079 -  8    83 F4 04 06 00 00 90 B2 
   851)       656.270 1  Rx        007F -  8    4B 33 00 00 00 00 FF FF 
   852)       656.484 1  Rx        0083 -  8    85 04 00 00 00 00 90 71 
   853)       656.782 1  Rx        009D -  8    00 00 00 00 00 00 50 D4 
   854)       657.294 1  Rx        0027 -  8    AC 36 07 D8 00 00 90 32 
   855)       658.276 1  Rx        0081 -  8    18 00 7D 64 08 00 00 00 
   856)       658.446 1  Rx        00B1 -  3    00 00 BE 
   857)       659.385 1  Rx        008D -  8    C6 C0 FF FF FF FF FF FF 
   858)       659.684 1  Rx        01CE -  4    A5 00 20 0F 
   859)       660.238 1  Rx        007D -  6    00 7A 00 00 03 1C 
   860)       661.006 1  Rx        0037 -  8    1F FE 00 00 0A 28 30 CA 
   861)       661.988 1  Rx        0085 -  8    20 DD 04 00 00 00 00 24 
   862)       662.286 1  Rx        002B -  8    F0 00 30 00 0F FF 00 FF 
   863)       662.628 1  Rx        0129 -  4    36 00 00 00 
   864)       663.012 1  Rx        0093 -  8    80 FC 50 00 00 00 91 EF 
   865)       663.268 1  Rx        0035 -  8    07 D8 07 6E 00 3C A7 0E 
   866)       663.524 1  Rx        0023 -  8    10 12 0F FF 00 00 D4 7D 
   867)       663.908 1  Rx        0125 -  3    00 79 00 
   868)       664.121 1  Rx        00AD -  5    01 00 00 60 50 
   869)       664.377 1  Rx        009B -  8    15 16 04 55 00 79 00 FF 
   870)       664.633 1  Rx        012B -  8    96 18 90 62 21 FF 7B FF 
   871)       664.846 1  Rx        0205 -  7    06 00 00 00 00 00 00 
   872)       665.102 1  Rx        013F -  8    FF FF BF 12 01 2D 00 00 
   873)       665.316 1  Rx        0025 -  8    00 00 07 6E 07 D8 A0 CC 
   874)       665.572 1  Rx        002F -  8    00 00 00 00 02 15 80 00 
   875)       665.828 1  Rx        0087 -  8    01 B4 00 00 00 54 90 56 
   876)       666.041 1  Rx        0089 -  8    80 00 80 6D 80 80 90 80 
   877)       666.297 1  Rx        008B -  8    C0 00 C0 00 C0 00 C0 00 
   878)       666.553 1  Rx        00A7 -  8    00 00 01 11 41 0E 90 33 
   879)       666.809 1  Rx        00B5 -  8    00 00 00 00 00 00 00 00 
   880)       667.278 1  Rx        0027 -  8    AC 36 07 D9 00 00 A0 E5 
   881)       669.369 1  Rx        0091 -  8    01 FF 7F 00 00 00 A0 33 
   882)       671.033 1  Rx        0037 -  8    1F FE 00 00 0A 28 40 93 
   883)       671.459 1  Rx        01D0 -  8    44 27 7F 0F 00 07 00 00 
   884)       672.014 1  Rx        0095 -  7    00 00 00 00 00 A0 57 
   885)       672.270 1  Rx        002B -  8    F0 00 30 00 0F FF 00 FF 
   886)       672.483 1  Rx        0279 -  8    0C C2 4D 00 46 00 00 00 
   887)       673.038 1  Rx        00AB -  8    00 00 CD 0D 00 00 A0 F0 
   888)       673.294 1  Rx        0035 -  8    07 D9 07 6E 00 3C B7 85 
   889)       673.507 1  Rx        0023 -  8    10 11 0F FE 00 00 E8 FC 
   890)       674.019 1  Rx        00B3 -  8    00 00 00 00 00 00 A0 AB 
   891)       674.147 1  Rx        0077 -  2    15 22 
   892)       674.403 1  Rx        007B -  7    C7 D9 00 07 6E 60 E8 
   893)       675.299 1  Rx        0025 -  8    00 00 07 6E 07 D9 B0 4D 
   894)       675.513 1  Rx        002F -  8    00 00 00 00 02 19 80 00 
   895)       675.769 1  Rx        0071 -  8    07 D9 00 00 87 00 A0 C7 
   896)       676.025 1  Rx        0079 -  8    84 0F 04 23 00 00 A0 E3 
   897)       676.238 1  Rx        007F -  8    4B 33 00 00 00 00 FF FF 
   898)       676.494 1  Rx        0083 -  8    85 04 00 00 00 00 A0 3B 
   899)       676.750 1  Rx        009D -  8    00 00 00 00 00 00 60 9E 
   900)       677.006 1  Rx        0328 -  8    30 02 00 00 00 00 00 00 
   901)       677.262 1  Rx        0027 -  8    AC 36 07 DA 00 00 B0 92 
   902)       678.286 1  Rx        0081 -  8    18 00 7D 64 08 00 00 00 
   903)       678.414 1  Rx        00B1 -  3    00 10 73 
   904)       679.395 1  Rx        008D -  8    C6 C0 FF FF FF FF FF FF 
   905)       680.249 1  Rx        007D -  6    00 7A 00 00 03 1B 
   906)       680.974 1  Rx        0037 -  8    1F FE 00 00 0A 28 50 5E 
   907)       681.955 1  Rx        0085 -  8    20 DD 04 00 00 00 00 28 
   908)       682.211 1  Rx        002B -  8    F0 00 30 00 0F FF 00 FF 
   909)       682.467 1  Rx        0137 -  8    00 00 00 00 00 00 00 80 
   910)       682.638 1  Rx        0129 -  4    32 00 00 00 
   911)       682.851 1  Rx        014D -  8    7B 7B 92 92 00 00 01 00 
   912)       683.107 1  Rx        0093 -  8    80 FC 50 00 00 00 A1 A5 
   913)       683.321 1  Rx        0035 -  8    07 DA 07 6E 00 3C C7 16 
   914)       683.577 1  Rx        0023 -  8    10 11 0F FF 00 00 F8 AC 
   915)       684.131 1  Rx        00AD -  5    01 00 00 70 9D 
   916)       684.387 1  Rx        009B -  8    15 16 04 55 00 79 00 FF 
   917)       685.283 1  Rx        0025 -  8    00 00 07 6E 07 DA C0 C0 
   918)       685.539 1  Rx        002F -  8    00 00 00 00 02 1B 80 00 
   919)       685.753 1  Rx        0087 -  8    01 BF 00 00 00 53 A0 25 
   920)       686.009 1  Rx        0089 -  8    80 00 80 6D 80 80 A0 80 
   921)       686.265 1  Rx        008B -  8    C0 00 C0 00 C0 00 C0 00 
   922)       686.478 1  Rx        00A7 -  8    00 00 01 14 41 11 A0 BD 
   923)       686.777 1  Rx        00B5 -  8    00 00 00 00 00 00 00 00 
   924)       686.990 1  Rx        00DD -  8    00 00 00 00 00 80 00 01 
   925)       687.289 1  Rx        0027 -  8    AC 36 07 DB 00 00 C0 56 
   926)       689.422 1  Rx        0091 -  8    01 FF 7F 00 00 00 B0 FE 
   927)       690.958 1  Rx        0037 -  8    1F FE 00 00 0A 28 60 14 
   928)       691.299 1  Rx        02F2 -  8    00 00 00 00 00 00 00 00 
   929)       691.555 1  Rx        03AE -  8    00 00 00 00 00 00 00 00 
   930)       691.939 1  Rx        0095 -  7    00 00 00 00 00 B0 9A 
   931)       692.152 1  Rx        002B -  8    F0 00 30 00 0F FF 00 FF 
   932)       692.408 1  Rx        0127 -  8    5D 81 64 00 C5 00 83 00 
   933)       692.622 1  Rx        03E0 -  8    01 47 32 4A 57 32 39 34 
   934)       692.920 1  Rx        00AB -  8    00 00 CD 0D 00 00 B0 3D 
   935)       693.304 1  Rx        0035 -  8    07 DB 07 6E 00 3C D7 9D 
   936)       693.560 1  Rx        0023 -  8    10 11 0F FF 00 00 08 D3 
   937)       693.944 1  Rx        00B3 -  8    00 00 00 00 00 00 B0 66 
   938)       694.243 1  Rx        007B -  7    C7 DB 00 07 6E 70 F1 
   939)       694.414 1  Rx        0077 -  2    15 22 
   940)       695.267 1  Rx        0025 -  8    00 00 07 6E 07 DB D0 41 
   941)       695.523 1  Rx        002F -  8    00 00 00 00 02 1E 80 00 
   942)       695.779 1  Rx        0071 -  8    07 DB 00 00 88 00 B0 00 
   943)       696.035 1  Rx        0079 -  8    84 28 04 3B 00 00 B0 70 
   944)       696.248 1  Rx        007F -  8    4B 33 00 00 00 00 FF FF 
   945)       696.504 1  Rx        0083 -  8    85 04 00 00 00 00 B0 F6 
   946)       696.760 1  Rx        009D -  8    00 00 00 00 00 00 70 53 
   947)       697.272 1  Rx        0027 -  8    AC 36 07 DB 00 00 D0 9B 
   948)       698.254 1  Rx        0081 -  8    18 00 7D 64 01 00 00 00 
   949)       698.424 1  Rx        00B1 -  3    00 20 39 
   950)       699.406 1  Rx        008D -  8    C6 C0 FF FF FF FF FF FF 
   951)       700.259 1  Rx        007D -  6    00 7A 00 00 03 1A 
   952)       700.942 1  Rx        0037 -  8    1F FE 00 00 0A 28 70 D9 
   953)       701.966 1  Rx        0085 -  8    20 DD 04 00 00 00 00 2C 
   954)       702.179 1  Rx        002B -  8    F0 00 30 00 0F FF 00 FF 
   955)       702.435 1  Rx        015B -  8    00 00 00 00 00 00 00 00 
   956)       702.691 1  Rx        02A4 -  8    00 7D 00 00 00 00 00 FF 
   957)       702.947 1  Rx        0093 -  8    80 FC 50 00 00 00 B1 68 
   958)       703.288 1  Rx        0035 -  8    07 DB 07 6E 00 3C E7 D7 
   959)       703.544 1  Rx        0023 -  8    10 11 0F FF 00 00 18 1E 
   960)       704.142 1  Rx        00AD -  5    01 00 00 80 E2 
   961)       704.355 1  Rx        009B -  8    15 16 04 55 00 79 00 FF 
   962)       705.294 1  Rx        0025 -  8    00 00 07 6E 07 DB E0 0B 
   963)       705.550 1  Rx        002F -  8    00 00 00 00 02 20 80 00 
   964)       705.763 1  Rx        0087 -  8    01 C8 00 00 00 53 B0 4B 
   965)       706.019 1  Rx        0089 -  8    80 00 80 6D 80 80 B0 80 
   966)       706.232 1  Rx        008B -  8    C0 00 C0 00 C0 00 C0 00 
   967)       706.488 1  Rx        00A7 -  8    00 00 01 16 41 14 B0 36 
   968)       706.744 1  Rx        00B5 -  8    00 00 00 00 00 00 00 00 
   969)       707.000 1  Rx        0328 -  8    20 02 00 00 00 00 00 00 
   970)       707.299 1  Rx        0027 -  8    AC 36 07 DB 00 00 E0 D1 
   971)       709.390 1  Rx        0091 -  8    01 FF 7F 00 00 00 C0 A7 
   972)       709.688 1  Rx        01CE -  4    A5 00 30 C2 
   973)       710.926 1  Rx        0037 -  8    1F FE 00 00 0A 28 80 A6 
   974)       711.950 1  Rx        0095 -  7    00 00 00 00 00 C0 C3 
   975)       712.206 1  Rx        002B -  8    F0 00 30 00 0F FF 00 FF 
   976)       712.419 1  Rx        0143 -  8    00 00 00 00 00 00 00 00 
   977)       712.675 1  Rx        0157 -  8    00 00 00 00 10 00 00 00 
   978)       712.931 1  Rx        00AB -  8    00 00 CD 0D 00 00 C0 64 
   979)       713.272 1  Rx        0035 -  8    07 DB 07 6E 00 3C F7 1A 
   980)       713.528 1  Rx        0023 -  8    10 11 0F FF 00 00 28 54 
   981)       713.955 1  Rx        00B3 -  8    00 00 00 00 00 00 C0 3F 
   982)       714.083 1  Rx        0077 -  2    15 22 
   983)       714.296 1  Rx        007B -  7    C7 DB 00 07 6E 80 8E 
   984)       715.277 1  Rx        0025 -  8    00 00 07 6E 07 DB F0 C6 
   985)       715.533 1  Rx        002F -  8    00 00 00 00 02 21 80 00 
   986)       715.789 1  Rx        0071 -  8    07 DB 00 00 88 00 C0 59 
   987)       716.003 1  Rx        0079 -  8    84 3E 04 4E 00 00 C0 9C 
   988)       716.259 1  Rx        007F -  8    4B 33 00 00 00 00 FF FF 
   989)       716.515 1  Rx        0083 -  8    85 04 00 00 00 00 C0 AF 
   990)       716.771 1  Rx        009D -  8    00 00 00 00 00 00 80 2C 
   991)       717.283 1  Rx        0027 -  8    AC 36 07 DB 00 00 F0 1C 
   992)       718.264 1  Rx        0081 -  8    18 00 7D 64 01 00 00 00 
   993)       718.435 1  Rx        00B1 -  3    00 30 F4 
   994)       719.416 1  Rx        008D -  8    C6 C0 FF FF FF FF FF FF 
   995)       720.227 1  Rx        007D -  6    00 7A 00 00 03 19 
   996)       720.909 1  Rx        0037 -  8    1F FE 00 00 0A 28 90 6B 
   997)       721.933 1  Rx        0085 -  8    20 DD 04 00 00 00 00 30 
   998)       722.232 1  Rx        002B -  8    F0 00 30 00 0F FF 00 FF 
   999)       722.445 1  Rx        013D -  8    01 00 00 80 00 00 28 00 
  1000)       722.915 1  Rx        0093 -  8    80 FC 50 00 00 00 C1 31 
  1001)       723.299 1  Rx        0035 -  8    07 DB 07 6E 00 3C 07 65 
  1002)       723.512 1  Rx        0023 -  8    10 11 0F FF 00 00 38 99 
  1003)       724.152 1  Rx        00AD -  5    01 00 00 90 2F 
  1004)       724.365 1  Rx        009B -  8    15 16 04 55 00 79 00 FF 
  1005)       724.621 1  Rx        01A1 -  8    00 00 80 00 00 00 00 00 
  1006)       725.304 1  Rx        0025 -  8    00 00 07 6E 07 DB 00 B9 
  1007)       725.517 1  Rx        002F -  8    00 00 00 00 02 22 80 00 
  1008)       725.773 1  Rx        0087 -  8    01 D0 00 00 00 53 C0 0C 
  1009)       726.029 1  Rx        0089 -  8    80 00 80 6D 80 80 C0 80 
  1010)       726.243 1  Rx        008B -  8    C0 00 C0 00 C0 00 C0 00 
  1011)       726.499 1  Rx        00A7 -  8    00 00 01 19 41 16 C0 9F 
  1012)       726.755 1  Rx        00B5 -  8    00 00 00 00 00 00 00 00 
  1013)       727.309 1  Rx        0027 -  8    AC 36 07 DB 00 00 00 63 
  1014)       729.400 1  Rx        0091 -  8    01 FF 7F 00 00 00 D0 6A 
  1015)       730.936 1  Rx        0037 -  8    1F FE 00 00 0A 28 A0 21 
  1016)       731.960 1  Rx        0095 -  7    00 00 00 00 00 D0 0E 
  1017)       732.173 1  Rx        002B -  8    F0 00 30 00 0F FF 00 FF 
  1018)       732.387 1  Rx        0121 -  5    00 00 00 15 00 
  1019)       732.941 1  Rx        00AB -  8    00 00 CD 0D 00 00 D0 A9 
  1020)       733.283 1  Rx        0035 -  8    07 DB 07 6E 00 3C 17 A8 
  1021)       733.539 1  Rx        0023 -  8    10 11 0F FF 00 00 48 C0 
  1022)       733.965 1  Rx        00B3 -  8    00 00 00 00 00 00 D0 F2 
  1023)       734.093 1  Rx        0077 -  2    15 22 
  1024)       734.306 1  Rx        007B -  7    C7 DB 00 07 6E 90 43 
  1025)       735.288 1  Rx        0025 -  8    00 00 07 6E 07 DB 10 74 
  1026)       735.544 1  Rx        002F -  8    00 00 00 00 02 24 80 00 
  1027)       735.757 1  Rx        0071 -  8    07 DB 00 00 88 00 D0 94 
  1028)       736.013 1  Rx        0079 -  8    84 53 04 61 00 00 D0 42 
  1029)       736.269 1  Rx        007F -  8    4B 33 00 00 00 00 FF FF 
  1030)       736.482 1  Rx        0083 -  8    85 04 00 00 00 00 D0 62 
  1031)       736.738 1  Rx        009D -  8    00 00 00 00 00 00 90 E1 
  1032)       736.994 1  Rx        00DD -  8    00 00 00 00 00 80 00 01 
  1033)       737.250 1  Rx        0328 -  8    10 02 00 00 00 00 00 00 
  1034)       737.464 1  Rx        0027 -  8    AC 36 07 DB 00 00 10 AE 
  1035)       738.274 1  Rx        0081 -  8    18 00 7D 64 01 00 00 00 
  1036)       738.445 1  Rx        00B1 -  3    00 40 AD 
  1037)       739.426 1  Rx        008D -  8    C6 C0 FF FF FF FF FF FF 
  1038)       740.237 1  Rx        007D -  6    00 7A 00 00 03 18 
  1039)       740.962 1  Rx        0037 -  8    1F FE 00 00 0A 28 B0 EC 
  1040)       741.261 1  Rx        03AF -  8    00 00 00 8C 46 00 E1 C2 
  1041)       741.944 1  Rx        0085 -  8    20 DD 04 00 00 00 00 34 
  1042)       742.242 1  Rx        002B -  8    F0 00 30 00 0F FF 00 FF 
  1043)       742.413 1  Rx        03E1 -  7    24 16 00 1C 00 FF FF 
  1044)       742.968 1  Rx        0093 -  8    80 FC 50 00 00 00 D1 FC 
  1045)       743.309 1  Rx        0035 -  8    07 DB 07 6E 00 3C 27 E2 
  1046)       743.522 1  Rx        0023 -  8    10 11 0F FF 00 00 58 0D 
  1047)       744.120 1  Rx        00AD -  5    01 00 00 A0 65 
  1048)       744.376 1  Rx        009B -  8    15 16 04 55 00 79 00 FF 
  1049)       744.632 1  Rx        0133 -  8    00 00 00 00 FF 03 0C FF 
  1050)       745.272 1  Rx        0025 -  8    00 00 07 6E 07 DB 20 3E 
  1051)       745.528 1  Rx        002F -  8    00 00 00 00 02 25 80 00 
  1052)       745.784 1  Rx        0087 -  8    01 D8 00 00 00 53 D0 CB 
  1053)       745.997 1  Rx        0089 -  8    80 00 80 6D 80 80 D0 80 
  1054)       746.253 1  Rx        008B -  8    C0 00 C0 00 C0 00 C0 00 
  1055)       746.509 1  Rx        00A7 -  8    00 00 01 1B 41 18 D0 9A 
  1056)       746.722 1  Rx        00B5 -  8    00 00 00 00 00 00 00 00 
  1057)       747.277 1  Rx        0027 -  8    AC 36 07 DB 00 00 20 E4 
  1058)       748.600 1  Rx        0423 -  8    FD 00 84 0F 00 00 00 00 
  1059)       749.410 1  Rx        0091 -  8    01 FF 7F 00 00 00 E0 20 
  1060)       750.946 1  Rx        0037 -  8    1F FE 00 00 0A 28 C0 B5 
  1061)       751.288 1  Rx        027B -  8    01 FA 07 FF 00 00 00 00 
  1062)       751.928 1  Rx        0095 -  7    00 00 00 00 00 E0 44 
  1063)       752.141 1  Rx        002B -  8    F0 00 30 00 0F FF 00 FF 
  1064)       752.397 1  Rx        014E -  8    0A 15 0A 1B E4 00 01 7D 
  1065)       752.952 1  Rx        00AB -  8    00 00 CD 0D 00 00 E0 E3 
  1066)       753.293 1  Rx        0035 -  8    07 DB 07 6E 00 3C 37 2F 
  1067)       753.549 1  Rx        0023 -  8    10 11 0F FF 00 00 68 47 
  1068)       753.933 1  Rx        0318 -  8    00 00 00 00 00 00 FF 00 
  1069)       754.146 1  Rx        00B3 -  8    00 00 00 00 00 00 E0 B8 
  1070)       754.274 1  Rx        0077 -  2    15 22 
  1071)       754.530 1  Rx        007B -  7    C7 DB 00 07 6E A0 09 
  1072)       755.298 1  Rx        0025 -  8    00 00 07 6E 07 DB 30 F3 
  1073)       755.554 1  Rx        002F -  8    00 00 00 00 02 27 80 00 
  1074)       755.767 1  Rx        0071 -  8    07 DB 00 00 88 00 E0 DE 
  1075)       756.023 1  Rx        0079 -  8    84 65 04 72 00 00 E0 22 
  1076)       756.279 1  Rx        007F -  8    4B 33 00 00 00 00 FF FF 
  1077)       756.493 1  Rx        0083 -  8    85 04 00 00 00 00 E0 28 
  1078)       756.749 1  Rx        009D -  8    00 00 00 00 00 00 A0 AB 
  1079)       757.303 1  Rx        0027 -  8    AC 36 07 DB 00 00 30 29 
  1080)       758.285 1  Rx        0081 -  8    18 00 7D 64 01 00 00 00 
  1081)       758.413 1  Rx        00B1 -  3    00 50 60 
  1082)       759.394 1  Rx        008D -  8    C6 C0 FF FF FF FF FF FF 
  1083)       759.650 1  Rx        01CE -  4    A5 00 40 9B 
  1084)       760.247 1  Rx        007D -  6    00 7A 00 00 03 17 
  1085)       760.973 1  Rx        0037 -  8    1F FE 00 00 0A 28 D0 78 
  1086)       761.954 1  Rx        0085 -  8    20 DD 04 00 00 00 00 38 
  1087)       762.210 1  Rx        002B -  8    F0 00 30 00 0F FF 00 FF 
  1088)       762.594 1  Rx        0129 -  4    32 00 00 00 
  1089)       762.935 1  Rx        0093 -  8    80 FC 50 00 00 00 E1 B6 
  1090)       763.277 1  Rx        0035 -  8    07 DB 07 6E 00 3C 47 76 
  1091)       763.533 1  Rx        0023 -  8    10 11 0F FF 00 00 78 8A 
  1092)       763.874 1  Rx        0125 -  3    00 79 00 
  1093)       764.130 1  Rx        00AD -  5    01 00 00 B0 A8 
  1094)       764.386 1  Rx        009B -  8    15 16 04 55 00 79 00 FF 
  1095)       764.599 1  Rx        012B -  8    96 18 90 62 21 FF 78 FF 
  1096)       764.855 1  Rx        013F -  8    FF FF BE 76 01 2C 00 00 
  1097)       765.282 1  Rx        0025 -  8    00 00 07 6E 07 DB 40 AA 
  1098)       765.538 1  Rx        002F -  8    00 00 00 00 02 29 80 00 
  1099)       765.794 1  Rx        0087 -  8    01 DF 00 00 00 52 E0 02 
  1100)       766.007 1  Rx        0089 -  8    80 00 80 6D 80 80 E0 80 
  1101)       766.263 1  Rx        008B -  8    C0 00 C0 00 C0 00 C0 00 
  1102)       766.519 1  Rx        00A7 -  8    00 00 01 1D 41 1A E0 21 
  1103)       766.775 1  Rx        00B5 -  8    00 00 00 00 00 00 00 00 
  1104)       766.989 1  Rx        0328 -  8    00 02 00 00 00 00 00 00 
  1105)       767.287 1  Rx        0027 -  8    AC 37 07 DB 00 00 40 36 
  1106)       769.378 1  Rx        0091 -  8    01 FF 7F 00 00 00 F0 ED 
  1107)       769.719 1  Rx        03C7 -  4    02 00 20 75 
  1108)       770.957 1  Rx        0037 -  8    1F FE 00 00 0A 28 E0 32 
  1109)       771.938 1  Rx        0095 -  7    00 00 00 00 00 F0 89 
  1110)       772.237 1  Rx        002B -  8    F0 00 30 00 0F FF 00 FF 
  1111)       772.663 1  Rx        01C0 -  6    00 00 00 00 00 00 
  1112)       772.962 1  Rx        00AB -  8    00 00 CD 0D 00 00 F0 2E 
  1113)       773.303 1  Rx        0035 -  8    07 DB 07 6E 00 3C 57 BB 
  1114)       773.517 1  Rx        0023 -  8    10 11 0F FF 00 00 88 F5 
  1115)       773.943 1  Rx        00B3 -  8    00 00 00 00 00 00 F0 75 
  1116)       774.071 1  Rx        0077 -  2    15 22 
  1117)       774.327 1  Rx        007B -  7    C7 DB 00 07 6E B0 C4 
  1118)       775.309 1  Rx        0025 -  8    00 00 07 6E 07 DB 50 67 
  1119)       775.522 1  Rx        002F -  8    00 00 00 00 02 2B 80 00 
  1120)       775.778 1  Rx        0071 -  8    07 DB 00 00 89 00 F0 9C 
  1121)       776.034 1  Rx        0079 -  8    84 77 04 83 00 00 F0 24 
  1122)       776.247 1  Rx        007F -  8    4B 33 00 00 00 00 FF FF 
  1123)       776.503 1  Rx        0083 -  8    85 04 00 00 00 00 F0 E5 
  1124)       776.759 1  Rx        009D -  8    00 00 00 00 00 00 B0 66 
  1125)       777.314 1  Rx        0027 -  8    AC 37 07 DB 00 00 50 FB 
  1126)       778.295 1  Rx        0081 -  8    18 00 7D 64 01 00 00 00 
  1127)       778.423 1  Rx        00B1 -  3    00 60 2A 
  1128)       779.404 1  Rx        008D -  8    C6 C0 FF FF FF FF FF FF 
  1129)       780.258 1  Rx        007D -  6    00 7A 00 00 03 16 
  1130)       780.940 1  Rx        0037 -  8    1F FE 00 00 0A 28 F0 FF 
  1131)       781.922 1  Rx        0085 -  8    20 DD 04 00 00 00 00 3C 
  1132)       782.220 1  Rx        002B -  8    F0 00 30 00 0F FF 00 FF 
  1133)       782.434 1  Rx        0137 -  8    00 00 00 00 00 00 00 80 
  1134)       782.647 1  Rx        014D -  8    7B 7B 92 92 00 00 01 00 
  1135)       782.946 1  Rx        0093 -  8    80 FC 50 00 00 00 F1 7B 
  1136)       783.287 1  Rx        0035 -  8    07 DB 07 6E 00 3C 67 F1 
  1137)       783.543 1  Rx        0023 -  8    10 11 0F FF 00 00 98 38 
  1138)       784.140 1  Rx        00AD -  5    01 00 00 C0 F1 
  1139)       784.354 1  Rx        009B -  8    15 16 04 55 00 79 00 FF 
  1140)       785.292 1  Rx        0025 -  8    00 00 07 6E 07 DB 60 2D 
  1141)       785.548 1  Rx        002F -  8    00 00 00 00 02 2E 80 00 
  1142)       785.762 1  Rx        0087 -  8    01 E5 00 00 00 52 F0 75 
  1143)       786.018 1  Rx        0089 -  8    80 00 80 6D 80 80 F0 80 
  1144)       786.231 1  Rx        008B -  8    C0 00 C0 00 C0 00 C0 00 
  1145)       786.487 1  Rx        00A7 -  8    00 00 01 1E 41 1C F0 E3 
  1146)       786.743 1  Rx        00B5 -  8    00 00 00 00 00 00 00 00 
  1147)       786.999 1  Rx        00DD -  8    00 00 00 00 00 80 00 01 
  1148)       787.298 1  Rx        0027 -  8    AC 37 07 DB 00 00 60 B1 
  1149)       789.388 1  Rx        0091 -  8    01 FF 7F 00 00 00 00 92 
  1150)       790.924 1  Rx        0037 -  8    1F FE 00 00 0A 28 00 80 
  1151)       791.308 1  Rx        02F2 -  8    00 00 00 00 00 AC 00 00 
  1152)       791.948 1  Rx        0095 -  7    00 00 00 00 00 00 F6 
  1153)       792.162 1  Rx        002B -  8    F0 00 30 00 0F FF 00 FF 
  1154)       792.418 1  Rx        0127 -  8    5E 81 64 00 BF 00 82 00 
  1155)       792.674 1  Rx        03E0 -  8    02 37 34 33 00 00 00 00 
  1156)       792.930 1  Rx        00AB -  8    00 00 CD 0D 00 00 00 51 
  1157)       793.271 1  Rx        0035 -  8    07 DB 07 6E 00 3C 77 3C 
  1158)       793.570 1  Rx        0023 -  8    10 11 0F FF 00 00 A8 72 
  1159)       793.954 1  Rx        00B3 -  8    00 00 00 00 00 00 00 0A 
  1160)       794.252 1  Rx        007B -  7    C7 DB 00 07 6E C0 9D 
  1161)       794.423 1  Rx        0077 -  2    15 22 
  1162)       795.276 1  Rx        0025 -  8    00 00 07 6E 07 DB 70 E0 
  1163)       795.532 1  Rx        002F -  8    00 00 00 00 02 2F 80 00 
  1164)       795.788 1  Rx        0071 -  8    07 DB 00 00 89 00 00 E3 
  1165)       796.002 1  Rx        0079 -  8    84 86 04 91 00 00 00 D3 
  1166)       796.258 1  Rx        007F -  8    4B 33 00 00 00 00 FF FF 
  1167)       796.514 1  Rx        0083 -  8    85 04 00 00 00 00 00 9A 
  1168)       796.770 1  Rx        009D -  8    00 00 00 00 00 00 C0 3F 
  1169)       797.026 1  Rx        0328 -  8    00 00 00 00 00 00 00 00 
  1170)       797.282 1  Rx        0027 -  8    AC 37 07 DB 00 00 70 7C 
  1171)       798.263 1  Rx        0081 -  8    18 00 7D 64 01 00 00 00 
  1172)       798.433 1  Rx        00B1 -  3    00 70 E7 
  1173)       799.415 1  Rx        008D -  8    C6 C0 FF FF FF FF FF FF 
  1174)       800.268 1  Rx        007D -  6    00 7A 00 00 03 15 
  1175)       800.951 1  Rx        0037 -  8    1F FE 00 00 0A 28 10 4D 
  1176)       801.932 1  Rx        0085 -  8    20 DD 04 00 00 00 00 00 
  1177)       802.188 1  Rx        002B -  8    F0 00 30 00 0F FF 00 FF 
  1178)       802.444 1  Rx        015B -  8    00 00 00 00 00 00 00 00 
  1179)       802.700 1  Rx        02A4 -  8    00 7D 00 00 00 00 00 FF 
  1180)       802.956 1  Rx        0093 -  8    80 FC 50 00 00 00 01 04 
  1181)       803.297 1  Rx        0035 -  8    07 DB 07 6E 00 3C 87 43 
  1182)       803.553 1  Rx        0023 -  8    10 11 0F FF 00 00 B8 BF 
  1183)       804.151 1  Rx        00AD -  5    01 00 00 D0 3C 
  1184)       804.364 1  Rx        009B -  8    15 16 04 55 00 79 00 FF 
  1185)       805.303 1  Rx        0025 -  8    00 00 07 6E 07 DB 80 9F 
  1186)       805.559 1  Rx        002F -  8    00 00 00 00 02 31 80 00 
  1187)       805.772 1  Rx        0087 -  8    01 EB 00 00 00 52 00 89 
  1188)       806.028 1  Rx        0089 -  8    80 00 80 6D 80 80 00 80 
  1189)       806.284 1  Rx        008B -  8    C0 00 C0 00 C0 00 C0 00 
  1190)       806.497 1  Rx        00A7 -  8    00 00 01 20 41 1D 00 4A 
  1191)       806.753 1  Rx        00B5 -  8    00 00 00 00 00 00 00 00 
  1192)       807.308 1  Rx        0027 -  8    AC 37 07 DB 00 00 80 03 
  1193)       809.399 1  Rx        0091 -  8    01 FF 7F 00 00 00 10 5F 
  1194)       809.697 1  Rx        01CE -  4    A5 00 50 56 
  1195)       810.935 1  Rx        0037 -  8    1F FE 00 00 0A 28 20 07 
  1196)       811.916 1  Rx        0095 -  7    00 00 00 00 00 10 3B 
  1197)       812.215 1  Rx        002B -  8    F0 00 30 00 0F FF 00 FF 
  1198)       812.428 1  Rx        0143 -  8    00 00 00 00 00 00 00 00 
  1199)       812.684 1  Rx        0157 -  8    00 00 00 00 10 00 00 00 
  1200)       812.940 1  Rx        00AB -  8    00 00 CD 0D 00 00 10 9C 
  1201)       813.281 1  Rx        0035 -  8    07 DB 07 6F 00 3C 97 13 
  1202)       813.537 1  Rx        0023 -  8    10 11 0F FF 00 00 C8 E6 
  1203)       813.964 1  Rx        00B3 -  8    00 00 00 00 00 00 10 C7 
  1204)       814.092 1  Rx        0077 -  2    15 22 
  1205)       814.305 1  Rx        007B -  7    C7 DB 00 07 6F D0 1C 
  1206)       815.287 1  Rx        0025 -  8    00 00 07 6F 07 DB 90 CF 
  1207)       815.543 1  Rx        002F -  8    00 00 00 00 02 31 80 00 
  1208)       815.799 1  Rx        0071 -  8    07 DB 00 00 89 00 10 2E 
  1209)       816.012 1  Rx        0079 -  8    84 94 04 9D 00 00 10 54 
  1210)       816.268 1  Rx        007F -  8    4B 33 00 00 00 00 FF FF 
  1211)       816.524 1  Rx        0083 -  8    85 04 00 00 00 00 10 57 
  1212)       816.780 1  Rx        009D -  8    00 00 00 00 00 00 D0 F2 
  1213)       817.292 1  Rx        0027 -  8    AC 37 07 DB 00 00 90 CE 
  1214)       818.273 1  Rx        0081 -  8    18 00 7D 64 01 00 00 00 
  1215)       818.444 1  Rx        00B1 -  3    00 80 98 
  1216)       819.425 1  Rx        008D -  8    C6 C0 FF FF FF FF FF FF 
  1217)       820.236 1  Rx        007D -  6    00 7A 00 00 03 14 
  1218)       820.961 1  Rx        0037 -  8    1F FE 00 00 0A 28 30 CA 
  1219)       821.942 1  Rx        0085 -  8    20 DD 04 00 00 00 00 04 
  1220)       822.241 1  Rx        002B -  8    F0 00 30 00 0F FF 00 FF 
  1221)       822.454 1  Rx        013D -  8    01 00 00 80 00 00 28 00 
  1222)       822.966 1  Rx        0093 -  8    80 FC 50 00 00 00 11 C9 
  1223)       823.308 1  Rx        0035 -  8    07 DB 07 6F 00 3C A7 59 
  1224)       823.521 1  Rx        0023 -  8    10 11 0F FF 00 00 D8 2B 
  1225)       824.118 1  Rx        00AD -  5    01 00 00 E0 76 
  1226)       824.374 1  Rx        009B -  8    15 16 04 55 00 79 00 FF 
  1227)       825.313 1  Rx        0025 -  8    00 00 07 6F 07 DB A0 85 
  1228)       825.526 1  Rx        002F -  8    00 00 00 00 02 33 80 00 
  1229)       825.782 1  Rx        0087 -  8    01 EE 00 00 00 52 10 07 
  1230)       826.081 1  Rx        0089 -  8    80 00 80 6D 80 80 10 80 
  1231)       826.252 1  Rx        008B -  8    C0 00 C0 00 C0 00 C0 00 
  1232)       826.508 1  Rx        00A7 -  8    00 00 01 20 41 1E 10 53 
  1233)       826.764 1  Rx        00B5 -  8    00 00 00 00 00 00 00 00 
  1234)       826.977 1  Rx        0328 -  8    40 43 00 00 00 00 00 00 
  1235)       827.318 1  Rx        0027 -  8    AC 37 07 DB 00 00 A0 84 
  1236)       829.409 1  Rx        0091 -  8    01 FF 7F 00 00 00 20 15 
  1237)       831.116 1  Rx        0037 -  8    1F FE 00 00 0A 28 40 93 
  1238)       832.097 1  Rx        0095 -  7    00 00 00 00 00 20 71 
  1239)       832.310 1  Rx        002B -  8    F0 00 30 00 0F FF 00 FF 
  1240)       832.524 1  Rx        0121 -  5    00 00 00 15 00 
  1241)       833.078 1  Rx        00AB -  8    00 00 CD 0D 00 00 20 D6 
  1242)       833.334 1  Rx        0035 -  8    07 DB 07 6F 00 3C B7 94 
  1243)       833.590 1  Rx        0023 -  8    10 11 0F FF 00 00 E8 61 
  1244)       834.102 1  Rx        00B3 -  8    00 00 00 00 00 00 20 8D 
  1245)       834.230 1  Rx        0077 -  2    15 22 
  1246)       834.444 1  Rx        007B -  7    C7 DB 00 07 6F E0 56 
  1247)       835.297 1  Rx        0025 -  8    00 00 07 6F 07 DB B0 48 
  1248)       835.553 1  Rx        002F -  8    00 00 00 00 02 32 80 00 
  1249)       835.766 1  Rx        0071 -  8    07 DB 00 00 89 00 20 64 
  1250)       836.022 1  Rx        0079 -  8    84 9D 04 A4 00 00 20 3C 
  1251)       836.278 1  Rx        007F -  8    4B 33 00 00 00 00 FF FF 
  1252)       836.492 1  Rx        0083 -  8    85 04 00 00 00 00 20 1D 
  1253)       836.790 1  Rx        009D -  8    00 00 00 00 00 00 E0 B8 
  1254)       837.004 1  Rx        00DD -  8    00 00 00 00 00 80 00 01 
  1255)       837.302 1  Rx        0027 -  8    AC 37 07 DB 00 00 B0 49 
  1256)       838.284 1  Rx        0081 -  8    18 00 7D 64 01 00 00 00 
  1257)       838.454 1  Rx        00B1 -  3    00 90 55 
  1258)       839.436 1  Rx        008D -  8    C6 C0 FF FF FF FF FF FF 
  1259)       840.246 1  Rx        007D -  6    00 7A 00 00 03 13 
  1260)       841.014 1  Rx        0037 -  8    1F FE 00 00 0A 28 50 5E 
  1261)       842.038 1  Rx        0085 -  8    20 DD 04 00 00 00 00 08 
  1262)       842.294 1  Rx        002B -  8    F0 00 30 00 0F FF 00 FF 
  1263)       842.507 1  Rx        03E1 -  7    24 16 00 1C 00 FF FF 
  1264)       843.019 1  Rx        0093 -  8    80 FC 50 00 00 00 21 83 
  1265)       843.318 1  Rx        0035 -  8    07 DB 07 6F 00 3C C7 CD 
  1266)       843.531 1  Rx        0023 -  8    10 11 0F FF 00 00 F8 AC 
  1267)       844.129 1  Rx        00AD -  5    01 00 00 F0 BB 
  1268)       844.385 1  Rx        009B -  8    15 16 04 55 00 79 00 FF 
  1269)       844.641 1  Rx        0133 -  8    00 00 00 00 FF 03 0C FF 
  1270)       845.281 1  Rx        0025 -  8    00 00 07 6F 07 DB C0 11 
  1271)       845.537 1  Rx        002F -  8    00 00 00 00 02 33 80 00 
  1272)       845.793 1  Rx        0087 -  8    01 F2 00 00 00 52 20 56 
  1273)       846.049 1  Rx        0089 -  8    80 00 80 6D 80 80 20 80 
  1274)       846.262 1  Rx        008B -  8    C0 00 C0 00 C0 00 C0 00 
  1275)       846.518 1  Rx        00A7 -  8    00 00 01 22 41 1F 20 72 
  1276)       846.774 1  Rx        00B5 -  8    00 00 00 00 00 00 00 00 
  1277)       847.329 1  Rx        0027 -  8    AC 37 07 DB 00 00 C0 10 
  1278)       847.798 1  Rx        0400 -  8    FD 01 3F FF FF FF FF FF 
  1279)       849.675 1  Rx        0091 -  8    01 FF 7F 00 00 00 30 D8 
  1280)       850.955 1  Rx        0037 -  8    1F FE 00 00 0A 28 60 14 
  1281)       851.937 1  Rx        0095 -  7    00 00 00 00 00 30 BC 
  1282)       852.150 1  Rx        002B -  8    F0 00 30 00 0F FF 00 FF 
  1283)       852.406 1  Rx        014E -  8    0A 15 0A 1B E4 00 01 7D 
  1284)       852.961 1  Rx        00AB -  8    00 00 CD 0D 00 00 30 1B 
  1285)       853.302 1  Rx        0035 -  8    07 DB 07 6F 00 3C D7 00 
  1286)       853.558 1  Rx        0023 -  8    10 11 0F FF 00 00 08 D3 
  1287)       853.942 1  Rx        0318 -  8    00 00 00 00 00 00 FF 00 
  1288)       854.198 1  Rx        00B3 -  8    00 00 00 00 00 00 30 40 
  1289)       854.326 1  Rx        0077 -  2    15 22 
  1290)       854.539 1  Rx        007B -  7    C7 DB 00 07 6F F0 9B 
  1291)       854.753 1  Rx        03E8 -  8    49 31 A2 43 00 0E 50 5C 
  1292)       855.307 1  Rx        0025 -  8    00 00 07 6F 07 DB D0 DC 
  1293)       855.563 1  Rx        002F -  8    00 00 00 00 02 34 80 00 
  1294)       855.777 1  Rx        0071 -  8    07 DB 00 00 8A 00 30 25 
  1295)       856.033 1  Rx        0079 -  8    84 A6 04 AB 00 00 30 65 
  1296)       856.289 1  Rx        007F -  8    4B 33 00 00 00 00 FF FF 
  1297)       856.502 1  Rx        0083 -  8    85 04 00 00 00 00 30 D0 
  1298)       856.758 1  Rx        009D -  8    00 00 00 00 00 00 F0 75 
  1299)       857.014 1  Rx        0328 -  8    30 03 00 00 00 00 00 00 
  1300)       857.313 1  Rx        0027 -  8    AC 37 07 DB 00 00 D0 DD 
  1301)       858.294 1  Rx        0081 -  8    18 00 7D 64 01 00 00 00 
  1302)       858.422 1  Rx        00B1 -  3    00 A0 1F 
  1303)       858.763 1  Rx        0128 -  8    02 00 FF 00 00 00 00 00 
  1304)       859.403 1  Rx        008D -  8    C6 C0 FF FF FF FF FF FF 
  1305)       859.659 1  Rx        01CE -  4    A4 00 60 93 
  1306)       860.257 1  Rx        007D -  6    00 7A 00 00 03 12 
  1307)       860.939 1  Rx        0037 -  8    1F FE 00 00 0A 28 70 D9 
  1308)       861.963 1  Rx        0085 -  8    20 DD 04 00 00 00 00 0C 
  1309)       862.219 1  Rx        002B -  8    F0 00 30 00 0F FF 00 FF 
  1310)       862.603 1  Rx        0129 -  4    32 00 00 00 
  1311)       862.944 1  Rx        0093 -  8    80 FC 50 00 00 00 31 4E 
  1312)       863.286 1  Rx        0035 -  8    07 DB 07 6F 00 3C E7 4A 
  1313)       863.542 1  Rx        0023 -  8    10 11 0F FF 00 00 18 1E 
  1314)       863.883 1  Rx        0125 -  3    00 79 00 
  1315)       864.139 1  Rx        00AD -  5    01 00 00 00 C4 
  1316)       864.352 1  Rx        009B -  8    15 13 04 55 00 79 00 FF 
  1317)       864.608 1  Rx        012B -  8    96 18 90 62 20 FF 79 FF 
  1318)       864.864 1  Rx        013F -  8    FF FF C0 9A 01 2D 00 00 
  1319)       865.078 1  Rx        01C8 -  4    00 00 00 00 
  1320)       865.291 1  Rx        0025 -  8    00 00 07 6F 07 DB E0 96 
  1321)       865.547 1  Rx        002F -  8    00 00 00 00 02 35 80 00 
  1322)       865.803 1  Rx        0087 -  8    01 F5 00 00 00 52 30 54 
  1323)       866.016 1  Rx        0089 -  8    80 00 80 6D 80 80 30 80 
  1324)       866.272 1  Rx        008B -  8    C0 00 C0 00 C0 00 C0 00 
  1325)       866.528 1  Rx        00A7 -  8    00 00 01 22 41 1F 30 BF 
  1326)       866.784 1  Rx        00B5 -  8    00 00 00 00 00 00 00 00 
  1327)       867.296 1  Rx        0027 -  8    AC 37 07 DB 00 00 E0 97 
  1328)       869.387 1  Rx        0091 -  8    01 FF 7F 00 00 00 40 81 
  1329)       869.643 1  Rx        0128 -  8    00 00 00 6C 02 00 00 00 
  1330)       870.966 1  Rx        0037 -  8    1F FE 00 00 0A 28 80 A6 
  1331)       871.947 1  Rx        0095 -  7    00 00 00 00 00 40 E5 
  1332)       872.246 1  Rx        002B -  8    F0 00 30 00 0F FF 00 FF 
  1333)       872.971 1  Rx        00AB -  8    00 00 CD 0D 00 00 40 42 
  1334)       873.312 1  Rx        0035 -  8    07 DB 07 6F 00 3C F7 87 
  1335)       873.526 1  Rx        0023 -  8    10 11 10 00 00 00 28 60 
  1336)       873.995 1  Rx        00B3 -  8    00 00 00 00 00 00 40 19 
  1337)       874.123 1  Rx        0077 -  2    15 22 
  1338)       874.336 1  Rx        007B -  7    C7 DB 00 07 6F 00 E4 
  1339)       875.318 1  Rx        0025 -  8    00 00 07 6F 07 DB F0 5B 
  1340)       875.531 1  Rx        002F -  8    00 00 00 00 02 35 80 00 
  1341)       875.787 1  Rx        0071 -  8    07 DB 00 00 8A 00 40 7C 
  1342)       876.043 1  Rx        0079 -  8    84 AE 04 B2 00 00 40 12 
  1343)       876.256 1  Rx        007F -  8    4B 33 00 00 00 00 FF FF 
  1344)       876.512 1  Rx        0083 -  8    85 04 00 00 00 00 40 89 
  1345)       876.768 1  Rx        009D -  8    00 00 00 00 00 00 00 0A 
  1346)       877.280 1  Rx        0027 -  8    AC 37 07 DB 00 00 F0 5A 
  1347)       878.304 1  Rx        0081 -  8    18 00 7D 64 01 00 00 00 
  1348)       878.432 1  Rx        00B1 -  3    00 B0 D2 
  1349)       879.414 1  Rx        008D -  8    C6 C0 FF FF FF FF FF FF 
  1350)       880.267 1  Rx        007D -  6    00 7A 00 00 03 11 
  1351)       880.950 1  Rx        0037 -  8    1F FE 00 00 0A 28 90 6B 
  1352)       881.590 1  Rx        0128 -  8    01 63 32 6C 00 5F 00 00 
  1353)       881.974 1  Rx        0085 -  8    20 DD 04 00 00 00 00 10 
  1354)       882.230 1  Rx        002B -  8    F0 00 30 00 0F FF 00 FF 
  1355)       882.486 1  Rx        0137 -  8    00 00 00 00 00 00 00 80 
  1356)       882.699 1  Rx        014D -  8    7B 7B 92 92 00 00 01 00 
  1357)       882.955 1  Rx        0093 -  8    80 FC 50 00 00 00 41 17 
  1358)       883.296 1  Rx        0035 -  8    07 DB 07 6F 00 3C 07 F8 
  1359)       883.552 1  Rx        0023 -  8    10 11 10 00 00 00 38 AD 
  1360)       884.149 1  Rx        00AD -  5    01 00 00 10 09 
  1361)       884.363 1  Rx        009B -  8    15 13 04 55 00 79 00 FF 
  1362)       885.301 1  Rx        0025 -  8    00 00 07 6F 07 DB 00 24 
  1363)       885.557 1  Rx        002F -  8    00 00 00 00 02 36 80 00 
  1364)       885.813 1  Rx        0087 -  8    01 F7 00 00 00 52 40 81 
  1365)       886.027 1  Rx        0089 -  8    80 00 80 6D 80 80 40 80 
  1366)       886.283 1  Rx        008B -  8    C0 00 C0 00 C0 00 C0 00 
  1367)       886.496 1  Rx        00A7 -  8    00 00 01 23 41 20 40 19 
  1368)       886.752 1  Rx        00B5 -  8    00 00 00 00 00 00 00 00 
  1369)       887.008 1  Rx        00DD -  8    00 00 00 00 00 80 00 01 
  1370)       887.264 1  Rx        0328 -  8    20 03 00 00 00 00 00 00 
  1371)       887.477 1  Rx        0027 -  8    AC 37 07 DB 00 00 00 25 
  1372)       889.397 1  Rx        0091 -  8    01 FF 7F 00 00 00 50 4C 
  1373)       890.976 1  Rx        0037 -  8    1F FE 00 00 0A 28 A0 21 
  1374)       891.275 1  Rx        02F2 -  8    00 00 00 00 00 AC 00 00 
  1375)       891.957 1  Rx        0095 -  7    00 00 00 00 00 50 28 
  1376)       892.299 1  Rx        0127 -  8    5E 81 64 00 A0 00 82 00 
  1377)       892.512 1  Rx        03E0 -  8    00 31 43 34 47 4A 58 41 
  1378)       892.768 1  Rx        002B -  8    F0 00 30 00 0F FF 00 FF 
  1379)       893.024 1  Rx        00AB -  8    00 00 CD 0D 00 00 50 8F 
  1380)       893.323 1  Rx        0035 -  8    07 DB 07 6F 00 3C 17 35 
  1381)       893.536 1  Rx        0128 -  8    01 63 32 6C 00 5F 00 00 
  1382)       893.792 1  Rx        0023 -  8    10 11 10 00 00 00 48 F4 
  1383)       894.048 1  Rx        00B3 -  8    00 00 00 00 00 00 50 D4 
  1384)       894.304 1  Rx        007B -  7    C7 DB 00 07 6F 10 29 
  1385)       894.432 1  Rx        0077 -  2    15 22 
  1386)       894.688 1  Rx        0230 -  8    03 3B 31 08 00 00 00 00 
  1387)       895.285 1  Rx        0025 -  8    00 00 07 6F 07 DB 10 E9 
  1388)       895.541 1  Rx        002F -  8    00 00 00 00 02 36 80 00 
  1389)       895.797 1  Rx        0071 -  8    07 DB 00 00 89 00 50 3D 
  1390)       896.011 1  Rx        0079 -  8    84 B3 04 B7 00 00 50 51 
  1391)       896.267 1  Rx        007F -  8    4B 33 00 00 00 00 FF FF 
  1392)       896.523 1  Rx        0083 -  8    85 04 00 00 00 00 50 44 
