;$FILEVERSION=1.3
;$STARTTIME=44371.3650865989
;
;   C:\Documents and Settings\jpaullus\My Documents\2018JL_A_OFF_TAZER_START_LONG.trc
;   Start time: 6/24/2021 08:45:43.482.1
;-------------------------------------------------------------------------------
;   Bus  Name  Connection     Protocol
;   1    500k  500k@pcan_usb  CAN
;-------------------------------------------------------------------------------
;   Message Number
;   |         Time Offset (ms)
;   |         |       Bus
;   |         |       |    Type
;   |         |       |    |       ID (hex)
;   |         |       |    |       |    Reserved
;   |         |       |    |       |    |   Data Length Code
;   |         |       |    |       |    |   |    Data Bytes (hex) ...
;   |         |       |    |       |    |   |    |
;   |         |       |    |       |    |   |    |
;---+-- ------+------ +- --+-- ----+--- +- -+-- -+ -- -- -- -- -- -- --
     1)         0.008 1  Rx        0087 -  8    00 00 00 00 00 66 90 CB 
     2)         0.222 1  Rx        0089 -  8    FF FF FF 6D FF FF 90 FF 
     3)         0.478 1  Rx        008B -  8    00 00 00 00 00 00 00 00 
     4)         0.691 1  Rx        00A7 -  8    00 00 00 9E 40 9B 90 97 
     5)         1.160 1  Rx        0037 -  8    1F FE 00 00 0C 1C 80 4F 
     6)         1.416 1  Rx        0023 -  8    10 12 10 00 00 00 E5 1E 
     7)         2.142 1  Rx        0095 -  7    00 00 00 00 00 C0 C3 
     8)         2.910 1  Rx        02F2 -  8    00 00 00 00 00 00 00 00 
     9)         3.208 1  Rx        03AE -  8    00 00 00 00 00 00 00 00 
    10)         3.422 1  Rx        00AB -  8    00 00 CD 0D 00 00 C0 64 
    11)         4.190 1  Rx        00B3 -  8    00 00 00 00 00 00 C0 3F 
    12)         6.323 1  Rx        00B1 -  3    00 10 73 
    13)         6.451 1  Rx        0077 -  2    00 01 
    14)         9.608 1  Rx        002F -  8    00 00 00 00 00 D7 80 00 
    15)         9.864 1  Rx        0071 -  8    1F FF 00 00 6C 00 A0 1D 
    16)        10.077 1  Rx        0079 -  8    80 00 00 00 00 00 A0 0A 
    17)        10.333 1  Rx        007F -  8    46 31 00 00 00 00 FF FF 
    18)        10.589 1  Rx        0083 -  8    80 04 00 00 00 00 A0 0F 
    19)        11.144 1  Rx        0037 -  8    1F FE 00 00 0C 1C 90 82 
    20)        11.400 1  Rx        0023 -  8    10 12 10 00 00 00 F5 D3 
    21)        12.125 1  Rx        0085 -  8    20 DD 04 00 00 00 00 30 
    22)        13.107 1  Rx        0093 -  8    80 FC 50 00 00 00 C1 31 
    23)        16.477 1  Rx        009B -  8    15 00 00 55 00 79 00 FF 
    24)        18.525 1  Rx        00AD -  5    01 00 00 70 9D 
    25)        19.592 1  Rx        002F -  8    00 00 00 00 00 D8 80 00 
    26)        19.891 1  Rx        0087 -  8    00 00 00 00 00 66 A0 81 
    27)        20.104 1  Rx        0089 -  8    FF FF FF 6D FF FF A0 FF 
    28)        20.317 1  Rx        008B -  8    00 00 00 00 00 00 00 00 
    29)        20.573 1  Rx        00A7 -  8    00 00 00 9E 40 9C A0 24 
    30)        20.829 1  Rx        00DD -  8    00 00 00 00 00 80 00 00 
    31)        21.171 1  Rx        0037 -  8    1F FE 00 00 0C 1C A0 C8 
    32)        21.384 1  Rx        0023 -  8    10 12 10 00 00 00 05 AC 
    33)        22.152 1  Rx        0095 -  7    00 00 00 00 00 D0 0E 
    34)        23.176 1  Rx        00AB -  8    00 00 CD 0D 00 00 D0 A9 
    35)        24.157 1  Rx        00B3 -  8    00 00 00 00 00 00 D0 F2 
    36)        26.333 1  Rx        00B1 -  3    00 20 39 
    37)        26.461 1  Rx        0077 -  2    00 01 
    38)        29.576 1  Rx        002F -  8    00 00 00 00 00 D7 80 00 
    39)        29.874 1  Rx        0071 -  8    1F FF 00 00 6C 00 B0 D0 
    40)        30.088 1  Rx        0079 -  8    80 00 00 00 00 00 B0 C7 
    41)        30.301 1  Rx        007F -  8    46 31 00 00 00 00 FF FF 
    42)        30.557 1  Rx        0083 -  8    80 04 00 00 00 00 B0 C2 
    43)        31.154 1  Rx        0037 -  8    1F FE 00 00 0C 1C B0 05 
    44)        31.410 1  Rx        0023 -  8    10 12 10 00 00 00 15 61 
    45)        32.178 1  Rx        0085 -  8    20 DD 04 00 00 00 00 34 
    46)        33.160 1  Rx        0093 -  8    80 FC 50 00 00 00 D1 FC 
    47)        34.098 1  Rx        0125 -  3    00 79 00 
    48)        36.530 1  Rx        009B -  8    15 00 00 55 00 79 00 FF 
    49)        38.493 1  Rx        00AD -  5    01 00 00 80 E2 
    50)        39.602 1  Rx        002F -  8    00 00 00 00 00 D7 80 00 
    51)        39.901 1  Rx        0087 -  8    00 00 00 00 00 66 B0 4C 
    52)        40.072 1  Rx        0089 -  8    FF FF FF 6D FF FF B0 FF 
    53)        40.328 1  Rx        008B -  8    00 00 00 00 00 00 00 00 
    54)        40.541 1  Rx        00A7 -  8    00 00 00 9E 40 9C B0 E9 
    55)        41.138 1  Rx        0037 -  8    1F FE 00 00 0C 1C C0 5C 
    56)        41.394 1  Rx        0023 -  8    10 12 10 00 00 00 25 2B 
    57)        42.120 1  Rx        0095 -  7    00 00 00 00 00 E0 44 
    58)        43.101 1  Rx        00AB -  8    00 00 CD 0D 00 00 E0 E3 
    59)        43.570 1  Rx        0409 -  8    FD 23 BF FF FF FF FF FF 
    60)        44.125 1  Rx        00B3 -  8    00 00 00 00 00 00 E0 B8 
    61)        44.424 1  Rx        0328 -  8    00 00 00 00 00 00 00 00 
    62)        46.301 1  Rx        00B1 -  3    00 30 F4 
    63)        46.472 1  Rx        0077 -  2    00 01 
    64)        49.586 1  Rx        002F -  8    00 00 00 00 00 D8 80 00 
    65)        49.842 1  Rx        0071 -  8    1F FF 00 00 6C 00 C0 89 
    66)        50.098 1  Rx        0079 -  8    80 00 00 00 00 00 C0 9E 
    67)        50.311 1  Rx        007F -  8    46 31 00 00 00 00 FF FF 
    68)        50.567 1  Rx        0083 -  8    80 04 00 00 00 00 C0 9B 
    69)        51.122 1  Rx        0037 -  8    1F FE 00 00 0C 1C D0 91 
    70)        51.421 1  Rx        0023 -  8    10 12 10 00 00 00 35 E6 
    71)        52.146 1  Rx        0085 -  8    20 DD 04 00 00 00 00 38 
    72)        52.914 1  Rx        03AF -  8    00 00 00 8C 46 00 E1 C2 
    73)        53.170 1  Rx        0093 -  8    80 FC 50 00 00 00 E1 B6 
    74)        56.498 1  Rx        009B -  8    15 00 00 55 00 79 00 FF 
    75)        58.503 1  Rx        00AD -  5    01 00 00 90 2F 
    76)        59.613 1  Rx        002F -  8    00 00 00 00 00 D8 80 00 
    77)        59.869 1  Rx        0087 -  8    00 00 00 00 00 66 C0 15 
    78)        60.082 1  Rx        0089 -  8    FF FF FF 6D FF FF C0 FF 
    79)        60.338 1  Rx        008B -  8    00 00 00 00 00 00 00 00 
    80)        60.594 1  Rx        00A7 -  8    00 00 00 9E 40 9C C0 B0 
    81)        61.149 1  Rx        0037 -  8    1F FE 00 00 0C 1C E0 DB 
    82)        61.405 1  Rx        0023 -  8    10 12 10 00 00 00 45 BF 
    83)        62.130 1  Rx        0095 -  7    00 00 00 00 00 F0 89 
    84)        63.154 1  Rx        00AB -  8    00 00 CD 0D 00 00 F0 2E 
    85)        64.178 1  Rx        00B3 -  8    00 00 00 00 00 00 F0 75 
    86)        66.311 1  Rx        00B1 -  3    00 40 AD 
    87)        66.439 1  Rx        0077 -  2    00 01 
    88)        69.597 1  Rx        002F -  8    00 00 00 00 00 D8 80 00 
    89)        69.810 1  Rx        0071 -  8    1F FF 00 00 6C 00 D0 44 
    90)        70.066 1  Rx        0079 -  8    80 00 00 00 00 00 D0 53 
    91)        70.322 1  Rx        007F -  8    46 31 00 00 00 00 FF FF 
    92)        70.578 1  Rx        0083 -  8    80 04 00 00 00 00 D0 56 
    93)        70.834 1  Rx        00DD -  8    00 00 00 00 00 80 00 00 
    94)        71.175 1  Rx        0037 -  8    1F FE 00 00 0C 1C F0 16 
    95)        71.388 1  Rx        0023 -  8    10 12 10 00 00 00 55 72 
    96)        72.156 1  Rx        0085 -  8    20 DD 04 00 00 00 00 3C 
    97)        73.138 1  Rx        0093 -  8    80 FC 50 00 00 00 F1 7B 
    98)        76.594 1  Rx        009B -  8    15 00 00 55 00 79 00 FF 
    99)        76.850 1  Rx        0133 -  8    00 00 00 00 FF 03 0C FF 
   100)        78.514 1  Rx        00AD -  5    01 00 00 A0 65 
   101)        79.580 1  Rx        002F -  8    00 00 00 00 00 D8 80 00 
   102)        79.836 1  Rx        0087 -  8    00 00 00 00 00 66 D0 D8 
   103)        80.092 1  Rx        0089 -  8    FF FF FF 6D FF FF D0 FF 
   104)        80.306 1  Rx        008B -  8    00 00 00 00 00 00 00 00 
   105)        80.562 1  Rx        00A7 -  8    00 00 00 9E 40 9B D0 84 
   106)        81.116 1  Rx        0037 -  8    1F FE 00 00 0C 1C 00 69 
   107)        81.415 1  Rx        0023 -  8    10 12 10 00 00 00 65 38 
   108)        81.842 1  Rx        0318 -  8    00 00 00 00 00 00 FF 00 
   109)        82.140 1  Rx        0095 -  7    00 00 00 00 00 00 F6 
   110)        83.122 1  Rx        00AB -  8    00 00 CD 0D 00 00 00 51 
   111)        84.146 1  Rx        00B3 -  8    00 00 00 00 00 00 00 0A 
   112)        86.322 1  Rx        00B1 -  3    00 50 60 
   113)        86.450 1  Rx        0077 -  2    00 01 
   114)        86.706 1  Rx        0332 -  8    00 E1 03 FF 00 00 03 E8 
   115)        89.607 1  Rx        002F -  8    00 00 00 00 00 D7 80 00 
   116)        89.820 1  Rx        0071 -  8    1F FF 00 00 6C 00 E0 0E 
   117)        90.076 1  Rx        0079 -  8    80 00 00 00 00 00 E0 19 
   118)        90.332 1  Rx        007F -  8    46 31 00 00 00 00 FF FF 
   119)        90.588 1  Rx        0083 -  8    80 04 00 00 00 00 E0 1C 
   120)        91.186 1  Rx        0037 -  8    1F FE 00 00 0C 1C 10 A4 
   121)        91.399 1  Rx        0023 -  8    10 12 10 00 00 00 75 F5 
   122)        92.167 1  Rx        0085 -  8    20 DD 04 00 00 00 00 00 
   123)        93.191 1  Rx        0093 -  8    80 FC 50 00 00 00 01 04 
   124)        96.220 1  Rx        0129 -  4    01 00 00 00 
   125)        96.519 1  Rx        009B -  8    15 00 00 55 00 79 00 FF 
   126)        96.732 1  Rx        012B -  8    96 18 90 61 21 FF 7E FF 
   127)        96.988 1  Rx        013F -  8    FF FF C1 FC 01 34 00 00 
   128)        98.524 1  Rx        00AD -  5    01 00 00 B0 A8 
   129)        99.761 1  Rx        002F -  8    00 00 00 00 00 D8 80 00 
   130)       100.017 1  Rx        0087 -  8    00 00 00 00 00 67 E0 DE 
   131)       100.231 1  Rx        0089 -  8    FF FF FF 6D FF FF E0 FF 
   132)       100.487 1  Rx        008B -  8    00 00 00 00 00 00 00 00 
   133)       100.700 1  Rx        00A7 -  8    00 00 00 9E 40 9B E0 CE 
   134)       101.127 1  Rx        0037 -  8    1F FE 00 00 0C 1C 20 EE 
   135)       101.425 1  Rx        0023 -  8    10 12 10 00 00 00 85 8A 
   136)       102.151 1  Rx        0095 -  7    00 00 00 00 00 10 3B 
   137)       102.919 1  Rx        02F2 -  8    00 00 00 00 00 00 00 00 
   138)       103.217 1  Rx        00AB -  8    00 00 CD 0D 00 00 10 9C 
   139)       104.156 1  Rx        00B3 -  8    00 00 00 00 00 00 10 C7 
   140)       106.247 1  Rx        01C0 -  6    00 00 00 00 00 00 
   141)       106.375 1  Rx        0077 -  2    00 01 
   142)       106.588 1  Rx        00B1 -  3    00 60 2A 
   143)       109.575 1  Rx        002F -  8    00 00 00 00 00 D7 80 00 
   144)       109.873 1  Rx        0071 -  8    1F FF 00 00 6C 00 F0 C3 
   145)       110.087 1  Rx        0079 -  8    80 00 00 00 00 00 F0 D4 
   146)       110.343 1  Rx        007F -  8    46 31 00 00 00 00 FF FF 
   147)       110.556 1  Rx        0083 -  8    80 04 00 00 00 00 F0 D1 
   148)       111.153 1  Rx        0037 -  8    1F FE 00 00 0C 1C 30 23 
   149)       111.409 1  Rx        0023 -  8    10 12 10 00 00 00 95 47 
   150)       112.177 1  Rx        0085 -  8    20 DD 04 00 00 00 00 04 
   151)       113.158 1  Rx        0093 -  8    80 FC 50 00 00 00 11 C9 
   152)       116.486 1  Rx        009B -  8    15 00 00 55 00 79 00 FF 
   153)       118.492 1  Rx        00AD -  5    01 00 00 C0 F1 
   154)       119.601 1  Rx        002F -  8    00 00 00 00 00 D8 80 00 
   155)       119.857 1  Rx        0087 -  8    00 00 00 00 00 67 F0 13 
   156)       120.070 1  Rx        0089 -  8    FF FF FF 6D FF FF F0 FF 
   157)       120.326 1  Rx        008B -  8    00 00 00 00 00 00 00 00 
   158)       120.582 1  Rx        00A7 -  8    00 00 00 9E 40 9C F0 FA 
   159)       120.838 1  Rx        00DD -  8    00 00 00 00 00 80 00 00 
   160)       121.180 1  Rx        0037 -  8    1F FE 00 00 0C 1C 40 7A 
   161)       121.393 1  Rx        0023 -  8    10 12 10 00 00 00 A5 0D 
   162)       122.118 1  Rx        0095 -  7    00 00 00 00 00 20 71 
   163)       123.142 1  Rx        00AB -  8    00 00 CD 0D 00 00 20 D6 
   164)       124.166 1  Rx        00B3 -  8    00 00 00 00 00 00 20 8D 
   165)       126.300 1  Rx        00B1 -  3    00 70 E7 
   166)       126.470 1  Rx        0077 -  2    00 01 
   167)       129.585 1  Rx        002F -  8    00 00 00 00 00 D8 80 00 
   168)       129.841 1  Rx        0071 -  8    1F FF 00 00 6C 00 00 BC 
   169)       130.097 1  Rx        0079 -  8    80 00 00 00 00 00 00 AB 
   170)       130.310 1  Rx        007F -  8    46 31 00 00 00 00 FF FF 
   171)       130.566 1  Rx        0083 -  8    80 04 00 00 00 00 00 AE 
   172)       131.164 1  Rx        0037 -  8    1F FE 00 00 0C 1C 50 B7 
   173)       131.420 1  Rx        0023 -  8    10 12 10 00 00 00 B5 C0 
   174)       132.145 1  Rx        0085 -  8    20 DD 04 00 00 00 00 08 
   175)       133.169 1  Rx        0093 -  8    80 FC 50 00 00 00 21 83 
   176)       134.065 1  Rx        0125 -  3    00 79 00 
   177)       136.497 1  Rx        009B -  8    15 00 00 55 00 79 00 FF 
   178)       136.795 1  Rx        0423 -  8    FD 00 84 0F 00 00 00 00 
   179)       138.502 1  Rx        00AD -  5    01 00 00 D0 3C 
   180)       139.739 1  Rx        002F -  8    00 00 00 00 00 D8 80 00 
   181)       140.038 1  Rx        0087 -  8    00 00 00 00 00 67 00 6C 
   182)       140.209 1  Rx        0089 -  8    FF FF FF 6D FF FF 00 FF 
   183)       140.465 1  Rx        008B -  8    00 00 00 00 00 00 00 00 
   184)       140.721 1  Rx        00A7 -  8    00 00 00 9E 40 9C 00 85 
   185)       141.105 1  Rx        0037 -  8    1F FE 00 00 0C 1C 60 FD 
   186)       141.403 1  Rx        0023 -  8    10 12 10 00 00 00 C5 99 
   187)       142.086 1  Rx        0095 -  7    00 00 00 00 00 30 BC 
   188)       143.110 1  Rx        00AB -  8    00 00 CD 0D 00 00 30 1B 
   189)       144.134 1  Rx        00B3 -  8    00 00 00 00 00 00 30 40 
   190)       146.310 1  Rx        00B1 -  3    00 80 98 
   191)       146.481 1  Rx        0077 -  2    00 01 
   192)       149.595 1  Rx        002F -  8    00 00 00 00 00 D8 80 00 
   193)       149.894 1  Rx        0071 -  8    1F FF 00 00 6C 00 10 71 
   194)       150.065 1  Rx        0079 -  8    80 00 00 00 00 00 10 66 
   195)       150.321 1  Rx        007F -  8    46 31 00 00 00 00 FF FF 
   196)       150.577 1  Rx        0083 -  8    80 04 00 00 00 00 10 63 
   197)       151.131 1  Rx        0037 -  8    1F FE 00 00 0C 1C 70 30 
   198)       151.430 1  Rx        0023 -  8    10 12 10 00 00 00 D5 54 
   199)       152.155 1  Rx        0085 -  8    20 DD 04 00 00 00 00 0C 
   200)       153.137 1  Rx        0093 -  8    80 FC 50 00 00 00 31 4E 
   201)       156.507 1  Rx        009B -  8    15 00 00 55 00 79 00 FF 
   202)       158.512 1  Rx        00AD -  5    01 00 00 E0 76 
   203)       159.579 1  Rx        002F -  8    00 00 00 00 00 D7 80 00 
   204)       159.878 1  Rx        0087 -  8    00 00 00 00 00 67 10 A1 
   205)       160.091 1  Rx        0089 -  8    FF FF FF 6D FF FF 10 FF 
   206)       160.304 1  Rx        008B -  8    00 00 00 00 00 00 00 00 
   207)       160.560 1  Rx        00A7 -  8    00 00 00 9E 40 9B 10 B1 
   208)       161.158 1  Rx        0037 -  8    1F FE 00 00 0C 1C 80 4F 
   209)       161.414 1  Rx        0023 -  8    10 12 10 00 00 00 E5 1E 
   210)       162.139 1  Rx        0095 -  7    00 00 00 00 00 40 E5 
   211)       163.163 1  Rx        00AB -  8    00 00 CD 0D 00 00 40 42 
   212)       164.144 1  Rx        00B3 -  8    00 00 00 00 00 00 40 19 
   213)       166.320 1  Rx        00B1 -  3    00 90 55 
   214)       166.448 1  Rx        0077 -  2    00 01 
   215)       169.606 1  Rx        002F -  8    00 00 00 00 00 D8 80 00 
   216)       169.819 1  Rx        0071 -  8    1F FF 00 00 6C 00 20 3B 
   217)       170.075 1  Rx        0079 -  8    80 00 00 00 00 00 20 2C 
   218)       170.331 1  Rx        007F -  8    46 31 00 00 00 00 FF FF 
   219)       170.587 1  Rx        0083 -  8    80 04 00 00 00 00 20 29 
   220)       170.843 1  Rx        00DD -  8    00 00 00 00 00 80 00 00 
   221)       171.227 1  Rx        0037 -  8    1F FE 00 00 0C 1C 90 82 
   222)       171.398 1  Rx        0023 -  8    10 12 10 00 00 00 F5 D3 
   223)       172.166 1  Rx        0085 -  8    20 DD 04 00 00 00 00 10 
   224)       173.190 1  Rx        0093 -  8    80 FC 50 00 00 00 41 17 
   225)       176.560 1  Rx        009B -  8    15 00 00 55 00 79 00 FF 
   226)       176.859 1  Rx        0133 -  8    00 00 00 00 FF 03 0C FF 
   227)       178.523 1  Rx        00AD -  5    01 00 00 F0 BB 
   228)       179.589 1  Rx        002F -  8    00 00 00 00 00 D7 80 00 
   229)       179.888 1  Rx        0087 -  8    00 00 00 00 00 67 20 EB 
   230)       180.059 1  Rx        0089 -  8    FF FF FF 6D FF FF 20 FF 
   231)       180.315 1  Rx        008B -  8    00 00 00 00 00 00 00 00 
   232)       180.571 1  Rx        00A7 -  8    00 00 00 9E 40 9C 20 02 
   233)       181.125 1  Rx        0037 -  8    1F FE 00 00 0C 1C A0 C8 
   234)       181.424 1  Rx        0023 -  8    10 12 10 00 00 00 05 AC 
   235)       181.851 1  Rx        0318 -  8    00 00 00 00 00 00 FF 00 
   236)       182.149 1  Rx        0095 -  7    00 00 00 00 00 50 28 
   237)       183.131 1  Rx        00AB -  8    00 00 CD 0D 00 00 50 8F 
   238)       184.155 1  Rx        00B3 -  8    00 00 00 00 00 00 50 D4 
   239)       186.331 1  Rx        00B1 -  3    00 A0 1F 
   240)       186.501 1  Rx        0077 -  2    00 01 
   241)       186.757 1  Rx        03E8 -  8    49 31 A2 43 00 0E 50 5C 
   242)       187.013 1  Rx        0620 -  8    02 3E 00 00 00 00 00 00 
   243)       189.744 1  Rx        002F -  8    00 00 00 00 00 D8 80 00 
   244)       190.000 1  Rx        0071 -  8    1F FF 00 00 6C 00 30 F6 
   245)       190.213 1  Rx        0079 -  8    80 00 00 00 00 00 30 E1 
   246)       190.469 1  Rx        007F -  8    46 31 00 00 00 00 FF FF 
   247)       190.725 1  Rx        0083 -  8    80 04 00 00 00 00 30 E4 
   248)       191.152 1  Rx        0037 -  8    1F FE 00 00 0C 1C B0 05 
   249)       191.408 1  Rx        0023 -  8    10 12 10 00 00 00 15 61 
   250)       192.176 1  Rx        0085 -  8    20 DD 04 00 00 00 00 14 
   251)       193.157 1  Rx        0093 -  8    80 FC 50 00 00 00 51 DA 
   252)       196.187 1  Rx        0129 -  4    01 00 00 00 
   253)       196.528 1  Rx        009B -  8    15 00 00 55 00 79 00 FF 
   254)       196.784 1  Rx        012B -  8    96 18 90 62 21 FF 7E FF 
   255)       197.040 1  Rx        0504 -  8    02 7E 00 C2 03 00 C8 0D 
   256)       197.296 1  Rx        013F -  8    FF FF C1 FB 01 34 00 00 
   257)       197.509 1  Rx        01C8 -  4    00 00 00 00 
   258)       198.490 1  Rx        00AD -  5    01 00 00 00 C4 
   259)       199.728 1  Rx        002F -  8    00 00 00 00 00 D8 80 00 
   260)       199.984 1  Rx        0087 -  8    00 00 00 00 00 67 30 26 
   261)       200.240 1  Rx        0089 -  8    FF FF FF 6D FF FF 30 FF 
   262)       200.453 1  Rx        008B -  8    00 00 00 00 00 00 00 00 
   263)       200.709 1  Rx        00A7 -  8    00 00 00 9E 40 9B 30 36 
   264)       201.178 1  Rx        0037 -  8    1F FE 00 00 0C 1C C0 5C 
   265)       201.434 1  Rx        0023 -  8    10 12 10 00 00 00 25 2B 
   266)       202.160 1  Rx        0095 -  7    00 00 00 00 00 60 62 
   267)       202.928 1  Rx        02F2 -  8    00 00 00 00 00 00 00 00 
   268)       203.226 1  Rx        00AB -  8    00 00 CD 0D 00 00 60 C5 
   269)       204.165 1  Rx        00B3 -  8    00 00 00 00 00 00 60 9E 
   270)       206.341 1  Rx        00B1 -  3    00 B0 D2 
   271)       206.469 1  Rx        0077 -  2    00 01 
   272)       209.584 1  Rx        002F -  8    00 00 00 00 00 D8 80 00 
   273)       209.882 1  Rx        0071 -  8    1F FF 00 00 6C 00 40 AF 
   274)       210.096 1  Rx        0079 -  8    80 00 00 00 00 00 40 B8 
   275)       210.309 1  Rx        007F -  8    46 31 00 00 00 00 FF FF 
   276)       210.565 1  Rx        0083 -  8    80 04 00 00 00 00 40 BD 
   277)       211.120 1  Rx        0037 -  8    1F FE 00 00 0C 1C D0 91 
   278)       211.418 1  Rx        0023 -  8    10 12 10 00 00 00 35 E6 
   279)       212.101 1  Rx        0085 -  8    20 DD 04 00 00 00 00 18 
   280)       213.125 1  Rx        0093 -  8    80 FC 50 00 00 00 61 90 
   281)       216.496 1  Rx        009B -  8    15 00 00 55 00 79 00 FF 
   282)       218.501 1  Rx        00AD -  5    01 00 00 10 09 
   283)       219.610 1  Rx        002F -  8    00 00 00 00 00 D8 80 00 
   284)       219.823 1  Rx        0087 -  8    00 00 00 00 00 66 40 33 
   285)       220.079 1  Rx        0089 -  8    FF FF FF 6D FF FF 40 FF 
   286)       220.335 1  Rx        008B -  8    00 00 00 00 00 00 00 00 
   287)       220.549 1  Rx        00A7 -  8    00 00 00 9E 40 9C 40 96 
   288)       220.847 1  Rx        00DD -  8    00 00 00 00 00 80 00 00 
   289)       221.189 1  Rx        0037 -  8    1F FE 00 00 0C 1C E0 DB 
   290)       221.402 1  Rx        0023 -  8    10 12 10 00 00 00 45 BF 
   291)       222.170 1  Rx        0095 -  7    00 00 00 00 00 70 AF 
   292)       223.151 1  Rx        00AB -  8    00 00 CD 0D 00 00 70 08 
   293)       224.175 1  Rx        00B3 -  8    00 00 00 00 00 00 70 53 
   294)       226.351 1  Rx        00B1 -  3    00 C0 8B 
   295)       226.479 1  Rx        0077 -  2    00 01 
   296)       226.735 1  Rx        0230 -  8    00 34 31 08 00 00 00 00 
   297)       229.594 1  Rx        002F -  8    00 00 00 00 00 D8 80 00 
   298)       229.893 1  Rx        0071 -  8    1F FF 00 00 6C 00 50 62 
   299)       230.106 1  Rx        0079 -  8    80 00 00 00 00 00 50 75 
   300)       230.319 1  Rx        007F -  8    46 31 00 00 00 00 FF FF 
   301)       230.575 1  Rx        0083 -  8    80 04 00 00 00 00 50 70 
   302)       231.173 1  Rx        0037 -  8    1F FE 00 00 0C 1C F0 16 
   303)       231.429 1  Rx        0400 -  8    FD 01 BF FF FF FF FF FF 
   304)       231.642 1  Rx        0023 -  8    10 12 10 00 00 00 55 72 
   305)       232.154 1  Rx        0085 -  8    20 DD 04 00 00 00 00 1C 
   306)       233.178 1  Rx        0093 -  8    80 FC 50 00 00 00 71 5D 
   307)       234.074 1  Rx        0125 -  3    00 79 00 
   308)       236.549 1  Rx        009B -  8    15 00 00 55 00 79 00 FF 
   309)       236.805 1  Rx        0248 -  8    00 00 FF FF FF 03 FF FF 
   310)       238.511 1  Rx        00AD -  5    01 00 00 20 43 
   311)       239.749 1  Rx        002F -  8    00 00 00 00 00 D8 80 00 
   312)       239.962 1  Rx        0087 -  8    00 00 00 00 00 67 50 B2 
   313)       240.218 1  Rx        0089 -  8    FF FF FF 6D FF FF 50 FF 
   314)       240.474 1  Rx        008B -  8    00 00 00 00 00 00 00 00 
   315)       240.730 1  Rx        00A7 -  8    00 00 00 9E 40 9B 50 A2 
   316)       241.156 1  Rx        0037 -  8    1F FE 00 00 0C 1C 00 69 
   317)       241.412 1  Rx        0023 -  8    10 12 10 00 00 00 65 38 
   318)       242.095 1  Rx        0095 -  7    00 00 00 00 00 80 D0 
   319)       243.119 1  Rx        00AB -  8    00 00 CD 0D 00 00 80 77 
   320)       244.100 1  Rx        00B3 -  8    00 00 00 00 00 00 80 2C 
   321)       246.319 1  Rx        00B1 -  3    00 D0 46 
   322)       246.490 1  Rx        0077 -  2    00 01 
   323)       249.604 1  Rx        002F -  8    00 00 00 00 00 D8 80 00 
   324)       249.860 1  Rx        0071 -  8    1F FF 00 00 6C 00 60 28 
   325)       250.074 1  Rx        0079 -  8    80 00 00 00 00 00 60 3F 
   326)       250.330 1  Rx        007F -  8    46 31 00 00 00 00 FF FF 
   327)       250.586 1  Rx        0083 -  8    80 04 00 00 00 00 60 3A 
   328)       251.183 1  Rx        0037 -  8    1F FE 00 00 0C 1C 10 A4 
   329)       251.439 1  Rx        0023 -  8    10 12 10 00 00 00 75 F5 
   330)       252.164 1  Rx        0085 -  8    20 DD 04 00 00 00 00 20 
   331)       253.188 1  Rx        0093 -  8    80 FC 50 00 00 00 81 22 
   332)       256.474 1  Rx        009B -  8    15 00 00 55 00 79 00 FF 
   333)       258.522 1  Rx        00AD -  5    01 00 00 30 8E 
   334)       259.716 1  Rx        002F -  8    00 00 00 00 00 D8 80 00 
   335)       260.015 1  Rx        0087 -  8    00 00 00 00 00 66 60 B4 
   336)       260.228 1  Rx        0089 -  8    FF FF FF 6D FF FF 60 FF 
   337)       260.484 1  Rx        008B -  8    00 00 00 00 00 00 00 00 
   338)       260.698 1  Rx        00A7 -  8    00 00 00 9E 40 9C 60 11 
   339)       261.167 1  Rx        0037 -  8    1F FE 00 00 0C 1C 20 EE 
   340)       261.423 1  Rx        0023 -  8    10 12 10 00 00 00 85 8A 
   341)       262.148 1  Rx        0095 -  7    00 00 00 00 00 90 1D 
   342)       263.172 1  Rx        00AB -  8    00 00 CD 0D 00 00 90 BA 
   343)       264.153 1  Rx        00B3 -  8    00 00 00 00 00 00 90 E1 
   344)       266.329 1  Rx        00B1 -  3    00 E0 0C 
   345)       266.457 1  Rx        0077 -  2    00 01 
   346)       269.572 1  Rx        002F -  8    00 00 00 00 00 D8 80 00 
   347)       269.828 1  Rx        0071 -  8    1F FF 00 00 6C 00 70 E5 
   348)       270.084 1  Rx        0079 -  8    80 00 00 00 00 00 70 F2 
   349)       270.340 1  Rx        007F -  8    46 31 00 00 00 00 FF FF 
   350)       270.553 1  Rx        0083 -  8    80 04 00 00 00 00 70 F7 
   351)       270.852 1  Rx        00DD -  8    00 00 00 00 00 80 00 00 
   352)       271.193 1  Rx        0037 -  8    1F FE 00 00 0C 1C 30 23 
   353)       271.407 1  Rx        0023 -  8    10 12 10 00 00 00 95 47 
   354)       272.175 1  Rx        0085 -  8    20 DD 04 00 00 00 00 24 
   355)       273.156 1  Rx        0093 -  8    80 FC 50 00 00 00 91 EF 
   356)       276.569 1  Rx        009B -  8    15 00 00 55 00 79 00 FF 
   357)       276.868 1  Rx        0133 -  8    00 00 00 00 FF 03 0C FF 
   358)       278.532 1  Rx        00AD -  5    01 00 00 40 D7 
   359)       279.727 1  Rx        002F -  8    00 00 00 00 00 D8 80 00 
   360)       280.025 1  Rx        0087 -  8    00 00 00 00 00 66 70 79 
   361)       280.239 1  Rx        0089 -  8    FF FF FF 6D FF FF 70 FF 
   362)       280.452 1  Rx        008B -  8    00 00 00 00 00 00 00 00 
   363)       280.708 1  Rx        00A7 -  8    00 00 00 9E 40 9C 70 DC 
   364)       281.135 1  Rx        0037 -  8    1F FE 00 00 0C 1C 40 7A 
   365)       281.433 1  Rx        0023 -  8    10 12 10 00 00 00 A5 0D 
   366)       281.860 1  Rx        0318 -  8    00 00 00 00 00 00 FF 00 
   367)       282.159 1  Rx        0095 -  7    00 00 00 00 00 A0 57 
   368)       283.140 1  Rx        00AB -  8    00 00 CD 0D 00 00 A0 F0 
   369)       284.164 1  Rx        00B3 -  8    00 00 00 00 00 00 A0 AB 
   370)       286.340 1  Rx        00B1 -  3    00 F0 C1 
   371)       286.468 1  Rx        0077 -  2    00 01 
   372)       289.582 1  Rx        002F -  8    00 00 00 00 00 D7 80 00 
   373)       289.881 1  Rx        0071 -  8    1F FF 00 00 6C 00 80 9A 
   374)       290.094 1  Rx        0079 -  8    80 00 00 00 00 00 80 8D 
   375)       290.308 1  Rx        007F -  8    46 31 00 00 00 00 FF FF 
   376)       290.564 1  Rx        0083 -  8    80 04 00 00 00 00 80 88 
   377)       291.118 1  Rx        0037 -  8    1F FE 00 00 0C 1C 50 B7 
   378)       291.417 1  Rx        0023 -  8    10 12 10 00 00 00 B5 C0 
   379)       292.142 1  Rx        0085 -  8    20 DD 04 00 00 00 00 28 
   380)       293.124 1  Rx        0093 -  8    80 FC 50 00 00 00 A1 A5 
   381)       296.196 1  Rx        0129 -  4    01 00 00 00 
   382)       296.537 1  Rx        009B -  8    15 00 00 55 00 79 00 FF 
   383)       296.793 1  Rx        012B -  8    96 18 90 62 21 FF 7E FF 
   384)       297.049 1  Rx        013F -  8    FF FF C1 FB 01 34 00 00 
   385)       298.500 1  Rx        00AD -  5    01 00 00 50 1A 
   386)       299.737 1  Rx        002F -  8    00 00 00 00 00 D8 80 00 
   387)       299.993 1  Rx        0087 -  8    00 00 00 00 00 66 80 06 
   388)       300.206 1  Rx        0089 -  8    FF FF FF 6D FF FF 80 FF 
   389)       300.462 1  Rx        008B -  8    00 00 00 00 00 00 00 00 
   390)       300.718 1  Rx        00A7 -  8    00 00 00 9E 40 9B 80 5A 
   391)       301.145 1  Rx        0037 -  8    1F FE 00 00 0C 1C 60 FD 
   392)       301.444 1  Rx        0023 -  8    10 12 10 00 00 00 C5 99 
   393)       302.169 1  Rx        0095 -  7    00 00 00 00 00 B0 9A 
   394)       302.937 1  Rx        02F2 -  8    00 00 00 00 00 00 00 00 
   395)       303.193 1  Rx        00AB -  8    00 00 CD 0D 00 00 B0 3D 
   396)       303.406 1  Rx        0328 -  8    40 41 00 4D 00 55 00 53 
   397)       304.174 1  Rx        00B3 -  8    00 00 00 00 00 00 B0 66 
   398)       306.265 1  Rx        01C0 -  6    00 00 00 00 00 00 
   399)       306.393 1  Rx        0077 -  2    00 01 
   400)       306.563 1  Rx        00B1 -  3    00 00 BE 
   401)       309.593 1  Rx        002F -  8    00 00 00 00 00 D8 80 00 
   402)       309.891 1  Rx        0071 -  8    1F FF 00 00 6C 00 90 57 
   403)       310.062 1  Rx        0079 -  8    80 00 00 00 00 00 90 40 
   404)       310.318 1  Rx        007F -  8    46 31 00 00 00 00 FF FF 
   405)       310.574 1  Rx        0083 -  8    80 04 00 00 00 00 90 45 
   406)       311.129 1  Rx        0037 -  8    1F FE 00 00 0C 1C 70 30 
   407)       311.427 1  Rx        0023 -  8    10 12 10 00 00 00 D5 54 
   408)       312.110 1  Rx        0085 -  8    20 DD 04 00 00 00 00 2C 
   409)       312.921 1  Rx        01F7 -  8    FF FF 0F FF 00 80 00 00 
   410)       313.219 1  Rx        0093 -  8    80 FC 50 00 00 00 B1 68 
   411)       316.505 1  Rx        009B -  8    15 00 00 55 00 79 00 FF 
   412)       318.382 1  Rx        0401 -  8    FD 02 04 0F 02 00 00 00 
   413)       318.595 1  Rx        00AD -  5    01 00 00 60 50 
   414)       319.747 1  Rx        002F -  8    00 00 00 00 00 D8 80 00 
   415)       320.003 1  Rx        0087 -  8    00 00 00 00 00 66 90 CB 
   416)       320.217 1  Rx        0089 -  8    FF FF FF 6D FF FF 90 FF 
   417)       320.473 1  Rx        008B -  8    00 00 00 00 00 00 00 00 
   418)       320.729 1  Rx        00A7 -  8    00 00 00 9E 40 9C 90 6E 
   419)       320.942 1  Rx        00DD -  8    00 00 00 00 00 80 00 00 
   420)       321.198 1  Rx        0037 -  8    1F FE 00 00 0C 1C 80 4F 
   421)       321.454 1  Rx        0023 -  8    10 12 10 00 00 00 E5 1E 
   422)       322.137 1  Rx        0095 -  7    00 00 00 00 00 C0 C3 
   423)       323.161 1  Rx        00AB -  8    00 00 CD 0D 00 00 C0 64 
   424)       324.185 1  Rx        00B3 -  8    00 00 00 00 00 00 C0 3F 
   425)       326.360 1  Rx        00B1 -  3    00 10 73 
   426)       326.488 1  Rx        0077 -  2    00 01 
   427)       329.603 1  Rx        002F -  8    00 00 00 00 00 D8 80 00 
   428)       329.816 1  Rx        0071 -  8    1F FF 00 00 6C 00 A0 1D 
   429)       330.072 1  Rx        0079 -  8    80 00 00 00 00 00 A0 0A 
   430)       330.328 1  Rx        007F -  8    46 31 00 00 00 00 FF FF 
   431)       330.584 1  Rx        0083 -  8    80 04 00 00 00 00 A0 0F 
   432)       331.139 1  Rx        0037 -  8    1F FE 00 00 0C 1C 90 82 
   433)       331.438 1  Rx        0023 -  8    10 12 10 00 00 00 F5 D3 
   434)       332.163 1  Rx        0085 -  8    20 DD 04 00 00 00 00 30 
   435)       333.144 1  Rx        0093 -  8    80 FC 50 00 00 00 C1 31 
   436)       333.443 1  Rx        0328 -  8    30 01 00 49 00 43 00 20 
   437)       334.083 1  Rx        0125 -  3    00 79 00 
   438)       336.515 1  Rx        009B -  8    15 00 00 55 00 79 00 FF 
   439)       338.520 1  Rx        00AD -  5    01 00 00 70 9D 
   440)       339.587 1  Rx        002F -  8    00 00 00 00 00 D7 80 00 
   441)       339.886 1  Rx        0087 -  8    00 00 00 00 00 66 A0 81 
   442)       340.099 1  Rx        0089 -  8    FF FF FF 6D FF FF A0 FF 
   443)       340.355 1  Rx        008B -  8    00 00 00 00 00 00 00 00 
   444)       340.568 1  Rx        00A7 -  8    00 00 00 9E 40 9C A0 24 
   445)       341.166 1  Rx        0037 -  8    1F FE 00 00 0C 1C A0 C8 
   446)       341.422 1  Rx        0023 -  8    10 12 10 00 00 00 05 AC 
   447)       342.147 1  Rx        0095 -  7    00 00 00 00 00 D0 0E 
   448)       343.171 1  Rx        00AB -  8    00 00 CD 0D 00 00 D0 A9 
   449)       344.195 1  Rx        00B3 -  8    00 00 00 00 00 00 D0 F2 
   450)       346.328 1  Rx        00B1 -  3    00 20 39 
   451)       346.499 1  Rx        0077 -  2    00 01 
   452)       349.571 1  Rx        002F -  8    00 00 00 00 00 D8 80 00 
   453)       349.827 1  Rx        0071 -  8    1F FF 00 00 6C 00 B0 D0 
   454)       350.083 1  Rx        0079 -  8    80 00 00 00 00 00 B0 C7 
   455)       350.339 1  Rx        007F -  8    46 31 00 00 00 00 FF FF 
   456)       350.552 1  Rx        0083 -  8    80 04 00 00 00 00 B0 C2 
   457)       351.149 1  Rx        0037 -  8    1F FE 00 00 0C 1C B0 05 
   458)       351.448 1  Rx        0023 -  8    10 12 10 00 00 00 15 61 
   459)       352.173 1  Rx        0085 -  8    20 DD 04 00 00 00 00 34 
   460)       353.155 1  Rx        0093 -  8    80 FC 50 00 00 00 D1 FC 
   461)       356.611 1  Rx        009B -  8    15 00 00 55 00 79 00 FF 
   462)       358.531 1  Rx        00AD -  5    01 00 00 80 E2 
   463)       359.597 1  Rx        002F -  8    00 00 00 00 00 D7 80 00 
   464)       359.896 1  Rx        0087 -  8    00 00 00 00 00 66 B0 4C 
   465)       360.067 1  Rx        0089 -  8    FF FF FF 6D FF FF B0 FF 
   466)       360.323 1  Rx        008B -  8    00 00 00 00 00 00 00 00 
   467)       360.579 1  Rx        00A7 -  8    00 00 00 9E 40 9B B0 10 
   468)       361.133 1  Rx        0037 -  8    1F FE 00 00 0C 1C C0 5C 
   469)       361.432 1  Rx        0023 -  8    10 12 10 00 00 00 25 2B 
   470)       362.115 1  Rx        0095 -  7    00 00 00 00 00 E0 44 
   471)       363.139 1  Rx        00AB -  8    00 00 CD 0D 00 00 E0 E3 
   472)       363.395 1  Rx        0328 -  8    20 01 00 4F 00 46 00 46 
   473)       364.163 1  Rx        00B3 -  8    00 00 00 00 00 00 E0 B8 
   474)       366.339 1  Rx        00B1 -  3    00 30 F4 
   475)       366.467 1  Rx        0077 -  2    00 01 
   476)       369.581 1  Rx        002F -  8    00 00 00 00 00 D8 80 00 
   477)       369.837 1  Rx        0071 -  8    1F FF 00 00 6C 00 C0 89 
   478)       370.093 1  Rx        0079 -  8    80 00 00 00 00 00 C0 9E 
   479)       370.306 1  Rx        007F -  8    46 31 00 00 00 00 FF FF 
   480)       370.562 1  Rx        0083 -  8    80 04 00 00 00 00 C0 9B 
   481)       370.818 1  Rx        00DD -  8    00 00 00 00 00 80 00 00 
   482)       371.160 1  Rx        0037 -  8    1F FE 00 00 0C 1C D0 91 
   483)       371.416 1  Rx        0023 -  8    10 12 10 00 00 00 35 E6 
   484)       372.184 1  Rx        0085 -  8    20 DD 04 00 00 00 00 38 
   485)       373.165 1  Rx        0093 -  8    80 FC 50 00 00 00 E1 B6 
   486)       376.578 1  Rx        009B -  8    15 00 00 55 00 79 00 FF 
   487)       376.834 1  Rx        0133 -  8    00 00 00 00 FF 03 0C FF 
   488)       378.498 1  Rx        00AD -  5    01 00 00 90 2F 
   489)       379.608 1  Rx        002F -  8    00 00 00 00 00 D8 80 00 
   490)       379.864 1  Rx        0087 -  8    00 00 00 00 00 66 C0 15 
   491)       380.077 1  Rx        0089 -  8    FF FF FF 6D FF FF C0 FF 
   492)       380.333 1  Rx        008B -  8    00 00 00 00 00 00 00 00 
   493)       380.589 1  Rx        00A7 -  8    00 00 00 9E 40 9C C0 B0 
   494)       381.144 1  Rx        0037 -  8    1F FE 00 00 0C 1C E0 DB 
   495)       381.442 1  Rx        0023 -  8    10 12 10 00 00 00 45 BF 
   496)       381.869 1  Rx        0318 -  8    00 00 00 00 00 00 FF 00 
   497)       382.125 1  Rx        0095 -  7    00 00 00 00 00 F0 89 
   498)       383.149 1  Rx        00AB -  8    00 00 CD 0D 00 00 F0 2E 
   499)       384.130 1  Rx        00B3 -  8    00 00 00 00 00 00 F0 75 
   500)       386.349 1  Rx        00B1 -  3    00 40 AD 
   501)       386.477 1  Rx        0077 -  2    00 01 
   502)       389.592 1  Rx        002F -  8    00 00 00 00 00 D8 80 00 
   503)       389.848 1  Rx        0071 -  8    1F FF 00 00 6C 00 D0 44 
   504)       390.061 1  Rx        0079 -  8    80 00 00 00 00 00 D0 53 
   505)       390.317 1  Rx        007F -  8    46 31 00 00 00 00 FF FF 
   506)       390.573 1  Rx        0083 -  8    80 04 00 00 00 00 D0 56 
   507)       391.127 1  Rx        0037 -  8    1F FE 00 00 0C 1C F0 16 
   508)       391.426 1  Rx        0023 -  8    10 12 10 00 00 00 55 72 
   509)       392.151 1  Rx        0085 -  8    20 DD 04 00 00 00 00 3C 
   510)       393.133 1  Rx        0093 -  8    80 FC 50 00 00 00 F1 7B 
   511)       393.431 1  Rx        0328 -  8    10 01 00 00 00 00 00 00 
   512)       396.205 1  Rx        0129 -  4    01 00 00 00 
   513)       396.503 1  Rx        009B -  8    15 00 00 55 00 79 00 FF 
   514)       396.759 1  Rx        012B -  8    96 18 90 61 21 FF 7E FF 
   515)       397.058 1  Rx        013F -  8    FF FF C1 FB 01 34 00 00 
   516)       398.509 1  Rx        00AD -  5    01 00 00 A0 65 
   517)       399.746 1  Rx        002F -  8    00 00 00 00 00 D8 80 00 
   518)       400.002 1  Rx        0087 -  8    00 00 00 00 00 67 D0 94 
   519)       400.215 1  Rx        0089 -  8    FF FF FF 6D FF FF D0 FF 
   520)       400.471 1  Rx        008B -  8    00 00 00 00 00 00 00 00 
   521)       400.727 1  Rx        00A7 -  8    00 00 00 9E 40 9C D0 7D 
   522)       401.154 1  Rx        0037 -  8    1F FE 00 00 0C 1C 00 69 
   523)       401.453 1  Rx        0023 -  8    10 12 10 00 00 00 65 38 
   524)       402.135 1  Rx        0095 -  7    00 00 00 00 00 00 F6 
   525)       402.946 1  Rx        02F2 -  8    00 00 00 00 00 00 00 00 
   526)       403.202 1  Rx        00AB -  8    00 00 CD 0D 00 00 00 51 
   527)       404.183 1  Rx        00B3 -  8    00 00 00 00 00 00 00 0A 
   528)       406.359 1  Rx        00B1 -  3    00 50 60 
   529)       406.487 1  Rx        0077 -  2    00 01 
   530)       409.602 1  Rx        002F -  8    00 00 00 00 00 D8 80 00 
   531)       409.858 1  Rx        0071 -  8    1F FF 00 00 6C 00 E0 0E 
   532)       410.071 1  Rx        0079 -  8    80 00 00 00 00 00 E0 19 
   533)       410.327 1  Rx        007F -  8    46 31 00 00 00 00 FF FF 
   534)       410.583 1  Rx        0083 -  8    80 04 00 00 00 00 E0 1C 
   535)       411.138 1  Rx        0037 -  8    1F FE 00 00 0C 1C 10 A4 
   536)       411.436 1  Rx        0023 -  8    10 12 10 00 00 00 75 F5 
   537)       412.162 1  Rx        0085 -  8    20 DD 04 00 00 00 00 00 
   538)       412.972 1  Rx        0402 -  8    FD 03 BF FF FF FF FF FF 
   539)       413.271 1  Rx        0093 -  8    80 FC 50 00 00 00 01 04 
   540)       416.471 1  Rx        009B -  8    15 00 00 55 00 79 00 FF 
   541)       418.519 1  Rx        00AD -  5    01 00 00 B0 A8 
   542)       419.586 1  Rx        002F -  8    00 00 00 00 00 D8 80 00 
   543)       419.842 1  Rx        0087 -  8    00 00 00 00 00 67 E0 DE 
   544)       420.098 1  Rx        0089 -  8    FF FF FF 6D FF FF E0 FF 
   545)       420.354 1  Rx        008B -  8    00 00 00 00 00 00 00 00 
   546)       420.567 1  Rx        00A7 -  8    00 00 00 9E 40 9C E0 37 
   547)       420.823 1  Rx        00DD -  8    00 00 00 00 00 80 00 00 
   548)       421.164 1  Rx        0037 -  8    1F FE 00 00 0C 1C 20 EE 
   549)       421.463 1  Rx        0023 -  8    10 12 10 00 00 00 85 8A 
   550)       422.146 1  Rx        0095 -  7    00 00 00 00 00 10 3B 
   551)       423.170 1  Rx        00AB -  8    00 00 CD 0D 00 00 10 9C 
   552)       424.151 1  Rx        00B3 -  8    00 00 00 00 00 00 10 C7 
   553)       424.407 1  Rx        0328 -  8    00 01 00 00 00 00 00 00 
   554)       426.370 1  Rx        00B1 -  3    00 60 2A 
   555)       426.498 1  Rx        0077 -  2    00 01 
   556)       429.612 1  Rx        002F -  8    00 00 00 00 00 D8 80 00 
   557)       429.826 1  Rx        0071 -  8    1F FF 00 00 6C 00 F0 C3 
   558)       430.082 1  Rx        0079 -  8    80 00 00 00 00 00 F0 D4 
   559)       430.338 1  Rx        007F -  8    46 31 00 00 00 00 FF FF 
   560)       430.594 1  Rx        0083 -  8    80 04 00 00 00 00 F0 D1 
   561)       431.148 1  Rx        0037 -  8    1F FE 00 00 0C 1C 30 23 
   562)       431.447 1  Rx        0023 -  8    10 12 10 00 00 00 95 47 
   563)       432.172 1  Rx        0085 -  8    20 DD 04 00 00 00 00 04 
   564)       433.153 1  Rx        0093 -  8    80 FC 50 00 00 00 11 C9 
   565)       434.049 1  Rx        0125 -  3    00 79 00 
   566)       436.524 1  Rx        009B -  8    15 00 00 55 00 79 00 FF 
   567)       438.529 1  Rx        00AD -  5    01 00 00 C0 F1 
   568)       439.596 1  Rx        002F -  8    00 00 00 00 00 D7 80 00 
   569)       439.895 1  Rx        0087 -  8    00 00 00 00 00 67 F0 13 
   570)       440.065 1  Rx        0089 -  8    FF FF FF 6D FF FF F0 FF 
   571)       440.321 1  Rx        008B -  8    00 00 00 00 00 00 00 00 
   572)       440.577 1  Rx        00A7 -  8    00 00 00 9E 40 9C F0 FA 
   573)       441.132 1  Rx        0037 -  8    1F FE 00 00 0C 1C 40 7A 
   574)       441.431 1  Rx        0023 -  8    10 12 10 00 00 00 A5 0D 
   575)       442.156 1  Rx        0095 -  7    00 00 00 00 00 20 71 
   576)       443.137 1  Rx        00AB -  8    00 00 CD 0D 00 00 20 D6 
   577)       444.161 1  Rx        00B3 -  8    00 00 00 00 00 00 20 8D 
   578)       446.337 1  Rx        00B1 -  3    00 70 E7 
   579)       446.508 1  Rx        0077 -  2    00 01 
   580)       449.580 1  Rx        002F -  8    00 00 00 00 00 D8 80 00 
   581)       449.836 1  Rx        0071 -  8    1F FF 00 00 6C 00 00 BC 
   582)       450.092 1  Rx        0079 -  8    80 00 00 00 00 00 00 AB 
   583)       450.348 1  Rx        007F -  8    46 31 00 00 00 00 FF FF 
   584)       450.561 1  Rx        0083 -  8    80 04 00 00 00 00 00 AE 
   585)       451.159 1  Rx        0037 -  8    1F FE 00 00 0C 1C 50 B7 
   586)       451.457 1  Rx        0023 -  8    10 12 10 00 00 00 B5 C0 
   587)       452.183 1  Rx        0085 -  8    20 DD 04 00 00 00 00 08 
   588)       453.164 1  Rx        0093 -  8    80 FC 50 00 00 00 21 83 
   589)       453.463 1  Rx        0328 -  8    00 00 00 00 00 00 00 00 
   590)       456.577 1  Rx        009B -  8    15 00 00 55 00 79 00 FF 
   591)       458.497 1  Rx        00AD -  5    01 00 00 D0 3C 
   592)       459.606 1  Rx        002F -  8    00 00 00 00 00 D8 80 00 
   593)       459.862 1  Rx        0087 -  8    00 00 00 00 00 67 00 6C 
   594)       460.076 1  Rx        0089 -  8    FF FF FF 6D FF FF 00 FF 
   595)       460.332 1  Rx        008B -  8    00 00 00 00 00 00 00 00 
   596)       460.588 1  Rx        00A7 -  8    00 00 00 9E 40 9C 00 85 
   597)       461.142 1  Rx        0037 -  8    1F FE 00 00 0C 1C 60 FD 
   598)       461.441 1  Rx        0023 -  8    10 12 10 00 00 00 C5 99 
   599)       462.124 1  Rx        0095 -  7    00 00 00 00 00 30 BC 
   600)       463.148 1  Rx        00AB -  8    00 00 CD 0D 00 00 30 1B 
   601)       464.172 1  Rx        00B3 -  8    00 00 00 00 00 00 30 40 
   602)       466.348 1  Rx        00B1 -  3    00 80 98 
   603)       466.518 1  Rx        0077 -  2    00 01 
   604)       469.590 1  Rx        002F -  8    00 00 00 00 00 D8 80 00 
   605)       469.846 1  Rx        0071 -  8    1F FF 00 00 6C 00 10 71 
   606)       470.102 1  Rx        0079 -  8    80 00 00 00 00 00 10 66 
   607)       470.316 1  Rx        007F -  8    46 31 00 00 00 00 FF FF 
   608)       470.572 1  Rx        0083 -  8    80 04 00 00 00 00 10 63 
   609)       470.828 1  Rx        00DD -  8    00 00 00 00 00 80 00 00 
   610)       471.126 1  Rx        0037 -  8    1F FE 00 00 0C 1C 70 30 
   611)       471.468 1  Rx        0023 -  8    10 12 10 00 00 00 D5 54 
   612)       472.150 1  Rx        0085 -  8    20 DD 04 00 00 00 00 0C 
   613)       473.132 1  Rx        0093 -  8    80 FC 50 00 00 00 31 4E 
   614)       476.587 1  Rx        009B -  8    15 00 00 55 00 79 00 FF 
   615)       476.843 1  Rx        0133 -  8    00 00 00 00 FF 03 0C FF 
   616)       478.507 1  Rx        00AD -  5    01 00 00 E0 76 
   617)       479.617 1  Rx        002F -  8    00 00 00 00 00 D8 80 00 
   618)       479.873 1  Rx        0087 -  8    00 00 00 00 00 67 10 A1 
   619)       480.086 1  Rx        0089 -  8    FF FF FF 6D FF FF 10 FF 
   620)       480.342 1  Rx        008B -  8    00 00 00 00 00 00 00 00 
   621)       480.555 1  Rx        00A7 -  8    00 00 00 9E 40 9B 10 B1 
   622)       481.153 1  Rx        0037 -  8    1F FE 00 00 0C 1C 80 4F 
   623)       481.451 1  Rx        0023 -  8    10 12 10 00 00 00 E5 1E 
   624)       481.878 1  Rx        0318 -  8    00 00 00 00 00 00 FF 00 
   625)       482.134 1  Rx        0095 -  7    00 00 00 00 00 40 E5 
   626)       483.158 1  Rx        00AB -  8    00 00 CD 0D 00 00 40 42 
   627)       484.139 1  Rx        00B3 -  8    00 00 00 00 00 00 40 19 
   628)       486.358 1  Rx        00B1 -  3    00 90 55 
   629)       486.486 1  Rx        0077 -  2    00 01 
   630)       486.742 1  Rx        0332 -  8    00 E0 03 FF 00 00 03 E8 
   631)       489.601 1  Rx        002F -  8    00 00 00 00 00 D8 80 00 
   632)       489.857 1  Rx        0071 -  8    1F FF 00 00 6C 00 20 3B 
   633)       490.070 1  Rx        0079 -  8    80 00 00 00 00 00 20 2C 
   634)       490.326 1  Rx        007F -  8    46 31 00 00 00 00 FF FF 
   635)       490.582 1  Rx        0083 -  8    80 04 00 00 00 00 20 29 
   636)       491.179 1  Rx        0037 -  8    1F FE 00 00 0C 1C 90 82 
   637)       491.435 1  Rx        0023 -  8    10 12 10 00 00 00 F5 D3 
   638)       492.161 1  Rx        0085 -  8    20 DD 04 00 00 00 00 10 
   639)       493.185 1  Rx        0093 -  8    80 FC 50 00 00 00 41 17 
   640)       496.214 1  Rx        0129 -  4    01 00 00 00 
   641)       496.555 1  Rx        009B -  8    15 00 00 55 00 79 00 FF 
   642)       496.768 1  Rx        012B -  8    96 18 90 61 21 FF 7E FF 
   643)       497.024 1  Rx        013F -  8    FF FF C1 FB 01 34 00 00 
   644)       498.518 1  Rx        00AD -  5    01 00 00 F0 BB 
   645)       499.755 1  Rx        002F -  8    00 00 00 00 00 D7 80 00 
   646)       500.011 1  Rx        0087 -  8    00 00 00 00 00 66 20 A7 
   647)       500.224 1  Rx        0089 -  8    FF FF FF 6D FF FF 20 FF 
   648)       500.480 1  Rx        008B -  8    00 00 00 00 00 00 00 00 
   649)       500.694 1  Rx        00A7 -  8    00 00 00 9E 40 9C 20 02 
   650)       501.163 1  Rx        0037 -  8    1F FE 00 00 0C 1C A0 C8 
   651)       501.462 1  Rx        0023 -  8    10 12 10 00 00 00 05 AC 
   652)       502.144 1  Rx        0095 -  7    00 00 00 00 00 50 28 
   653)       502.955 1  Rx        02F2 -  8    00 00 00 00 00 00 00 00 
   654)       503.168 1  Rx        00AB -  8    00 00 CD 0D 00 00 50 8F 
   655)       504.150 1  Rx        00B3 -  8    00 00 00 00 00 00 50 D4 
   656)       505.856 1  Rx        0403 -  8    FD 07 BF FF FF FF FF FF 
   657)       506.283 1  Rx        01C0 -  6    00 00 00 00 00 00 
   658)       506.411 1  Rx        00B1 -  3    00 A0 1F 
   659)       506.582 1  Rx        0077 -  2    00 01 
   660)       509.739 1  Rx        002F -  8    00 00 00 00 00 D8 80 00 
   661)       510.038 1  Rx        0071 -  8    1F FF 00 00 6C 00 30 F6 
   662)       510.208 1  Rx        0079 -  8    80 00 00 00 00 00 30 E1 
   663)       510.464 1  Rx        007F -  8    46 31 00 00 00 00 FF FF 
   664)       510.720 1  Rx        0083 -  8    80 04 00 00 00 00 30 E4 
   665)       511.147 1  Rx        0037 -  8    1F FE 00 00 0C 1C B0 05 
   666)       511.446 1  Rx        0023 -  8    10 12 10 00 00 00 15 61 
   667)       512.171 1  Rx        0085 -  8    20 DD 04 00 00 00 00 14 
   668)       513.152 1  Rx        0093 -  8    80 FC 50 00 00 00 51 DA 
   669)       516.523 1  Rx        009B -  8    15 00 00 55 00 79 00 FF 
   670)       518.528 1  Rx        00AD -  5    01 00 00 00 C4 
   671)       519.595 1  Rx        002F -  8    00 00 00 00 00 D8 80 00 
   672)       519.851 1  Rx        0087 -  8    00 00 00 00 00 67 30 26 
   673)       520.064 1  Rx        0089 -  8    FF FF FF 6D FF FF 30 FF 
   674)       520.320 1  Rx        008B -  8    00 00 00 00 00 00 00 00 
   675)       520.576 1  Rx        00A7 -  8    00 00 00 9E 40 9C 30 CF 
   676)       520.832 1  Rx        00DD -  8    00 00 00 00 00 80 00 00 
   677)       521.131 1  Rx        0037 -  8    1F FE 00 00 0C 1C C0 5C 
   678)       521.472 1  Rx        0023 -  8    10 12 10 00 00 00 25 2B 
   679)       522.155 1  Rx        0095 -  7    00 00 00 00 00 60 62 
   680)       523.136 1  Rx        00AB -  8    00 00 CD 0D 00 00 60 C5 
   681)       524.160 1  Rx        00B3 -  8    00 00 00 00 00 00 60 9E 
   682)       526.379 1  Rx        00B1 -  3    00 B0 D2 
   683)       526.507 1  Rx        0077 -  2    00 01 
   684)       529.621 1  Rx        002F -  8    00 00 00 00 00 D8 80 00 
   685)       529.877 1  Rx        0071 -  8    1F FF 00 00 6C 00 40 AF 
   686)       530.091 1  Rx        0079 -  8    80 00 00 00 00 00 40 B8 
   687)       530.347 1  Rx        007F -  8    46 31 00 00 00 00 FF FF 
   688)       530.560 1  Rx        0083 -  8    80 04 00 00 00 00 40 BD 
   689)       531.157 1  Rx        0037 -  8    1F FE 00 00 0C 1C D0 91 
   690)       531.456 1  Rx        0023 -  8    10 12 10 00 00 00 35 E6 
   691)       532.181 1  Rx        0085 -  8    20 DD 04 00 00 00 00 18 
   692)       533.163 1  Rx        0093 -  8    80 FC 50 00 00 00 61 90 
   693)       534.101 1  Rx        0125 -  3    00 79 00 
   694)       536.533 1  Rx        009B -  8    15 00 00 55 00 79 00 FF 
   695)       538.496 1  Rx        00AD -  5    01 00 00 10 09 
   696)       539.605 1  Rx        002F -  8    00 00 00 00 00 D8 80 00 
   697)       539.904 1  Rx        0087 -  8    00 00 00 00 00 67 40 7F 
   698)       540.074 1  Rx        0089 -  8    FF FF FF 6D FF FF 40 FF 
   699)       540.330 1  Rx        008B -  8    00 00 00 00 00 00 00 00 
   700)       540.586 1  Rx        00A7 -  8    00 00 00 9E 40 9C 40 96 
   701)       541.184 1  Rx        0037 -  8    1F FE 00 00 0C 1C E0 DB 
   702)       541.440 1  Rx        0023 -  8    10 12 10 00 00 00 45 BF 
   703)       542.165 1  Rx        0095 -  7    00 00 00 00 00 70 AF 
   704)       543.189 1  Rx        00AB -  8    00 00 CD 0D 00 00 70 08 
   705)       544.170 1  Rx        00B3 -  8    00 00 00 00 00 00 70 53 
   706)       546.389 1  Rx        00B1 -  3    00 C0 8B 
   707)       546.517 1  Rx        0077 -  2    00 01 
   708)       549.589 1  Rx        002F -  8    00 00 00 00 00 D9 80 00 
   709)       549.845 1  Rx        0071 -  8    1F FF 00 00 6C 00 50 62 
   710)       550.101 1  Rx        0079 -  8    80 00 00 00 00 00 50 75 
   711)       550.314 1  Rx        007F -  8    46 31 00 00 00 00 FF FF 
   712)       550.570 1  Rx        0083 -  8    80 04 00 00 00 00 50 70 
   713)       551.125 1  Rx        0037 -  8    1F FE 00 00 0C 1C F0 16 
   714)       551.466 1  Rx        0023 -  8    10 12 10 00 00 00 55 72 
   715)       552.149 1  Rx        0085 -  8    20 DD 04 00 00 00 00 1C 
   716)       553.130 1  Rx        0093 -  8    80 FC 50 00 00 00 71 5D 
   717)       556.501 1  Rx        009B -  8    15 00 00 55 00 79 00 FF 
   718)       558.506 1  Rx        00AD -  5    01 00 00 20 43 
   719)       559.616 1  Rx        002F -  8    00 00 00 00 00 D9 80 00 
   720)       559.829 1  Rx        0087 -  8    00 00 00 00 00 66 50 FE 
   721)       560.085 1  Rx        0089 -  8    FF FF FF 6D FF FF 50 FF 
   722)       560.341 1  Rx        008B -  8    00 00 00 00 00 00 00 00 
   723)       560.554 1  Rx        00A7 -  8    00 00 00 9E 40 9B 50 A2 
   724)       561.151 1  Rx        0037 -  8    1F FE 00 00 0C 1C 00 69 
   725)       561.450 1  Rx        0023 -  8    10 12 10 00 00 00 65 38 
   726)       562.133 1  Rx        0095 -  7    00 00 00 00 00 80 D0 
   727)       563.157 1  Rx        00AB -  8    00 00 CD 0D 00 00 80 77 
   728)       564.138 1  Rx        00B3 -  8    00 00 00 00 00 00 80 2C 
   729)       566.357 1  Rx        00B1 -  3    00 D0 46 
   730)       566.527 1  Rx        0077 -  2    00 01 
   731)       569.599 1  Rx        002F -  8    00 00 00 00 00 DA 80 00 
   732)       569.855 1  Rx        0071 -  8    1F FF 00 00 6C 00 60 28 
   733)       570.069 1  Rx        0079 -  8    80 00 00 00 00 00 60 3F 
   734)       570.325 1  Rx        007F -  8    46 31 00 00 00 00 FF FF 
   735)       570.581 1  Rx        0083 -  8    80 04 00 00 00 00 60 3A 
   736)       570.837 1  Rx        00DD -  8    00 00 00 00 00 80 00 00 
   737)       571.178 1  Rx        0037 -  8    1F FE 00 00 0C 1C 10 A4 
   738)       571.477 1  Rx        0023 -  8    10 12 10 00 00 00 75 F5 
   739)       572.159 1  Rx        0085 -  8    20 DD 04 00 00 00 00 20 
   740)       573.141 1  Rx        0093 -  8    80 FC 50 00 00 00 81 22 
   741)       576.554 1  Rx        009B -  8    15 00 00 55 00 79 00 FF 
   742)       576.853 1  Rx        0133 -  8    00 00 00 00 FF 03 0C FF 
   743)       578.517 1  Rx        00AD -  5    01 00 00 30 8E 
   744)       579.626 1  Rx        002F -  8    00 00 00 00 00 DB 80 00 
   745)       579.839 1  Rx        0087 -  8    00 00 00 00 00 66 60 B4 
   746)       580.095 1  Rx        0089 -  8    FF FF FF 6D FF FF 60 FF 
   747)       580.351 1  Rx        008B -  8    00 00 00 00 00 00 00 00 
   748)       580.565 1  Rx        00A7 -  8    00 00 00 9E 40 9B 60 E8 
   749)       581.119 1  Rx        0037 -  8    1F FE 00 00 0C 1C 20 EE 
   750)       581.461 1  Rx        0023 -  8    10 12 10 00 00 00 85 8A 
   751)       581.887 1  Rx        0318 -  8    00 00 00 00 00 00 FF 00 
   752)       582.143 1  Rx        0095 -  7    00 00 00 00 00 90 1D 
   753)       583.124 1  Rx        00AB -  8    00 00 CD 0D 00 00 90 BA 
   754)       584.148 1  Rx        00B3 -  8    00 00 00 00 00 00 90 E1 
   755)       586.367 1  Rx        00B1 -  3    00 E0 0C 
   756)       586.495 1  Rx        0077 -  2    00 01 
   757)       586.794 1  Rx        0332 -  8    00 E1 03 FF 00 00 03 E8 
   758)       589.610 1  Rx        002F -  8    00 00 00 00 00 E1 80 00 
   759)       589.823 1  Rx        0071 -  8    1F FF 00 00 6D 00 70 6A 
   760)       590.079 1  Rx        0079 -  8    80 00 00 00 00 00 70 F2 
   761)       590.335 1  Rx        007F -  8    46 31 00 00 00 00 FF FF 
   762)       590.591 1  Rx        0083 -  8    80 04 00 00 00 00 70 F7 
   763)       590.847 1  Rx        0407 -  8    FD 09 84 FF FF FF FF 00 
   764)       591.146 1  Rx        0037 -  8    1F FE 00 00 0C 1C 30 23 
   765)       591.487 1  Rx        0023 -  8    10 12 10 00 00 00 95 47 
   766)       592.170 1  Rx        0085 -  8    20 DD 04 00 00 00 00 24 
   767)       593.151 1  Rx        0093 -  8    80 FC 50 00 00 00 91 EF 
   768)       596.223 1  Rx        0129 -  4    01 00 00 00 
   769)       596.564 1  Rx        009B -  8    15 00 00 55 00 79 00 FF 
   770)       596.820 1  Rx        012B -  8    96 18 90 62 21 FF 7E FF 
   771)       597.034 1  Rx        013F -  8    FF FF C1 FB 01 34 00 00 
   772)       598.527 1  Rx        00AD -  5    01 00 00 40 D7 
   773)       599.764 1  Rx        002F -  8    00 00 00 00 00 E9 80 00 
   774)       600.020 1  Rx        0087 -  8    00 00 00 00 00 65 70 AD 
   775)       600.234 1  Rx        0089 -  8    FF FF FF 6D FF FF 70 FF 
   776)       600.490 1  Rx        008B -  8    00 00 00 00 00 00 00 00 
   777)       600.703 1  Rx        00A7 -  8    00 00 00 9E 40 9C 70 DC 
   778)       601.172 1  Rx        0037 -  8    1F FE 00 00 0C 1C 40 7A 
   779)       601.471 1  Rx        0023 -  8    10 12 10 00 00 00 A5 0D 
   780)       602.154 1  Rx        0095 -  7    00 00 00 00 00 A0 57 
   781)       602.964 1  Rx        02F2 -  8    00 00 00 00 00 00 00 00 
   782)       603.220 1  Rx        00AB -  8    00 00 CD 0D 00 00 A0 F0 
   783)       604.159 1  Rx        00B3 -  8    00 00 00 00 00 00 A0 AB 
   784)       606.377 1  Rx        00B1 -  3    00 F0 C1 
   785)       606.505 1  Rx        0077 -  2    00 01 
   786)       609.577 1  Rx        002F -  8    00 00 00 00 00 F6 80 00 
   787)       609.876 1  Rx        0071 -  8    1F FF 00 00 6E 00 80 99 
   788)       610.089 1  Rx        0079 -  8    80 00 00 00 00 00 80 8D 
   789)       610.345 1  Rx        007F -  8    46 31 00 00 00 00 FF FF 
   790)       610.559 1  Rx        0083 -  8    80 04 00 00 00 00 80 88 
   791)       611.156 1  Rx        0037 -  8    1F FE 00 00 0C 1C 50 B7 
   792)       611.455 1  Rx        0023 -  8    10 12 10 00 00 00 B5 C0 
   793)       612.180 1  Rx        0085 -  8    20 DD 04 00 00 00 00 28 
   794)       613.161 1  Rx        0093 -  8    80 FC 50 00 00 00 A1 A5 
   795)       616.532 1  Rx        009B -  8    15 00 00 55 00 79 00 FF 
   796)       618.495 1  Rx        00AD -  5    01 00 00 50 1A 
   797)       619.775 1  Rx        002F -  8    00 00 00 00 01 05 80 00 
   798)       620.073 1  Rx        0087 -  8    00 2C 00 00 00 64 80 B9 
   799)       620.287 1  Rx        0089 -  8    FF FF FF 6D FF FF 80 FF 
   800)       620.543 1  Rx        008B -  8    00 00 00 00 00 00 00 00 
   801)       620.756 1  Rx        00A7 -  8    00 00 00 A9 40 A7 80 77 
   802)       621.012 1  Rx        00DD -  8    00 00 00 00 00 80 00 00 
   803)       621.268 1  Rx        0037 -  8    1F FE 00 00 0C 1C 60 FD 
   804)       621.481 1  Rx        0023 -  8    10 12 10 00 00 00 C5 99 
   805)       622.121 1  Rx        0095 -  7    00 00 00 00 00 B0 9A 
   806)       623.145 1  Rx        00AB -  8    00 00 CD 0D 00 00 B0 3D 
   807)       624.169 1  Rx        00B3 -  8    00 00 00 00 00 00 B0 66 
   808)       626.388 1  Rx        00B1 -  3    00 00 BE 
   809)       626.516 1  Rx        0077 -  2    00 01 
   810)       629.758 1  Rx        002F -  8    00 00 00 00 01 0E 80 00 
   811)       630.014 1  Rx        0071 -  8    1F FF 00 00 70 00 90 45 
   812)       630.270 1  Rx        0079 -  8    80 18 00 B9 00 00 90 05 
   813)       630.484 1  Rx        007F -  8    46 31 00 00 00 00 FF FF 
   814)       630.740 1  Rx        0083 -  8    85 04 00 00 00 00 90 71 
   815)       631.124 1  Rx        0037 -  8    1F FE 00 00 0C 1C 70 30 
   816)       631.465 1  Rx        0023 -  8    10 12 10 00 00 00 D5 54 
   817)       632.148 1  Rx        0085 -  8    20 DD 04 00 00 00 00 2C 
   818)       633.129 1  Rx        0093 -  8    80 FC 50 00 00 00 B1 68 
   819)       634.068 1  Rx        0125 -  3    00 79 00 
   820)       636.542 1  Rx        009B -  8    15 00 00 55 00 79 00 FF 
   821)       638.505 1  Rx        00AD -  5    01 00 00 60 50 
   822)       639.742 1  Rx        002F -  8    00 00 00 00 01 18 80 00 
   823)       640.041 1  Rx        0087 -  8    00 5F 00 00 00 63 90 2B 
   824)       640.254 1  Rx        0089 -  8    FF FF FF 6D FF FF 90 FF 
   825)       640.468 1  Rx        008B -  8    00 00 00 00 00 00 00 00 
   826)       640.724 1  Rx        00A7 -  8    00 00 00 B7 40 B5 90 46 
   827)       641.150 1  Rx        0037 -  8    1F FE 00 00 0C 1C 80 4F 
   828)       641.492 1  Rx        0023 -  8    10 12 10 00 00 00 E5 1E 
   829)       642.132 1  Rx        0095 -  7    00 00 00 00 00 C0 C3 
   830)       643.156 1  Rx        00AB -  8    00 00 CD 0D 00 00 C0 64 
   831)       644.137 1  Rx        00B3 -  8    00 00 00 00 00 00 C0 3F 
   832)       646.398 1  Rx        00B1 -  3    00 10 73 
   833)       646.526 1  Rx        0077 -  2    00 01 
   834)       649.769 1  Rx        002F -  8    00 00 00 00 01 23 80 00 
   835)       649.982 1  Rx        0071 -  8    1F FF 00 00 72 00 A0 0C 
   836)       650.238 1  Rx        0079 -  8    80 3C 00 FC 00 00 A0 25 
   837)       650.494 1  Rx        007F -  8    46 31 00 00 00 00 FF FF 
   838)       650.707 1  Rx        0083 -  8    85 04 00 00 00 00 A0 3B 
   839)       651.177 1  Rx        0037 -  8    1F FE 00 00 0C 1C 90 82 
   840)       651.475 1  Rx        0023 -  8    10 12 10 00 00 00 F5 D3 
   841)       652.158 1  Rx        0085 -  8    20 DD 04 00 00 00 00 30 
   842)       653.139 1  Rx        0093 -  8    80 FC 50 00 00 00 C1 31 
   843)       656.510 1  Rx        009B -  8    15 00 00 55 00 79 00 FF 
   844)       658.515 1  Rx        00AD -  5    01 00 00 70 9D 
   845)       659.753 1  Rx        002F -  8    00 00 00 00 01 2F 80 00 
   846)       660.009 1  Rx        0087 -  8    00 73 00 00 00 61 A0 DE 
   847)       660.265 1  Rx        0089 -  8    FF FF FF 6D FF FF A0 FF 
   848)       660.521 1  Rx        008B -  8    00 00 00 00 00 00 00 00 
   849)       660.734 1  Rx        00A7 -  8    00 00 00 BC 40 BA A0 89 
   850)       661.161 1  Rx        0037 -  8    1F FE 00 00 0C 1C A0 C8 
   851)       661.459 1  Rx        0023 -  8    10 12 10 00 00 00 05 AC 
   852)       662.142 1  Rx        0095 -  7    00 00 00 00 00 D0 0E 
   853)       663.123 1  Rx        00AB -  8    00 00 CD 0D 00 00 D0 A9 
   854)       664.147 1  Rx        00B3 -  8    00 00 00 00 00 00 D0 F2 
   855)       666.366 1  Rx        00B1 -  3    00 20 39 
   856)       666.537 1  Rx        0077 -  2    00 01 
   857)       666.835 1  Rx        025D -  8    03 FC 00 00 7F 7F 7F 7F 
   858)       667.049 1  Rx        028B -  8    00 00 00 00 00 1E 00 00 
   859)       669.779 1  Rx        002F -  8    00 00 00 00 01 3A 80 00 
   860)       670.035 1  Rx        0071 -  8    1F FF 00 00 74 00 B0 C4 
   861)       670.248 1  Rx        0079 -  8    80 7A 01 25 00 00 B0 DE 
   862)       670.504 1  Rx        007F -  8    46 31 00 00 00 00 FF FF 
   863)       670.718 1  Rx        0083 -  8    85 04 00 00 00 00 B0 F6 
   864)       670.974 1  Rx        00DD -  8    00 00 00 00 00 80 00 00 
   865)       671.230 1  Rx        0037 -  8    1F FE 00 00 0C 1C B0 05 
   866)       671.486 1  Rx        0023 -  8    10 12 10 00 00 00 15 61 
   867)       672.126 1  Rx        0085 -  8    20 DD 04 00 00 00 00 34 
   868)       673.150 1  Rx        0093 -  8    80 FC 50 00 00 00 D1 FC 
   869)       676.606 1  Rx        009B -  8    15 00 04 55 00 79 00 FF 
   870)       676.862 1  Rx        0133 -  8    00 00 00 00 FF 03 0C FF 
   871)       677.118 1  Rx        03A9 -  8    0E 3C 1E FF FF 61 D0 02 
   872)       678.526 1  Rx        00AD -  5    01 00 00 80 E2 
   873)       679.763 1  Rx        002F -  8    00 00 00 00 01 46 80 00 
   874)       680.062 1  Rx        0087 -  8    00 83 00 00 00 60 B0 93 
   875)       680.232 1  Rx        0089 -  8    FF FF FF 6D FF FF B0 FF 
   876)       680.488 1  Rx        008B -  8    00 00 00 00 00 00 00 00 
   877)       680.744 1  Rx        00A7 -  8    00 00 00 C1 40 BF B0 91 
   878)       681.128 1  Rx        0037 -  8    1F FE 00 00 0C 1C C0 5C 
   879)       681.470 1  Rx        0023 -  8    10 12 10 00 00 00 25 2B 
   880)       681.896 1  Rx        0318 -  8    00 00 00 00 00 00 FF 00 
   881)       682.110 1  Rx        0095 -  7    00 00 00 00 00 E0 44 
   882)       683.134 1  Rx        00AB -  8    00 00 CD 0D 00 00 E0 E3 
   883)       683.560 1  Rx        0409 -  8    FD 23 BF FF FF FF FF FF 
   884)       684.158 1  Rx        00B3 -  8    00 00 00 00 00 00 E0 B8 
   885)       686.376 1  Rx        00B1 -  3    00 30 F4 
   886)       686.547 1  Rx        0077 -  2    00 01 
   887)       686.803 1  Rx        0332 -  8    00 E0 03 FF 00 00 03 E8 
   888)       687.059 1  Rx        0620 -  8    02 3E 00 00 00 00 00 00 
   889)       687.272 1  Rx        03E8 -  8    49 31 A2 43 00 0E 50 5C 
   890)       689.789 1  Rx        002F -  8    00 00 00 00 01 54 80 00 
   891)       690.045 1  Rx        0071 -  8    1F FF 00 00 77 00 C0 11 
   892)       690.259 1  Rx        0079 -  8    80 C2 01 57 00 00 C0 CD 
   893)       690.515 1  Rx        007F -  8    46 31 00 00 00 00 FF FF 
   894)       690.771 1  Rx        0083 -  8    85 04 00 00 00 00 C0 AF 
   895)       691.112 1  Rx        0037 -  8    1F FE 00 00 0C 1C D0 91 
   896)       691.496 1  Rx        0023 -  8    10 12 10 00 00 00 35 E6 
   897)       692.136 1  Rx        0085 -  8    20 DD 04 00 00 00 00 38 
   898)       693.117 1  Rx        0093 -  8    80 FC 50 00 00 00 E1 B6 
   899)       696.232 1  Rx        0129 -  4    01 00 00 00 
   900)       696.573 1  Rx        009B -  8    15 00 04 55 00 79 00 FF 
   901)       696.872 1  Rx        012B -  8    96 18 90 62 21 FF 7C FF 
   902)       697.085 1  Rx        0504 -  8    02 7E 00 C2 03 00 C8 0D 
   903)       697.341 1  Rx        013F -  8    FF FF C1 FB 01 34 00 00 
   904)       697.555 1  Rx        01C8 -  4    00 00 00 00 
   905)       698.536 1  Rx        00AD -  5    01 00 00 90 2F 
   906)       699.773 1  Rx        002F -  8    00 00 00 00 01 62 80 00 
   907)       700.029 1  Rx        0087 -  8    00 9C 00 00 00 5F C0 79 
   908)       700.243 1  Rx        0089 -  8    FF FF FF 6D FF FF C0 FF 
   909)       700.499 1  Rx        008B -  8    00 00 00 00 00 00 00 00 
   910)       700.755 1  Rx        00A7 -  8    00 00 00 C7 40 C5 C0 48 
   911)       701.139 1  Rx        0037 -  8    1F FE 00 00 0C 1C E0 DB 
   912)       701.480 1  Rx        0023 -  8    10 12 10 00 00 00 45 BF 
   913)       702.120 1  Rx        0095 -  7    00 00 00 00 00 F0 89 
   914)       702.973 1  Rx        02F2 -  8    00 00 00 00 00 00 00 00 
   915)       703.187 1  Rx        00AB -  8    00 00 CD 0D 00 00 F0 2E 
   916)       704.168 1  Rx        00B3 -  8    00 00 00 00 00 00 F0 75 
   917)       706.259 1  Rx        01C0 -  6    00 00 00 00 00 00 
   918)       706.387 1  Rx        0077 -  2    00 01 
   919)       706.600 1  Rx        00B1 -  3    00 40 AD 
   920)       706.813 1  Rx        025F -  8    00 00 00 00 00 00 00 00 
   921)       709.757 1  Rx        002F -  8    00 00 00 00 01 70 80 00 
   922)       710.013 1  Rx        0071 -  8    1F FF 00 00 78 00 D0 5A 
   923)       710.226 1  Rx        0079 -  8    81 14 01 95 00 00 D0 B6 
   924)       710.482 1  Rx        007F -  8    46 31 00 00 00 00 FF FF 
   925)       710.696 1  Rx        0083 -  8    85 04 00 00 00 00 D0 62 
   926)       711.165 1  Rx        0037 -  8    1F FE 00 00 0C 1C F0 16 
   927)       711.464 1  Rx        0023 -  8    10 12 10 00 00 00 55 72 
   928)       712.146 1  Rx        0085 -  8    20 DD 04 00 00 00 00 3C 
   929)       713.170 1  Rx        0093 -  8    80 FC 50 00 00 00 F1 7B 
   930)       716.328 1  Rx        02A7 -  8    00 00 00 00 00 00 00 00 
   931)       716.541 1  Rx        009B -  8    15 00 04 55 00 79 00 FF 
   932)       716.797 1  Rx        0332 -  8    00 E0 03 FF 00 00 03 E8 
   933)       717.053 1  Rx        03EB -  8    43 E8 0D 7A 0A A0 09 8D 
   934)       718.504 1  Rx        00AD -  5    01 00 00 A0 65 
   935)       719.784 1  Rx        002F -  8    00 00 00 00 01 80 80 00 
   936)       719.997 1  Rx        0087 -  8    00 B6 00 00 00 5D D0 82 
   937)       720.253 1  Rx        0089 -  8    FF FF FF 6D FF FF D0 FF 
   938)       720.509 1  Rx        008B -  8    00 00 00 00 00 00 00 00 
   939)       720.722 1  Rx        00A7 -  8    00 00 00 CE 40 CC D0 92 
   940)       720.978 1  Rx        00DD -  8    00 00 00 00 00 80 00 00 
   941)       721.234 1  Rx        0037 -  8    1F FE 00 00 0C 1C 00 69 
   942)       721.490 1  Rx        0023 -  8    10 12 10 00 00 00 65 38 
   943)       722.130 1  Rx        0095 -  7    00 00 00 00 00 00 F6 
   944)       723.154 1  Rx        00AB -  8    00 00 CD 0D 00 00 00 51 
   945)       724.178 1  Rx        00B3 -  8    00 00 00 00 00 00 00 0A 
   946)       726.397 1  Rx        00B1 -  3    00 50 60 
   947)       726.525 1  Rx        0077 -  2    00 01 
   948)       726.781 1  Rx        0230 -  8    00 34 31 08 00 00 00 00 
   949)       729.725 1  Rx        002F -  8    00 00 00 00 01 8C 80 00 
   950)       729.981 1  Rx        0071 -  8    1F FF 00 00 7A 00 E0 13 
   951)       730.237 1  Rx        0079 -  8    81 66 01 D3 00 00 E0 E1 
   952)       730.450 1  Rx        007F -  8    46 31 00 00 00 00 FF FF 
   953)       730.706 1  Rx        0083 -  8    85 04 00 00 00 00 E0 28 
   954)       731.133 1  Rx        0037 -  8    1F FE 00 00 0C 1C 10 A4 
   955)       731.474 1  Rx        0023 -  8    10 12 10 00 00 00 75 F5 
   956)       732.157 1  Rx        0085 -  8    20 DD 04 00 00 00 00 00 
   957)       733.181 1  Rx        0093 -  8    80 FC 50 00 00 00 01 04 
   958)       734.077 1  Rx        0125 -  3    00 79 00 
   959)       736.509 1  Rx        009B -  8    15 00 04 55 00 79 00 FF 
   960)       736.807 1  Rx        0248 -  8    00 00 FF FF FF 03 FF FF 
   961)       736.978 1  Rx        02B1 -  5    7F 0F 08 7F 7F 
   962)       738.514 1  Rx        00AD -  5    01 00 00 B0 A8 
   963)       739.751 1  Rx        002F -  8    00 00 00 00 01 98 80 00 
   964)       740.050 1  Rx        0087 -  8    00 CE 00 00 00 5B E0 1B 
   965)       740.221 1  Rx        0089 -  8    FF FF FF 6D FF FF E0 FF 
   966)       740.477 1  Rx        008B -  8    00 00 00 00 00 00 00 00 
   967)       740.733 1  Rx        00A7 -  8    00 00 00 D4 40 D2 E0 1D 
   968)       741.159 1  Rx        0037 -  8    1F FE 00 00 0C 1C 20 EE 
   969)       741.501 1  Rx        0023 -  8    10 12 10 00 00 00 85 8A 
   970)       742.141 1  Rx        0095 -  7    00 00 00 00 00 10 3B 
   971)       743.165 1  Rx        00AB -  8    00 00 CD 0D 00 00 10 9C 
   972)       744.189 1  Rx        00B3 -  8    00 00 00 00 00 00 10 C7 
   973)       746.407 1  Rx        00B1 -  3    00 60 2A 
   974)       746.535 1  Rx        0077 -  2    00 01 
   975)       749.765 1  Rx        002F -  8    00 00 00 00 01 A2 80 00 
   976)       750.021 1  Rx        0071 -  8    1F FF 00 00 7D 00 F0 54 
   977)       750.277 1  Rx        0079 -  8    81 AF 02 08 00 00 F0 8C 
   978)       750.491 1  Rx        007F -  8    46 31 00 00 00 00 FF FF 
   979)       750.747 1  Rx        0083 -  8    85 04 00 00 00 00 F0 E5 
   980)       751.173 1  Rx        0037 -  8    1F FE 00 00 0C 1C 30 23 
   981)       751.515 1  Rx        0023 -  8    10 12 10 00 00 00 95 47 
   982)       752.197 1  Rx        0085 -  8    20 DD 04 00 00 00 00 04 
   983)       753.178 1  Rx        0093 -  8    80 FC 50 00 00 00 11 C9 
   984)       756.549 1  Rx        009B -  8    15 00 04 55 00 79 00 FF 
   985)       756.805 1  Rx        0261 -  8    19 66 17 F0 17 AF 03 E3 
   986)       758.554 1  Rx        00AD -  5    01 00 00 C0 F1 
   987)       759.792 1  Rx        002F -  8    00 00 00 00 01 AB 80 00 
   988)       760.090 1  Rx        0087 -  8    00 E2 00 00 00 5A F0 BD 
   989)       760.261 1  Rx        0089 -  8    FF FF FF 6D FF FF F0 FF 
   990)       760.517 1  Rx        008B -  8    00 00 00 00 00 00 00 00 
   991)       760.773 1  Rx        00A7 -  8    00 00 00 DA 40 D7 F0 44 
   992)       761.157 1  Rx        0037 -  8    1F FE 00 00 0C 1C 40 7A 
   993)       761.498 1  Rx        0023 -  8    10 12 10 00 00 00 A5 0D 
   994)       762.138 1  Rx        0095 -  7    00 00 00 00 00 20 71 
   995)       763.162 1  Rx        00AB -  8    00 00 CD 0D 00 00 20 D6 
   996)       764.186 1  Rx        00B3 -  8    00 00 00 00 00 00 20 8D 
   997)       766.405 1  Rx        00B1 -  3    00 70 E7 
   998)       766.576 1  Rx        0077 -  2    00 01 
   999)       766.832 1  Rx        0297 -  8    F0 FF 03 00 00 0C 00 FF 
  1000)       769.648 1  Rx        002F -  8    00 00 00 00 01 B2 80 00 
  1001)       769.904 1  Rx        0071 -  8    1F FF 00 00 7E 00 00 A7 
  1002)       770.117 1  Rx        0079 -  8    81 ED 02 33 00 00 00 66 
  1003)       770.373 1  Rx        007F -  8    46 31 00 00 00 00 FF FF 
  1004)       770.629 1  Rx        0083 -  8    85 04 00 00 00 00 00 9A 
  1005)       770.885 1  Rx        00DD -  8    00 00 00 00 00 80 00 00 
  1006)       771.184 1  Rx        0037 -  8    1F FE 00 00 0C 1C 50 B7 
  1007)       771.525 1  Rx        0023 -  8    10 12 10 00 00 00 B5 C0 
  1008)       772.208 1  Rx        0085 -  8    20 DD 04 00 00 00 00 08 
  1009)       773.189 1  Rx        0093 -  8    80 FC 50 00 00 00 21 83 
  1010)       776.602 1  Rx        0423 -  8    FD 00 84 0F 00 00 00 00 
  1011)       776.858 1  Rx        009B -  8    15 00 04 55 00 79 00 FF 
  1012)       777.114 1  Rx        0133 -  8    00 00 00 00 FF 03 0C FF 
  1013)       777.370 1  Rx        022D -  8    FF 00 00 00 00 00 00 00 
  1014)       777.626 1  Rx        02AD -  8    00 00 00 00 00 00 FF FF 
  1015)       778.565 1  Rx        00AD -  5    01 00 00 D0 3C 
  1016)       779.802 1  Rx        002F -  8    00 00 00 00 01 B9 80 00 
  1017)       780.058 1  Rx        0087 -  8    00 F4 00 00 00 59 00 8B 
  1018)       780.271 1  Rx        0089 -  8    FF FF FF 6D FF FF 00 FF 
  1019)       780.527 1  Rx        008B -  8    00 00 00 00 00 00 00 00 
  1020)       780.783 1  Rx        00A7 -  8    00 00 00 DE 40 DC 00 FB 
  1021)       781.167 1  Rx        0037 -  8    1F FE 00 00 0C 1C 60 FD 
  1022)       781.509 1  Rx        0023 -  8    10 12 10 00 00 00 C5 99 
  1023)       781.935 1  Rx        0318 -  8    00 00 00 00 00 00 FF 00 
  1024)       782.149 1  Rx        0095 -  7    00 00 00 00 00 30 BC 
  1025)       783.173 1  Rx        00AB -  8    00 00 CD 0D 00 00 30 1B 
  1026)       784.197 1  Rx        00B3 -  8    00 00 00 00 00 00 30 40 
  1027)       785.903 1  Rx        0296 -  8    60 00 00 25 25 25 24 FF 
  1028)       786.415 1  Rx        00B1 -  3    00 80 98 
  1029)       786.543 1  Rx        0077 -  2    00 01 
  1030)       786.842 1  Rx        0332 -  8    00 E1 03 FF 00 00 03 E8 
  1031)       787.098 1  Rx        0350 -  8    1F 2D 08 07 E5 06 18 39 
  1032)       789.786 1  Rx        002F -  8    00 00 00 00 01 BF 80 00 
  1033)       789.999 1  Rx        0071 -  8    1F FF 00 00 80 00 10 EB 
  1034)       790.255 1  Rx        0079 -  8    82 24 02 5E 00 00 10 61 
  1035)       790.511 1  Rx        007F -  8    46 31 00 00 00 00 FF FF 
  1036)       790.767 1  Rx        0083 -  8    85 04 00 00 00 00 10 57 
  1037)       791.194 1  Rx        0037 -  8    1F FE 00 00 0C 1C 70 30 
  1038)       791.535 1  Rx        0023 -  8    10 12 10 00 00 00 D5 54 
  1039)       792.218 1  Rx        0085 -  8    20 DD 04 00 00 00 00 0C 
  1040)       793.199 1  Rx        0093 -  8    80 FC 50 00 00 00 31 4E 
  1041)       796.228 1  Rx        0129 -  4    01 00 00 00 
  1042)       796.570 1  Rx        009B -  8    15 00 04 55 00 79 00 FF 
  1043)       796.868 1  Rx        012B -  8    96 18 90 61 21 FF 7D FF 
  1044)       797.082 1  Rx        013F -  8    FF FF C1 30 01 33 00 00 
  1045)       797.338 1  Rx        0281 -  8    E8 23 00 21 00 00 00 7C 
  1046)       797.551 1  Rx        0358 -  4    FF 01 FF 00 
  1047)       798.532 1  Rx        00AD -  5    01 00 00 E0 76 
  1048)       799.812 1  Rx        002F -  8    00 00 00 00 01 C4 80 00 
  1049)       800.068 1  Rx        0087 -  8    01 05 00 00 00 58 10 DD 
  1050)       800.282 1  Rx        0089 -  8    FF FF FF 6D FF FF 10 FF 
  1051)       800.538 1  Rx        008B -  8    00 00 00 00 00 00 00 00 
  1052)       800.751 1  Rx        00A7 -  8    00 00 00 E3 40 E0 10 A0 
  1053)       801.178 1  Rx        0037 -  8    1F FE 00 00 0C 1C 80 4F 
  1054)       801.519 1  Rx        0023 -  8    10 12 10 00 00 00 E5 1E 
  1055)       802.159 1  Rx        0095 -  7    00 00 00 00 00 40 E5 
  1056)       803.012 1  Rx        02F2 -  8    00 00 00 00 00 00 00 00 
  1057)       803.226 1  Rx        00AB -  8    00 00 CD 0D 00 00 40 42 
  1058)       804.207 1  Rx        00B3 -  8    00 00 00 00 00 00 40 19 
  1059)       806.468 1  Rx        00B1 -  3    00 90 55 
  1060)       806.596 1  Rx        0077 -  2    00 01 
  1061)       806.852 1  Rx        0283 -  8    00 08 00 00 00 01 00 00 
  1062)       807.066 1  Rx        035C -  6    00 00 00 00 00 00 
  1063)       809.796 1  Rx        002F -  8    00 00 00 00 01 C8 80 00 
  1064)       810.052 1  Rx        0071 -  8    1F FF 00 00 82 00 20 A2 
  1065)       810.266 1  Rx        0079 -  8    82 54 02 85 00 00 20 E5 
  1066)       810.522 1  Rx        007F -  8    46 31 00 00 00 00 FF FF 
  1067)       810.778 1  Rx        0083 -  8    85 04 00 00 00 00 20 1D 
  1068)       811.204 1  Rx        0037 -  8    1F FE 00 00 0C 1C 90 82 
  1069)       811.503 1  Rx        0023 -  8    10 12 10 01 00 00 F6 69 
  1070)       812.186 1  Rx        0085 -  8    20 DD 04 00 00 00 00 10 
  1071)       812.996 1  Rx        01F7 -  8    FF FF 0F FF 00 80 00 00 
  1072)       813.210 1  Rx        0093 -  8    80 FC 50 00 00 00 41 17 
  1073)       816.580 1  Rx        009B -  8    15 00 04 55 00 79 00 FF 
  1074)       816.751 1  Rx        03C9 -  4    71 3F 00 00 
  1075)       818.543 1  Rx        00AD -  5    01 00 00 F0 BB 
  1076)       819.780 1  Rx        002F -  8    00 00 00 00 01 CC 80 00 
  1077)       820.079 1  Rx        0087 -  8    01 14 00 00 00 57 20 66 
  1078)       820.249 1  Rx        0089 -  8    FF FF FF 6D FF FF 20 FF 
  1079)       820.505 1  Rx        008B -  8    00 00 00 00 00 00 00 00 
  1080)       820.761 1  Rx        00A7 -  8    00 00 00 E7 40 E5 20 C5 
  1081)       821.017 1  Rx        00DD -  8    00 00 00 00 00 80 00 00 
  1082)       821.231 1  Rx        0037 -  8    1F FE 00 00 0C 1C A0 C8 
  1083)       821.487 1  Rx        0023 -  8    10 12 10 00 00 00 05 AC 
  1084)       822.169 1  Rx        0095 -  7    00 00 00 00 00 50 28 
  1085)       822.980 1  Rx        03AA -  8    00 00 00 00 00 00 00 00 
  1086)       823.236 1  Rx        00AB -  8    00 00 CD 0D 00 00 50 8F 
  1087)       824.175 1  Rx        00B3 -  8    00 00 00 00 00 00 50 D4 
  1088)       826.436 1  Rx        00B1 -  3    00 A0 1F 
  1089)       826.607 1  Rx        0077 -  2    00 01 
  1090)       826.863 1  Rx        0291 -  8    40 00 06 00 00 01 00 00 
  1091)       829.807 1  Rx        002F -  8    00 00 00 00 01 CF 80 00 
  1092)       830.063 1  Rx        0071 -  8    1F FF 00 00 82 00 30 6F 
  1093)       830.276 1  Rx        0079 -  8    82 7C 02 A6 00 00 30 FA 
  1094)       830.532 1  Rx        007F -  8    46 31 00 00 00 00 FF FF 
  1095)       830.745 1  Rx        0083 -  8    85 04 00 00 00 00 30 D0 
  1096)       831.172 1  Rx        0037 -  8    1F FE 00 00 0C 1C B0 05 
  1097)       831.471 1  Rx        0023 -  8    10 12 10 00 00 00 16 46 
  1098)       832.196 1  Rx        0085 -  8    20 DD 04 00 00 00 00 14 
  1099)       832.964 1  Rx        02A1 -  8    80 08 FC F3 A9 FE 7D FE 
  1100)       833.220 1  Rx        0093 -  8    80 FC 50 00 00 00 51 DA 
  1101)       834.116 1  Rx        0125 -  3    00 79 00 
  1102)       836.676 1  Rx        009B -  8    15 00 04 55 00 79 00 FF 
  1103)       836.932 1  Rx        0289 -  8    30 00 07 1E C0 FE 80 00 
  1104)       838.553 1  Rx        00AD -  5    01 00 00 00 C4 
  1105)       839.790 1  Rx        002F -  8    00 00 00 00 01 D2 80 00 
  1106)       840.089 1  Rx        0087 -  8    01 22 00 00 00 56 30 52 
  1107)       840.260 1  Rx        0089 -  8    FF FF FF 6D FF FF 30 FF 
  1108)       840.516 1  Rx        008B -  8    00 00 00 00 00 00 00 00 
  1109)       840.772 1  Rx        00A7 -  8    00 00 00 EB 40 E8 30 E1 
  1110)       841.198 1  Rx        0037 -  8    1F FE 00 00 0C 1C C0 5C 
  1111)       841.540 1  Rx        0023 -  8    10 12 10 00 00 00 26 0C 
  1112)       842.180 1  Rx        0095 -  7    00 00 00 00 00 60 62 
  1113)       842.990 1  Rx        027B -  8    01 FB 07 FF 00 00 00 00 
  1114)       843.246 1  Rx        00AB -  8    00 00 CD 0D 00 00 60 C5 
  1115)       844.185 1  Rx        00B3 -  8    00 00 00 00 00 00 60 9E 
  1116)       846.446 1  Rx        0077 -  2    00 01 
  1117)       846.574 1  Rx        00B1 -  3    00 B0 D2 
  1118)       846.830 1  Rx        026F -  8    00 C0 FF FF FF 7F 7F 7F 
  1119)       849.646 1  Rx        002F -  8    00 00 00 00 01 D5 80 00 
  1120)       849.902 1  Rx        0071 -  8    1F FF 00 00 83 00 40 B9 
  1121)       850.116 1  Rx        0079 -  8    82 A0 02 C5 00 00 40 2C 
  1122)       850.372 1  Rx        007F -  8    46 31 00 00 00 00 FF FF 
  1123)       850.628 1  Rx        0083 -  8    85 04 00 00 00 00 40 89 
  1124)       851.225 1  Rx        0037 -  8    1F FE 00 00 0C 1C D0 91 
  1125)       851.524 1  Rx        0023 -  8    10 12 10 00 00 00 36 C1 
  1126)       852.206 1  Rx        0085 -  8    20 DD 04 00 00 00 00 18 
  1127)       853.017 1  Rx        03AB -  8    00 47 00 00 00 00 00 00 
  1128)       853.230 1  Rx        0093 -  8    80 FC 50 00 00 00 61 90 
  1129)       856.558 1  Rx        009B -  8    15 00 04 55 00 79 00 FF 
  1130)       856.814 1  Rx        0265 -  8    00 00 00 00 00 00 06 00 
  1131)       858.564 1  Rx        00AD -  5    01 00 00 10 09 
  1132)       859.801 1  Rx        002F -  8    00 00 00 00 01 D7 80 00 
  1133)       860.099 1  Rx        0087 -  8    01 2E 00 00 00 56 40 04 
  1134)       860.270 1  Rx        0089 -  8    FF FF FF 6D FF FF 40 FF 
  1135)       860.526 1  Rx        008B -  8    00 00 00 00 00 00 00 00 
  1136)       860.782 1  Rx        00A7 -  8    00 00 00 EE 40 EB 40 BF 
  1137)       861.166 1  Rx        0037 -  8    1F FE 00 00 0C 1C E0 DB 
  1138)       861.507 1  Rx        0023 -  8    10 12 10 00 00 00 46 98 
  1139)       862.147 1  Rx        0095 -  7    00 00 00 00 00 70 AF 
  1140)       863.001 1  Rx        027A -  8    00 7A 00 00 01 6B EB 07 
  1141)       863.214 1  Rx        00AB -  8    00 00 CD 0D 00 00 70 08 
  1142)       864.195 1  Rx        00B3 -  8    00 00 00 00 00 00 70 53 
  1143)       866.414 1  Rx        0077 -  2    00 01 
  1144)       866.585 1  Rx        00B1 -  3    00 C0 8B 
  1145)       869.785 1  Rx        002F -  8    00 00 00 00 01 D9 80 00 
  1146)       870.041 1  Rx        0071 -  8    1F FF 00 00 84 00 50 FE 
  1147)       870.254 1  Rx        0079 -  8    82 BF 02 E0 00 00 50 A9 
  1148)       870.510 1  Rx        007F -  8    46 31 00 00 00 00 FF FF 
  1149)       870.766 1  Rx        0083 -  8    85 04 00 00 00 00 50 44 
  1150)       870.979 1  Rx        00DD -  8    00 00 00 00 00 80 00 00 
  1151)       871.449 1  Rx        0400 -  8    FD 01 BF FF FF FF FF FF 
  1152)       871.705 1  Rx        0023 -  8    10 12 10 00 00 00 56 55 
  1153)       876.569 1  Rx        009B -  8    15 00 04 55 00 79 00 FF 
  1154)       876.825 1  Rx        0133 -  8    00 00 00 00 FF 03 0C FF 
  1155)       878.531 1  Rx        00AD -  5    01 00 00 20 43 
  1156)       879.641 1  Rx        002F -  8    00 00 00 00 01 DB 80 00 
  1157)       879.854 1  Rx        0087 -  8    01 37 00 00 00 55 50 45 
  1158)       880.110 1  Rx        0089 -  8    FF FF FF 6D FF FF 50 FF 
  1159)       880.366 1  Rx        008B -  8    00 00 00 00 00 00 00 00 
  1160)       880.579 1  Rx        00A7 -  8    00 00 00 F0 40 EE 50 C3 
  1161)       881.518 1  Rx        0023 -  8    10 12 10 00 00 00 66 1F 
  1162)       881.944 1  Rx        0318 -  8    00 00 00 00 00 00 FF 00 
  1163)       886.424 1  Rx        0077 -  2    00 01 
  1164)       886.595 1  Rx        00B1 -  3    00 D0 46 
  1165)       886.851 1  Rx        0332 -  8    00 E0 03 FF 00 00 03 E8 
  1166)       889.624 1  Rx        002F -  8    00 00 00 00 01 DC 80 00 
  1167)       889.838 1  Rx        0071 -  8    1F FF 00 00 85 00 60 3B 
  1168)       890.094 1  Rx        0079 -  8    82 D8 02 F0 00 00 60 71 
  1169)       890.350 1  Rx        007F -  8    46 31 00 00 00 00 FF FF 
  1170)       890.606 1  Rx        0083 -  8    85 04 00 00 00 00 60 0E 
  1171)       891.544 1  Rx        0023 -  8    10 12 10 01 00 00 77 52 
  1172)       896.238 1  Rx        0129 -  4    01 00 00 00 
  1173)       896.536 1  Rx        009B -  8    15 00 04 55 00 79 00 FF 
  1174)       896.792 1  Rx        012B -  8    96 18 90 62 21 FF 7D FF 
  1175)       897.048 1  Rx        013F -  8    FF FF C1 1E 01 33 00 00 
  1176)       898.542 1  Rx        00AD -  5    01 00 00 30 8E 
  1177)       899.651 1  Rx        002F -  8    00 00 00 00 01 DE 80 00 
  1178)       899.864 1  Rx        0087 -  8    01 3D 00 00 00 55 60 89 
  1179)       900.120 1  Rx        0089 -  8    FF FF FF 6D FF FF 60 FF 
  1180)       900.376 1  Rx        008B -  8    00 00 00 00 00 00 00 00 
  1181)       900.590 1  Rx        00A7 -  8    00 00 00 F2 40 EF 60 E2 
  1182)       901.486 1  Rx        0023 -  8    10 12 10 00 00 00 86 AD 
  1183)       903.021 1  Rx        02F2 -  8    00 00 00 00 00 00 00 00 
  1184)       903.277 1  Rx        03AC -  8    00 00 00 01 19 00 01 C6 
  1185)       906.307 1  Rx        01C0 -  6    00 00 00 00 00 00 
  1186)       906.435 1  Rx        0077 -  2    00 01 
  1187)       906.605 1  Rx        00B1 -  3    00 E0 0C 
  1188)       909.635 1  Rx        002F -  8    00 00 00 00 01 DF 80 00 
  1189)       909.891 1  Rx        0071 -  8    1F FF 00 00 85 00 70 F6 
  1190)       910.104 1  Rx        0079 -  8    82 EB 02 FF 00 00 70 22 
  1191)       910.360 1  Rx        007F -  8    46 31 00 00 00 00 FF FF 
  1192)       910.573 1  Rx        0083 -  8    85 04 00 00 00 00 70 C3 
  1193)       911.512 1  Rx        0023 -  8    10 12 10 00 00 00 96 60 
  1194)       916.504 1  Rx        009B -  8    15 00 04 55 00 79 00 FF 
  1195)       918.552 1  Rx        00AD -  5    01 00 00 40 D7 
  1196)       919.619 1  Rx        002F -  8    00 00 00 00 01 E0 80 00 
  1197)       919.875 1  Rx        0087 -  8    01 43 00 00 00 55 70 AB 
  1198)       920.088 1  Rx        0089 -  8    FF FF FF 6D FF FF 70 FF 
  1199)       920.344 1  Rx        008B -  8    00 00 00 00 00 00 00 00 
  1200)       920.600 1  Rx        00A7 -  8    00 00 00 F3 40 F1 70 E9 
  1201)       920.856 1  Rx        00DD -  8    00 00 00 00 00 80 00 00 
  1202)       921.539 1  Rx        0023 -  8    10 12 10 00 00 00 A6 2A 
  1203)       926.445 1  Rx        00B1 -  3    00 F0 C1 
  1204)       926.616 1  Rx        0077 -  2    00 01 
  1205)       929.602 1  Rx        002F -  8    00 00 00 00 01 E1 80 00 
  1206)       929.858 1  Rx        0071 -  8    1F FF 00 00 85 00 80 89 
  1207)       930.114 1  Rx        0079 -  8    82 FB 03 0B 00 00 80 A3 
  1208)       930.370 1  Rx        007F -  8    46 31 00 00 00 00 FF FF 
  1209)       930.584 1  Rx        0083 -  8    85 04 00 00 00 00 80 BC 
  1210)       931.522 1  Rx        0023 -  8    10 12 10 00 00 00 B6 E7 
  1211)       936.514 1  Rx        009B -  8    15 00 04 55 00 79 00 FF 
  1212)       938.562 1  Rx        00AD -  5    01 00 00 50 1A 
  1213)       939.629 1  Rx        002F -  8    00 00 00 00 01 E2 80 00 
  1214)       939.885 1  Rx        0087 -  8    01 47 00 00 00 55 80 D1 
  1215)       940.098 1  Rx        0089 -  8    FF FF FF 6D FF FF 80 FF 
  1216)       940.354 1  Rx        008B -  8    00 00 00 00 00 00 00 00 
  1217)       940.568 1  Rx        00A7 -  8    00 00 00 F4 40 F2 80 B6 
  1218)       941.549 1  Rx        0023 -  8    10 12 10 00 00 00 C6 BE 
  1219)       946.413 1  Rx        0077 -  2    00 01 
  1220)       946.583 1  Rx        00B1 -  3    00 00 BE 
  1221)       949.613 1  Rx        002F -  8    00 00 00 00 01 E3 80 00 
  1222)       949.869 1  Rx        0071 -  8    1F FF 00 00 85 00 90 44 
  1223)       950.082 1  Rx        0079 -  8    83 08 03 14 00 00 90 78 
  1224)       950.338 1  Rx        007F -  8    46 31 00 00 00 00 FF FF 
  1225)       950.594 1  Rx        0083 -  8    85 04 00 00 00 00 90 71 
  1226)       951.533 1  Rx        0023 -  8    10 12 10 00 00 00 D6 73 
  1227)       953.026 1  Rx        03AD -  8    00 00 00 00 00 00 00 00 
  1228)       956.525 1  Rx        009B -  8    15 00 04 55 00 79 00 FF 
  1229)       958.445 1  Rx        0401 -  8    FD 02 04 0F 02 00 00 00 
  1230)       958.658 1  Rx        00AD -  5    01 00 00 60 50 
  1231)       959.639 1  Rx        002F -  8    00 00 00 00 01 E4 80 00 
  1232)       959.895 1  Rx        0087 -  8    01 4A 00 00 00 55 90 55 
  1233)       960.109 1  Rx        0089 -  8    FF FF FF 6D FF FF 90 FF 
  1234)       960.365 1  Rx        008B -  8    00 00 00 00 00 00 00 00 
  1235)       960.621 1  Rx        00A7 -  8    00 00 00 F5 40 F3 90 AA 
  1236)       961.517 1  Rx        0023 -  8    10 12 10 00 00 00 E6 39 
  1237)       966.423 1  Rx        0077 -  2    00 01 
  1238)       966.594 1  Rx        00B1 -  3    00 10 73 
  1239)       969.623 1  Rx        002F -  8    00 00 00 00 01 E5 80 00 
  1240)       969.879 1  Rx        0071 -  8    1F FF 00 00 85 00 A0 0E 
  1241)       970.092 1  Rx        0079 -  8    83 11 03 1B 00 00 A0 02 
  1242)       970.348 1  Rx        007F -  8    46 31 00 00 00 00 FF FF 
  1243)       970.604 1  Rx        0083 -  8    85 04 00 00 00 00 A0 3B 
  1244)       970.860 1  Rx        00DD -  8    00 00 00 00 00 80 00 00 
  1245)       971.543 1  Rx        0023 -  8    10 12 10 00 00 00 F6 F4 
  1246)       976.663 1  Rx        009B -  8    15 00 04 55 00 79 00 FF 
  1247)       976.919 1  Rx        0133 -  8    00 00 00 00 FF 03 0C FF 
  1248)       978.540 1  Rx        00AD -  5    01 00 00 70 9D 
  1249)       979.607 1  Rx        002F -  8    00 00 00 00 01 E5 80 00 
  1250)       979.863 1  Rx        0087 -  8    01 4D 00 00 00 55 A0 D0 
  1251)       980.119 1  Rx        0089 -  8    FF FF FF 6D FF FF A0 FF 
  1252)       980.375 1  Rx        008B -  8    00 00 00 00 00 00 00 00 
  1253)       980.588 1  Rx        00A7 -  8    00 00 00 F6 40 F4 A0 A3 
  1254)       981.527 1  Rx        0023 -  8    10 12 10 00 00 00 06 8B 
  1255)       981.954 1  Rx        0318 -  8    00 00 00 00 00 00 FF 00 
  1256)       986.476 1  Rx        00B1 -  3    00 20 39 
  1257)       986.604 1  Rx        0077 -  2    00 01 
  1258)       986.860 1  Rx        0332 -  8    00 E1 03 FF 00 00 03 E8 
  1259)       989.633 1  Rx        002F -  8    00 00 00 00 01 E6 80 00 
  1260)       989.889 1  Rx        0071 -  8    1F FF 00 00 85 00 B0 C3 
  1261)       990.103 1  Rx        0079 -  8    83 1A 03 23 00 00 B0 FC 
  1262)       990.359 1  Rx        007F -  8    46 31 00 00 00 00 FF FF 
  1263)       990.572 1  Rx        0083 -  8    85 04 00 00 00 00 B0 F6 
  1264)       991.553 1  Rx        0023 -  8    10 12 10 00 00 00 16 46 
  1265)       996.247 1  Rx        0129 -  4    22 00 00 00 
  1266)       996.545 1  Rx        009B -  8    15 00 04 55 00 79 00 FF 
  1267)       996.801 1  Rx        012B -  8    96 18 90 62 21 FF 7D FF 
  1268)       997.057 1  Rx        013F -  8    FF FF C1 2E 01 33 00 00 
  1269)       998.551 1  Rx        00AD -  5    01 00 00 80 E2 
  1270)       999.617 1  Rx        002F -  8    00 00 00 00 01 E7 80 00 
  1271)       999.873 1  Rx        0087 -  8    01 50 00 00 00 55 B0 40 
  1272)      1000.087 1  Rx        0089 -  8    FF FF FF 6D FF FF B0 FF 
  1273)      1000.343 1  Rx        008B -  8    00 00 00 00 00 00 00 00 
  1274)      1000.599 1  Rx        00A7 -  8    00 00 00 F7 40 F4 B0 F3 
  1275)      1001.239 1  Rx        020C -  8    05 0B 21 31 89 CF 58 40 
  1276)      1001.537 1  Rx        0023 -  8    10 12 10 00 00 00 26 0C 
  1277)      1002.988 1  Rx        02F2 -  8    00 00 00 00 00 00 00 00 
  1278)      1003.287 1  Rx        03AE -  8    00 00 00 00 00 00 00 00 
  1279)      1006.444 1  Rx        0077 -  2    00 01 
  1280)      1006.615 1  Rx        00B1 -  3    00 30 F4 
  1281)      1009.601 1  Rx        002F -  8    00 00 00 00 01 E7 80 00 
  1282)      1009.900 1  Rx        0071 -  8    1F FF 00 00 85 00 C0 9A 
  1283)      1010.113 1  Rx        0079 -  8    83 20 03 27 00 00 C0 51 
  1284)      1010.369 1  Rx        007F -  8    46 31 00 00 00 00 FF FF 
  1285)      1010.582 1  Rx        0083 -  8    85 04 00 00 00 00 C0 AF 
  1286)      1011.564 1  Rx        0023 -  8    10 12 10 00 00 00 36 C1 
  1287)      1013.057 1  Rx        020E -  6    AB 0A 9C 05 00 00 
  1288)      1016.513 1  Rx        009B -  8    15 00 04 55 00 79 00 FF 
  1289)      1018.561 1  Rx        00AD -  5    01 00 00 90 2F 
  1290)      1019.628 1  Rx        002F -  8    00 00 00 00 01 E7 80 00 
  1291)      1019.926 1  Rx        0087 -  8    01 51 00 00 00 55 C0 5F 
  1292)      1020.097 1  Rx        0089 -  8    FF FF FF 6D FF FF C0 FF 
  1293)      1020.353 1  Rx        008B -  8    00 00 00 00 00 00 00 00 
  1294)      1020.609 1  Rx        00A7 -  8    00 00 00 F7 40 F5 C0 E6 
  1295)      1020.865 1  Rx        00DD -  8    00 00 00 00 00 80 00 00 
  1296)      1021.505 1  Rx        0023 -  8    10 12 10 00 00 00 47 85 
  1297)      1026.241 1  Rx        0129 -  4    36 00 00 00 
  1298)      1026.497 1  Rx        00B1 -  3    00 40 AD 
  1299)      1026.625 1  Rx        0077 -  2    00 02 
  1300)      1029.612 1  Rx        002F -  8    00 00 00 00 01 E7 80 00 
  1301)      1029.868 1  Rx        0071 -  8    1F FF 00 00 85 00 D0 57 
  1302)      1030.081 1  Rx        0079 -  8    83 24 03 27 00 00 D0 99 
  1303)      1030.337 1  Rx        007F -  8    46 31 00 00 00 00 FF FF 
  1304)      1030.593 1  Rx        0083 -  8    85 04 00 00 00 00 D0 62 
  1305)      1031.489 1  Rx        0023 -  8    10 12 10 00 00 00 56 55 
  1306)      1036.523 1  Rx        009B -  8    15 00 04 55 00 79 00 FF 
  1307)      1038.529 1  Rx        00AD -  5    01 00 00 A0 65 
  1308)      1039.638 1  Rx        002F -  8    00 00 00 00 01 E7 80 00 
  1309)      1039.894 1  Rx        0087 -  8    01 51 00 00 00 55 D0 92 
  1310)      1040.107 1  Rx        0089 -  8    FF FF FF 6D FF FF D0 FF 
  1311)      1040.363 1  Rx        008B -  8    00 00 00 00 00 00 00 00 
  1312)      1040.577 1  Rx        00A7 -  8    00 00 00 F7 40 F4 D0 67 
  1313)      1041.558 1  Rx        0023 -  8    10 12 10 00 00 00 66 1F 
  1314)      1043.435 1  Rx        0328 -  8    00 00 00 00 00 00 00 00 
  1315)      1046.465 1  Rx        0077 -  2    00 02 
  1316)      1046.593 1  Rx        00B1 -  3    00 50 60 
  1317)      1049.622 1  Rx        002F -  8    00 00 00 00 01 E7 80 00 
  1318)      1049.878 1  Rx        0071 -  8    1F FF 00 00 85 00 E0 1D 
  1319)      1050.091 1  Rx        0079 -  8    83 26 03 27 00 00 E0 5F 
  1320)      1050.347 1  Rx        007F -  8    46 31 00 00 00 00 FF FF 
  1321)      1050.603 1  Rx        0083 -  8    85 04 00 00 00 00 E0 28 
  1322)      1051.542 1  Rx        0023 -  8    10 12 10 00 00 00 76 D2 
  1323)      1052.992 1  Rx        03AF -  8    00 00 00 8C 46 00 E1 C2 
  1324)      1053.248 1  Rx        0402 -  8    FD 03 BF FF FF FF FF FF 
  1325)      1056.534 1  Rx        009B -  8    15 00 04 55 00 79 00 FF 
  1326)      1058.539 1  Rx        00AD -  5    01 00 00 B0 A8 
  1327)      1059.648 1  Rx        002F -  8    00 00 00 00 01 E7 80 00 
  1328)      1059.904 1  Rx        0087 -  8    01 51 00 00 00 55 E0 D8 
  1329)      1060.118 1  Rx        0089 -  8    FF FF FF 6D FF FF E0 FF 
  1330)      1060.374 1  Rx        008B -  8    00 00 00 00 00 00 00 00 
  1331)      1060.587 1  Rx        00A7 -  8    00 00 00 F7 40 F5 E0 61 
  1332)      1061.568 1  Rx        0023 -  8    10 12 10 00 00 00 86 AD 
  1333)      1066.475 1  Rx        0077 -  2    00 02 
  1334)      1066.603 1  Rx        00B1 -  3    00 60 2A 
  1335)      1069.632 1  Rx        002F -  8    00 00 00 00 01 E7 80 00 
  1336)      1069.846 1  Rx        0071 -  8    1F FF 00 00 85 00 F0 D0 
  1337)      1070.102 1  Rx        0079 -  8    83 26 03 27 00 00 F0 92 
  1338)      1070.358 1  Rx        007F -  8    46 31 00 00 00 00 FF FF 
  1339)      1070.571 1  Rx        0083 -  8    85 04 00 00 00 00 F0 E5 
  1340)      1070.870 1  Rx        00DD -  8    00 00 00 00 00 80 00 00 
  1341)      1071.168 1  Rx        0037 -  8    1F FE 00 00 0C 1C 30 23 
  1342)      1071.510 1  Rx        0023 -  8    10 12 10 00 00 00 97 7D 
  1343)      1072.150 1  Rx        0085 -  8    20 DD 04 00 00 00 00 04 
  1344)      1073.173 1  Rx        0093 -  8    80 FC 20 00 00 00 11 79 
  1345)      1074.155 1  Rx        0095 -  7    00 00 00 00 00 10 3B 
  1346)      1075.179 1  Rx        00AB -  8    00 00 CD 0D 00 00 10 9C 
  1347)      1076.160 1  Rx        00B3 -  8    00 00 00 00 00 00 10 C7 
  1348)      1076.800 1  Rx        009B -  8    15 00 04 55 00 79 00 FF 
  1349)      1077.056 1  Rx        0133 -  8    00 00 00 00 FF 03 0C FF 
  1350)      1077.184 1  Rx        0125 -  3    00 79 00 
  1351)      1078.549 1  Rx        00AD -  5    01 00 00 C0 F1 
  1352)      1079.829 1  Rx        002F -  8    00 00 00 00 01 E7 80 00 
  1353)      1080.043 1  Rx        0087 -  8    01 50 00 00 00 55 F0 53 
  1354)      1080.299 1  Rx        0089 -  8    FF FF FF 6D FF FF F0 FF 
  1355)      1080.555 1  Rx        008B -  8    00 00 00 00 00 00 00 00 
  1356)      1080.768 1  Rx        00A7 -  8    00 00 00 F7 40 F4 F0 E0 
  1357)      1081.152 1  Rx        0037 -  8    1F FE 00 00 0C 1C 40 7A 
  1358)      1081.493 1  Rx        0023 -  8    10 12 10 00 00 00 A6 2A 
  1359)      1081.920 1  Rx        0318 -  8    00 00 00 00 00 00 FF 00 
  1360)      1082.176 1  Rx        0095 -  7    00 00 00 00 00 20 71 
  1361)      1083.157 1  Rx        00AB -  8    00 00 CD 0D 00 00 20 D6 
  1362)      1084.181 1  Rx        00B3 -  8    00 00 00 00 00 00 20 8D 
  1363)      1086.485 1  Rx        00B1 -  3    00 70 E7 
  1364)      1086.613 1  Rx        0077 -  2    05 02 
  1365)      1089.771 1  Rx        002F -  8    00 00 00 00 01 E7 80 00 
  1366)      1090.027 1  Rx        0071 -  8    1F FF 00 00 85 00 00 AF 
  1367)      1090.240 1  Rx        0079 -  8    83 26 03 25 00 00 00 CA 
  1368)      1090.496 1  Rx        007F -  8    46 31 00 00 00 00 FF FF 
  1369)      1090.752 1  Rx        0083 -  8    85 04 00 00 00 00 00 9A 
  1370)      1091.136 1  Rx        0037 -  8    1F FE 00 00 0C 1C 50 B7 
  1371)      1091.520 1  Rx        0023 -  8    10 12 10 00 00 00 B7 FA 
  1372)      1092.160 1  Rx        0085 -  8    20 DD 04 00 00 00 00 08 
  1373)      1093.141 1  Rx        0093 -  8    80 FC 20 00 00 00 21 33 
  1374)      1096.256 1  Rx        0129 -  4    36 00 00 00 
  1375)      1096.597 1  Rx        009B -  8    15 00 04 55 00 79 00 FF 
  1376)      1096.896 1  Rx        012B -  8    96 18 90 62 21 FF 7D FF 
  1377)      1097.109 1  Rx        013F -  8    FF FF C1 38 01 32 00 00 
  1378)      1098.560 1  Rx        00AD -  5    01 00 00 D0 3C 
  1379)      1099.797 1  Rx        002F -  8    00 00 00 00 01 E7 80 00 
  1380)      1100.096 1  Rx        0087 -  8    01 50 00 00 00 55 00 2C 
  1381)      1100.266 1  Rx        0089 -  8    FF FF FF 6D FF FF 00 FF 
  1382)      1100.522 1  Rx        008B -  8    00 00 00 00 00 00 00 00 
  1383)      1100.778 1  Rx        00A7 -  8    00 00 00 F7 40 F4 00 9F 
  1384)      1101.162 1  Rx        0037 -  8    1F FE 00 00 0C 1C 60 FD 
  1385)      1101.504 1  Rx        0023 -  8    10 12 10 00 00 00 C6 BE 
  1386)      1102.144 1  Rx        0095 -  7    00 00 00 00 00 30 BC 
  1387)      1102.997 1  Rx        02F2 -  8    00 00 00 00 00 00 00 00 
  1388)      1103.253 1  Rx        00AB -  8    00 00 CD 0D 00 00 30 1B 
  1389)      1104.192 1  Rx        00B3 -  8    00 00 00 00 00 00 30 40 
  1390)      1106.325 1  Rx        01C0 -  6    00 00 00 00 00 00 
  1391)      1106.496 1  Rx        00B1 -  3    00 80 98 
  1392)      1106.624 1  Rx        0077 -  2    05 02 
  1393)      1109.653 1  Rx        002F -  8    00 00 00 00 01 E7 80 00 
  1394)      1109.866 1  Rx        0071 -  8    1F FF 00 00 85 00 10 62 
  1395)      1110.122 1  Rx        0079 -  8    83 26 03 25 00 00 10 07 
  1396)      1110.378 1  Rx        007F -  8    46 31 00 00 00 00 FF FF 
