;$FILEVERSION=1.3
;$STARTTIME=44371.3644006575
;
;   C:\Documents and Settings\jpaullus\My Documents\2018JL_A_OFF_TAZER_STARTtrc.trc
;   Start time: 6/24/2021 08:44:44.216.8
;-------------------------------------------------------------------------------
;   Bus  Name  Connection     Protocol
;   1    500k  500k@pcan_usb  CAN
;-------------------------------------------------------------------------------
;   Message Number
;   |         Time Offset (ms)
;   |         |       Bus
;   |         |       |    Type
;   |         |       |    |       ID (hex)
;   |         |       |    |       |    Reserved
;   |         |       |    |       |    |   Data Length Code
;   |         |       |    |       |    |   |    Data Bytes (hex) ...
;   |         |       |    |       |    |   |    |
;   |         |       |    |       |    |   |    |
;---+-- ------+------ +- --+-- ----+--- +- -+-- -+ -- -- -- -- -- -- --
     1)         0.171 1  Rx        0023 -  8    10 12 10 00 00 00 86 AD 
     2)         3.243 1  Rx        00AD -  5    01 00 00 30 8E 
     3)         4.395 1  Rx        002F -  8    00 00 00 00 00 D8 80 00 
     4)         4.608 1  Rx        0087 -  8    00 00 00 00 00 68 60 5B 
     5)         4.864 1  Rx        0089 -  8    FF FF FF 6D FF FF 60 FF 
     6)         5.120 1  Rx        008B -  8    00 00 00 00 00 00 00 00 
     7)         5.334 1  Rx        00A7 -  8    00 00 00 9E 40 9C 60 11 
     8)         5.504 1  Rx        00B1 -  3    00 E0 0C 
     9)         8.320 1  Rx        0409 -  8    FD 23 BF FF FF FF FF FF 
    10)         9.259 1  Rx        0077 -  2    00 01 
    11)        10.240 1  Rx        0023 -  8    10 12 10 00 00 00 96 60 
    12)        14.379 1  Rx        002F -  8    00 00 00 00 00 D7 80 00 
    13)        14.635 1  Rx        0071 -  8    1F FF 00 00 6A 00 70 E0 
    14)        14.848 1  Rx        0079 -  8    80 00 00 00 00 00 70 F2 
    15)        15.104 1  Rx        007F -  8    45 2F 00 00 00 00 FF FF 
    16)        15.360 1  Rx        0083 -  8    80 04 00 00 00 00 70 F7 
    17)        19.328 1  Rx        009B -  8    15 00 00 55 00 79 00 FF 
    18)        19.627 1  Rx        0261 -  8    19 66 17 F0 17 91 03 E3 
    19)        20.139 1  Rx        0023 -  8    10 12 10 00 00 00 A6 2A 
    20)        23.253 1  Rx        00AD -  5    01 00 00 40 D7 
    21)        24.363 1  Rx        002F -  8    00 00 00 00 00 D7 80 00 
    22)        24.661 1  Rx        0087 -  8    00 00 00 00 00 68 70 96 
    23)        24.875 1  Rx        0089 -  8    FF FF FF 6D FF FF 70 FF 
    24)        25.088 1  Rx        008B -  8    00 00 00 00 00 00 00 00 
    25)        25.344 1  Rx        00A7 -  8    00 00 00 9E 40 9B 70 25 
    26)        25.515 1  Rx        00B1 -  3    00 F0 C1 
    27)        29.269 1  Rx        0077 -  2    00 01 
    28)        29.525 1  Rx        0297 -  8    F0 FF 03 00 00 0C 00 FF 
    29)        30.208 1  Rx        0023 -  8    10 12 10 00 00 00 B5 C0 
    30)        34.389 1  Rx        002F -  8    00 00 00 00 00 D8 80 00 
    31)        34.645 1  Rx        0071 -  8    1F FF 00 00 6A 00 80 9F 
    32)        34.858 1  Rx        0079 -  8    80 00 00 00 00 00 80 8D 
    33)        35.114 1  Rx        007F -  8    45 2F 00 00 00 00 FF FF 
    34)        35.328 1  Rx        0083 -  8    80 04 00 00 00 00 80 88 
    35)        35.584 1  Rx        00DD -  8    00 00 00 00 00 80 00 00 
    36)        39.424 1  Rx        009B -  8    15 00 00 55 00 79 00 FF 
    37)        39.680 1  Rx        0133 -  8    00 00 00 00 FF 03 0C FF 
    38)        39.936 1  Rx        022D -  8    FF 00 00 00 00 00 00 00 
    39)        40.234 1  Rx        0023 -  8    10 12 10 00 00 00 C6 BE 
    40)        40.448 1  Rx        02AD -  8    00 00 00 00 00 00 FF FF 
    41)        40.704 1  Rx        0318 -  8    00 00 00 00 00 00 FF 00 
    42)        43.264 1  Rx        00AD -  5    01 00 00 50 1A 
    43)        44.373 1  Rx        002F -  8    00 00 00 00 00 D8 80 00 
    44)        44.629 1  Rx        0087 -  8    00 00 00 00 00 68 80 E9 
    45)        44.885 1  Rx        0089 -  8    FF FF FF 6D FF FF 80 FF 
    46)        45.098 1  Rx        008B -  8    00 00 00 00 00 00 00 00 
    47)        45.354 1  Rx        00A7 -  8    00 00 00 9E 40 9C 80 A3 
    48)        45.525 1  Rx        00B1 -  3    00 00 BE 
    49)        45.738 1  Rx        02F2 -  8    00 00 00 00 00 00 00 00 
    50)        49.322 1  Rx        0296 -  8    60 00 00 25 25 25 24 FF 
    51)        49.450 1  Rx        0077 -  2    00 01 
    52)        49.706 1  Rx        0350 -  8    1F 2C 08 07 E5 06 18 39 
    53)        50.218 1  Rx        0023 -  8    10 12 10 00 00 00 D5 54 
    54)        54.357 1  Rx        002F -  8    00 00 00 00 00 D7 80 00 
    55)        54.613 1  Rx        0071 -  8    1F FF 00 00 6A 00 90 52 
    56)        54.869 1  Rx        0079 -  8    80 00 00 00 00 00 90 40 
    57)        55.082 1  Rx        007F -  8    45 2F 00 00 00 00 FF FF 
    58)        55.338 1  Rx        0083 -  8    80 04 00 00 00 00 90 45 
    59)        55.594 1  Rx        01F7 -  8    FF FF 0F FF 00 80 00 00 
    60)        59.349 1  Rx        009B -  8    15 00 00 55 00 79 00 FF 
    61)        59.647 1  Rx        012B -  8    9A 18 90 5C 21 FF 7F FF 
    62)        59.861 1  Rx        013F -  8    FF FF C2 AE 01 36 00 00 
    63)        60.117 1  Rx        0281 -  8    E8 23 00 21 00 00 00 7C 
    64)        60.373 1  Rx        0023 -  8    10 12 10 00 00 00 E5 1E 
    65)        60.543 1  Rx        0129 -  4    01 00 00 00 
    66)        60.714 1  Rx        0358 -  4    FF 01 FF 00 
    67)        63.231 1  Rx        00AD -  5    01 00 00 60 50 
    68)        64.383 1  Rx        002F -  8    00 00 00 00 00 D7 80 00 
    69)        64.639 1  Rx        0087 -  8    00 00 00 00 00 68 90 24 
    70)        64.853 1  Rx        0089 -  8    FF FF FF 6D FF FF 90 FF 
    71)        65.109 1  Rx        008B -  8    00 00 00 00 00 00 00 00 
    72)        65.365 1  Rx        00A7 -  8    00 00 00 9E 40 9C 90 6E 
    73)        65.535 1  Rx        00B1 -  3    00 10 73 
    74)        65.749 1  Rx        03AA -  8    00 00 00 00 00 00 00 00 
    75)        69.247 1  Rx        0077 -  2    00 01 
    76)        69.589 1  Rx        0283 -  8    00 08 00 00 00 01 00 00 
    77)        69.802 1  Rx        035C -  6    00 00 00 00 00 00 
    78)        70.229 1  Rx        0023 -  8    10 12 10 00 00 00 F6 F4 
    79)        74.410 1  Rx        002F -  8    00 00 00 00 00 D8 80 00 
    80)        74.666 1  Rx        0071 -  8    1F FF 00 00 6A 00 A0 18 
    81)        74.879 1  Rx        0079 -  8    80 00 00 00 00 00 A0 0A 
    82)        75.135 1  Rx        007F -  8    45 2F 00 00 00 00 FF FF 
    83)        75.391 1  Rx        0083 -  8    80 04 00 00 00 00 A0 0F 
    84)        75.604 1  Rx        02A1 -  8    80 08 FC F3 A9 FE 7D FE 
    85)        79.444 1  Rx        009B -  8    15 00 00 55 00 79 00 FF 
    86)        79.615 1  Rx        03C9 -  4    71 3F 00 00 
    87)        80.212 1  Rx        0023 -  8    10 12 10 00 00 00 06 8B 
    88)        83.242 1  Rx        00AD -  5    01 00 00 70 9D 
    89)        84.394 1  Rx        002F -  8    00 00 00 00 00 D8 80 00 
    90)        84.607 1  Rx        0087 -  8    00 00 00 00 00 68 A0 6E 
    91)        84.863 1  Rx        0089 -  8    FF FF FF 6D FF FF A0 FF 
    92)        85.119 1  Rx        008B -  8    00 00 00 00 00 00 00 00 
    93)        85.332 1  Rx        00A7 -  8    00 00 00 9E 40 9B A0 DD 
    94)        85.503 1  Rx        00B1 -  3    00 20 39 
    95)        85.759 1  Rx        00DD -  8    00 00 00 00 00 80 00 00 
    96)        86.015 1  Rx        027B -  8    01 FC 07 FF 00 00 00 00 
    97)        89.300 1  Rx        0077 -  2    00 01 
    98)        89.599 1  Rx        0291 -  8    40 00 06 00 00 01 00 00 
    99)        90.239 1  Rx        0023 -  8    10 12 10 00 00 00 15 61 
   100)        94.377 1  Rx        002F -  8    00 00 00 00 00 D8 80 00 
   101)        94.633 1  Rx        0071 -  8    1F FF 00 00 6A 00 B0 D5 
   102)        94.889 1  Rx        0079 -  8    80 00 00 00 00 00 B0 C7 
   103)        95.103 1  Rx        007F -  8    45 2F 00 00 00 00 FF FF 
   104)        95.359 1  Rx        0083 -  8    80 04 00 00 00 00 B0 C2 
   105)        95.615 1  Rx        03AB -  8    00 47 00 00 00 00 00 00 
   106)        95.871 1  Rx        0423 -  8    FD 00 84 0F 00 00 00 00 
   107)        99.369 1  Rx        009B -  8    15 00 00 55 00 79 00 FF 
   108)        99.625 1  Rx        0289 -  8    30 00 07 1E C0 FE 80 00 
   109)       100.137 1  Rx        0023 -  8    10 12 10 00 00 00 26 0C 
   110)       103.252 1  Rx        00AD -  5    01 00 00 80 E2 
   111)       104.404 1  Rx        002F -  8    00 00 00 00 00 D7 80 00 
   112)       104.617 1  Rx        0087 -  8    00 00 00 00 00 68 B0 A3 
   113)       104.873 1  Rx        0089 -  8    FF FF FF 6D FF FF B0 FF 
   114)       105.129 1  Rx        008B -  8    00 00 00 00 00 00 00 00 
   115)       105.343 1  Rx        00A7 -  8    00 00 00 9E 40 9B B0 10 
   116)       105.513 1  Rx        00B1 -  3    00 30 F4 
   117)       105.727 1  Rx        027A -  8    00 7A 00 00 01 6B EB 07 
   118)       109.268 1  Rx        0077 -  2    00 01 
   119)       109.567 1  Rx        026F -  8    00 C0 FF FF FF 7F 7F 7F 
   120)       110.207 1  Rx        0023 -  8    10 12 10 00 00 00 35 E6 
   121)       114.388 1  Rx        002F -  8    00 00 00 00 00 D7 80 00 
   122)       114.644 1  Rx        0071 -  8    1F FF 00 00 6A 00 C0 8C 
   123)       114.857 1  Rx        0079 -  8    80 00 00 00 00 00 C0 9E 
   124)       115.113 1  Rx        007F -  8    45 2F 00 00 00 00 FF FF 
   125)       115.369 1  Rx        0083 -  8    80 04 00 00 00 00 C0 9B 
   126)       119.337 1  Rx        009B -  8    15 00 00 55 00 79 00 FF 
   127)       119.636 1  Rx        0265 -  8    00 00 00 00 00 00 06 00 
   128)       120.105 1  Rx        0023 -  8    10 12 10 00 00 00 46 98 
   129)       123.262 1  Rx        00AD -  5    01 00 00 90 2F 
   130)       124.372 1  Rx        002F -  8    00 00 00 00 00 D7 80 00 
   131)       124.670 1  Rx        0087 -  8    00 00 00 00 00 68 C0 FA 
   132)       124.884 1  Rx        0089 -  8    FF FF FF 6D FF FF C0 FF 
   133)       125.140 1  Rx        008B -  8    00 00 00 00 00 00 00 00 
   134)       125.353 1  Rx        00A7 -  8    00 00 00 9E 40 9C C0 B0 
   135)       125.566 1  Rx        00B1 -  3    00 40 AD 
   136)       129.278 1  Rx        0077 -  2    00 01 
   137)       130.174 1  Rx        0023 -  8    10 12 10 00 00 00 55 72 
   138)       134.356 1  Rx        002F -  8    00 00 00 00 00 D7 80 00 
   139)       134.654 1  Rx        0071 -  8    1F FF 00 00 6A 00 D0 41 
   140)       134.868 1  Rx        0079 -  8    80 00 00 00 00 00 D0 53 
   141)       135.124 1  Rx        007F -  8    45 2F 00 00 00 00 FF FF 
   142)       135.337 1  Rx        0083 -  8    80 04 00 00 00 00 D0 56 
   143)       135.593 1  Rx        00DD -  8    00 00 00 00 00 80 00 00 
   144)       139.433 1  Rx        009B -  8    15 00 00 55 00 79 00 FF 
   145)       139.689 1  Rx        0133 -  8    00 00 00 00 FF 03 0C FF 
   146)       140.115 1  Rx        0023 -  8    10 12 10 00 00 00 66 1F 
   147)       140.542 1  Rx        0318 -  8    00 00 00 00 00 00 FF 00 
   148)       143.230 1  Rx        00AD -  5    01 00 00 A0 65 
   149)       144.382 1  Rx        002F -  8    00 00 00 00 00 D7 80 00 
   150)       144.638 1  Rx        0087 -  8    00 00 00 00 00 68 D0 37 
   151)       144.851 1  Rx        0089 -  8    FF FF FF 6D FF FF D0 FF 
   152)       145.107 1  Rx        008B -  8    00 00 00 00 00 00 00 00 
   153)       145.363 1  Rx        00A7 -  8    00 00 00 9E 40 9C D0 7D 
   154)       145.491 1  Rx        00B1 -  3    00 50 60 
   155)       145.747 1  Rx        02F2 -  8    00 00 00 00 00 00 00 00 
   156)       146.003 1  Rx        03AC -  8    00 00 00 01 19 00 01 C6 
   157)       149.331 1  Rx        0077 -  2    00 01 
   158)       150.227 1  Rx        0023 -  8    10 12 10 00 00 00 76 D2 
   159)       154.366 1  Rx        002F -  8    00 00 00 00 00 D7 80 00 
   160)       154.622 1  Rx        0071 -  8    1F FF 00 00 6A 00 E0 0B 
   161)       154.878 1  Rx        0079 -  8    80 00 00 00 00 00 E0 19 
   162)       155.091 1  Rx        007F -  8    45 2F 00 00 00 00 FF FF 
   163)       155.347 1  Rx        0083 -  8    80 04 00 00 00 00 E0 1C 
   164)       159.400 1  Rx        009B -  8    15 00 00 55 00 79 00 FF 
   165)       159.656 1  Rx        012B -  8    9A 18 90 5C 21 FF 7F FF 
   166)       159.870 1  Rx        013F -  8    FF FF C2 AE 01 36 00 00 
   167)       160.211 1  Rx        0023 -  8    10 12 10 00 00 00 86 AD 
   168)       160.382 1  Rx        0129 -  4    01 00 00 00 
   169)       163.240 1  Rx        00AD -  5    01 00 00 B0 A8 
   170)       164.392 1  Rx        002F -  8    00 00 00 00 00 D7 80 00 
   171)       164.691 1  Rx        0087 -  8    00 00 00 00 00 68 E0 7D 
   172)       164.862 1  Rx        0089 -  8    FF FF FF 6D FF FF E0 FF 
   173)       165.118 1  Rx        008B -  8    00 00 00 00 00 00 00 00 
   174)       165.374 1  Rx        00A7 -  8    00 00 00 9E 40 9C E0 37 
   175)       165.502 1  Rx        00B1 -  3    00 60 2A 
   176)       169.342 1  Rx        0077 -  2    00 01 
   177)       170.238 1  Rx        0023 -  8    10 12 10 00 00 00 96 60 
   178)       170.451 1  Rx        01C0 -  6    00 00 00 00 00 00 
   179)       174.376 1  Rx        002F -  8    00 00 00 00 00 D8 80 00 
   180)       174.632 1  Rx        0071 -  8    1F FF 00 00 6A 00 F0 C6 
   181)       174.846 1  Rx        0079 -  8    80 00 00 00 00 00 F0 D4 
   182)       175.102 1  Rx        007F -  8    45 2F 00 00 00 00 FF FF 
   183)       175.358 1  Rx        0083 -  8    80 04 00 00 00 00 F0 D1 
   184)       179.368 1  Rx        009B -  8    15 00 00 55 00 79 00 FF 
   185)       180.136 1  Rx        0023 -  8    10 12 10 00 00 00 A5 0D 
   186)       183.251 1  Rx        00AD -  5    01 00 00 C0 F1 
   187)       184.360 1  Rx        002F -  8    00 00 00 00 00 D7 80 00 
   188)       184.659 1  Rx        0087 -  8    00 00 00 00 00 68 F0 B0 
   189)       184.872 1  Rx        0089 -  8    FF FF FF 6D FF FF F0 FF 
   190)       185.128 1  Rx        008B -  8    00 00 00 00 00 00 00 00 
   191)       185.341 1  Rx        00A7 -  8    00 00 00 9E 40 9C F0 FA 
   192)       185.512 1  Rx        00B1 -  3    00 70 E7 
   193)       185.725 1  Rx        00DD -  8    00 00 00 00 00 80 00 00 
   194)       189.352 1  Rx        0077 -  2    00 01 
   195)       190.205 1  Rx        0023 -  8    10 12 10 00 00 00 B6 E7 
   196)       194.387 1  Rx        002F -  8    00 00 00 00 00 D7 80 00 
   197)       194.643 1  Rx        0071 -  8    1F FF 00 00 6A 00 00 B9 
   198)       194.856 1  Rx        0079 -  8    80 00 00 00 00 00 00 AB 
   199)       195.112 1  Rx        007F -  8    45 2F 00 00 00 00 FF FF 
   200)       195.368 1  Rx        0083 -  8    80 04 00 00 00 00 00 AE 
   201)       195.624 1  Rx        03AD -  8    00 00 00 00 00 00 00 00 
   202)       195.837 1  Rx        0400 -  8    FD 01 BF FF FF FF FF FF 
   203)       199.379 1  Rx        009B -  8    15 00 00 55 00 79 00 FF 
   204)       200.147 1  Rx        0023 -  8    10 12 10 00 00 00 C5 99 
   205)       203.261 1  Rx        00AD -  5    01 00 00 D0 3C 
   206)       204.370 1  Rx        002F -  8    00 00 00 00 00 D8 80 00 
   207)       204.669 1  Rx        0087 -  8    00 00 00 00 00 68 00 CF 
   208)       204.882 1  Rx        0089 -  8    FF FF FF 6D FF FF 00 FF 
   209)       205.138 1  Rx        008B -  8    00 00 00 00 00 00 00 00 
   210)       205.352 1  Rx        00A7 -  8    00 00 00 9E 40 9C 00 85 
   211)       205.522 1  Rx        00B1 -  3    00 80 98 
   212)       209.234 1  Rx        0077 -  2    00 01 
   213)       210.258 1  Rx        0023 -  8    10 12 10 00 00 00 D5 54 
   214)       214.354 1  Rx        002F -  8    00 00 00 00 00 D7 80 00 
   215)       214.610 1  Rx        0071 -  8    1F FF 00 00 6A 00 10 74 
   216)       214.866 1  Rx        0079 -  8    80 00 00 00 00 00 10 66 
   217)       215.122 1  Rx        007F -  8    45 2F 00 00 00 00 FF FF 
   218)       215.336 1  Rx        0083 -  8    80 04 00 00 00 00 10 63 
   219)       219.346 1  Rx        009B -  8    15 00 00 55 00 79 00 FF 
   220)       220.157 1  Rx        0023 -  8    10 12 10 00 00 00 E6 39 
   221)       223.271 1  Rx        00AD -  5    01 00 00 E0 76 
   222)       224.381 1  Rx        002F -  8    00 00 00 00 00 D8 80 00 
   223)       224.637 1  Rx        0087 -  8    00 00 00 00 00 68 10 02 
   224)       224.850 1  Rx        0089 -  8    FF FF FF 6D FF FF 10 FF 
   225)       225.106 1  Rx        008B -  8    00 00 00 00 00 00 00 00 
   226)       225.362 1  Rx        00A7 -  8    00 00 00 9E 40 9B 10 B1 
   227)       225.490 1  Rx        00B1 -  3    00 90 55 
   228)       229.245 1  Rx        0077 -  2    00 01 
   229)       230.183 1  Rx        0023 -  8    10 12 10 00 00 00 F5 D3 
   230)       234.365 1  Rx        002F -  8    00 00 00 00 00 D7 80 00 
   231)       234.621 1  Rx        0071 -  8    1F FF 00 00 6A 00 20 3E 
   232)       234.877 1  Rx        0079 -  8    80 00 00 00 00 00 20 2C 
   233)       235.090 1  Rx        007F -  8    45 2F 00 00 00 00 FF FF 
   234)       235.346 1  Rx        0083 -  8    80 04 00 00 00 00 20 29 
   235)       235.602 1  Rx        00DD -  8    00 00 00 00 00 80 00 00 
   236)       239.399 1  Rx        009B -  8    15 00 00 55 00 79 00 FF 
   237)       239.698 1  Rx        0133 -  8    00 00 00 00 FF 03 0C FF 
   238)       240.125 1  Rx        0023 -  8    10 12 10 00 00 00 06 8B 
   239)       240.551 1  Rx        0318 -  8    00 00 00 00 00 00 FF 00 
   240)       243.239 1  Rx        00AD -  5    01 00 00 F0 BB 
   241)       244.391 1  Rx        002F -  8    00 00 00 00 00 D8 80 00 
   242)       244.690 1  Rx        0087 -  8    00 00 00 00 00 68 20 48 
   243)       244.860 1  Rx        0089 -  8    FF FF FF 6D FF FF 20 FF 
   244)       245.116 1  Rx        008B -  8    00 00 00 00 00 00 00 00 
   245)       245.372 1  Rx        00A7 -  8    00 00 00 9E 40 9C 20 02 
   246)       245.500 1  Rx        00B1 -  3    00 A0 1F 
   247)       245.786 1  Rx        02F2 -  8    00 00 00 00 00 00 00 00 
   248)       246.042 1  Rx        03AE -  8    00 00 00 00 00 00 00 00 
   249)       249.370 1  Rx        0077 -  2    00 01 
   250)       250.224 1  Rx        0023 -  8    10 12 10 00 00 00 15 61 
   251)       254.405 1  Rx        002F -  8    00 00 00 00 00 D8 80 00 
   252)       254.661 1  Rx        0071 -  8    1F FF 00 00 6A 00 30 F3 
   253)       254.874 1  Rx        0079 -  8    80 00 00 00 00 00 30 E1 
   254)       255.130 1  Rx        007F -  8    45 2F 00 00 00 00 FF FF 
   255)       255.386 1  Rx        0083 -  8    80 04 00 00 00 00 30 E4 
   256)       259.397 1  Rx        009B -  8    15 00 00 55 00 79 00 FF 
   257)       259.653 1  Rx        012B -  8    9A 18 90 5C 21 FF 7F FF 
   258)       259.909 1  Rx        013F -  8    FF FF C2 AE 01 36 00 00 
   259)       260.250 1  Rx        0023 -  8    10 12 10 00 00 00 25 2B 
   260)       260.421 1  Rx        0129 -  4    01 00 00 00 
   261)       263.280 1  Rx        00AD -  5    01 00 00 00 C4 
   262)       264.432 1  Rx        002F -  8    00 00 00 00 00 D8 80 00 
   263)       264.687 1  Rx        0087 -  8    00 00 00 00 00 68 30 85 
   264)       264.901 1  Rx        0089 -  8    FF FF FF 6D FF FF 30 FF 
   265)       265.157 1  Rx        008B -  8    00 00 00 00 00 00 00 00 
   266)       265.413 1  Rx        00A7 -  8    00 00 00 9E 40 9C 30 CF 
   267)       265.541 1  Rx        00B1 -  3    00 B0 D2 
   268)       269.381 1  Rx        0077 -  2    00 01 
   269)       270.234 1  Rx        0023 -  8    10 12 10 00 00 00 36 C1 
   270)       274.415 1  Rx        002F -  8    00 00 00 00 00 D7 80 00 
   271)       274.671 1  Rx        0071 -  8    1F FF 00 00 6A 00 40 AA 
   272)       274.885 1  Rx        0079 -  8    80 00 00 00 00 00 40 B8 
   273)       275.141 1  Rx        007F -  8    45 2F 00 00 00 00 FF FF 
   274)       275.397 1  Rx        0083 -  8    80 04 00 00 00 00 40 BD 
   275)       279.407 1  Rx        009B -  8    15 00 00 55 00 79 00 FF 
   276)       280.175 1  Rx        0023 -  8    10 12 10 00 00 00 45 BF 
   277)       281.327 1  Rx        0401 -  8    FD 02 04 0F 02 00 00 00 
   278)       283.290 1  Rx        00AD -  5    01 00 00 10 09 
   279)       284.442 1  Rx        002F -  8    00 00 00 00 00 D8 80 00 
   280)       284.698 1  Rx        0087 -  8    00 00 00 00 00 68 40 DC 
   281)       284.911 1  Rx        0089 -  8    FF FF FF 6D FF FF 40 FF 
   282)       285.167 1  Rx        008B -  8    00 00 00 00 00 00 00 00 
   283)       285.381 1  Rx        00A7 -  8    00 00 00 9E 40 9C 40 96 
   284)       285.551 1  Rx        00B1 -  3    00 C0 8B 
   285)       285.807 1  Rx        00DD -  8    00 00 00 00 00 80 00 00 
   286)       289.391 1  Rx        0077 -  2    00 01 
   287)       290.287 1  Rx        0023 -  8    10 12 10 00 00 00 55 72 
   288)       294.383 1  Rx        002F -  8    00 00 00 00 00 D8 80 00 
   289)       294.639 1  Rx        0071 -  8    1F FF 00 00 6A 00 50 67 
   290)       294.895 1  Rx        0079 -  8    80 00 00 00 00 00 50 75 
   291)       295.151 1  Rx        007F -  8    45 2F 00 00 00 00 FF FF 
   292)       295.407 1  Rx        0083 -  8    80 04 00 00 00 00 50 70 
   293)       295.620 1  Rx        03AF -  8    00 00 00 8C 46 00 E1 C2 
   294)       299.375 1  Rx        009B -  8    15 00 00 55 00 79 00 FF 
   295)       300.228 1  Rx        0023 -  8    10 12 10 00 00 00 65 38 
   296)       303.300 1  Rx        00AD -  5    01 00 00 20 43 
   297)       304.410 1  Rx        002F -  8    00 00 00 00 00 D7 80 00 
   298)       304.666 1  Rx        0087 -  8    00 00 00 00 00 68 50 11 
   299)       304.879 1  Rx        0089 -  8    FF FF FF 6D FF FF 50 FF 
   300)       305.135 1  Rx        008B -  8    00 00 00 00 00 00 00 00 
   301)       305.391 1  Rx        00A7 -  8    00 00 00 9E 40 9C 50 5B 
   302)       305.562 1  Rx        00B1 -  3    00 D0 46 
   303)       309.316 1  Rx        0077 -  2    00 01 
   304)       310.297 1  Rx        0023 -  8    10 12 10 00 00 00 75 F5 
   305)       314.393 1  Rx        002F -  8    00 00 00 00 00 D8 80 00 
   306)       314.649 1  Rx        0071 -  8    1F FF 00 00 6A 00 60 2D 
   307)       314.905 1  Rx        0079 -  8    80 00 00 00 00 00 60 3F 
   308)       315.119 1  Rx        007F -  8    45 2F 00 00 00 00 FF FF 
   309)       315.375 1  Rx        0083 -  8    80 04 00 00 00 00 60 3A 
   310)       319.385 1  Rx        009B -  8    15 00 00 55 00 79 00 FF 
   311)       320.196 1  Rx        0023 -  8    10 12 10 00 00 00 86 AD 
   312)       323.268 1  Rx        00AD -  5    01 00 00 30 8E 
   313)       324.420 1  Rx        002F -  8    00 00 00 00 00 D7 80 00 
   314)       324.719 1  Rx        0087 -  8    00 00 00 00 00 68 60 5B 
   315)       324.889 1  Rx        0089 -  8    FF FF FF 6D FF FF 60 FF 
   316)       325.145 1  Rx        008B -  8    00 00 00 00 00 00 00 00 
   317)       325.359 1  Rx        00A7 -  8    00 00 00 9E 40 9B 60 E8 
   318)       325.529 1  Rx        00B1 -  3    00 E0 0C 
   319)       329.369 1  Rx        0077 -  2    00 01 
   320)       330.222 1  Rx        0023 -  8    10 12 10 00 00 00 95 47 
   321)       333.593 1  Rx        0328 -  8    00 00 00 00 00 00 00 00 
   322)       334.404 1  Rx        002F -  8    00 00 00 00 00 D7 80 00 
   323)       334.702 1  Rx        0071 -  8    1F FF 00 00 6A 00 70 E0 
   324)       334.873 1  Rx        0079 -  8    80 00 00 00 00 00 70 F2 
   325)       335.129 1  Rx        007F -  8    45 2F 00 00 00 00 FF FF 
   326)       335.385 1  Rx        0083 -  8    80 04 00 00 00 00 70 F7 
   327)       335.641 1  Rx        00DD -  8    00 00 00 00 00 80 00 00 
   328)       339.438 1  Rx        009B -  8    15 00 00 55 00 79 00 FF 
   329)       339.737 1  Rx        0133 -  8    00 00 00 00 FF 03 0C FF 
   330)       340.249 1  Rx        0023 -  8    10 12 10 00 00 00 A5 0D 
   331)       340.633 1  Rx        0318 -  8    00 00 00 00 00 00 FF 00 
   332)       343.278 1  Rx        00AD -  5    01 00 00 40 D7 
   333)       344.430 1  Rx        002F -  8    00 00 00 00 00 D8 80 00 
   334)       344.686 1  Rx        0087 -  8    00 00 00 00 00 68 70 96 
   335)       344.900 1  Rx        0089 -  8    FF FF FF 6D FF FF 70 FF 
   336)       345.156 1  Rx        008B -  8    00 00 00 00 00 00 00 00 
   337)       345.369 1  Rx        00A7 -  8    00 00 00 9E 40 9C 70 DC 
   338)       345.540 1  Rx        00B1 -  3    00 F0 C1 
   339)       345.753 1  Rx        02F2 -  8    00 00 00 00 00 00 00 00 
   340)       349.380 1  Rx        0077 -  2    00 01 
   341)       350.275 1  Rx        0023 -  8    10 12 10 00 00 00 B5 C0 
   342)       354.414 1  Rx        002F -  8    00 00 00 00 00 D7 80 00 
   343)       354.670 1  Rx        0071 -  8    1F FF 00 00 6A 00 80 9F 
   344)       354.883 1  Rx        0079 -  8    80 00 00 00 00 00 80 8D 
   345)       355.139 1  Rx        007F -  8    45 2F 00 00 00 00 FF FF 
   346)       355.395 1  Rx        0083 -  8    80 04 00 00 00 00 80 88 
   347)       359.406 1  Rx        009B -  8    15 00 00 55 00 79 00 FF 
   348)       359.662 1  Rx        012B -  8    9A 18 90 5C 21 FF 7F FF 
   349)       359.918 1  Rx        013F -  8    FF FF C2 AE 01 36 00 00 
   350)       360.259 1  Rx        0023 -  8    10 12 10 00 00 00 C5 99 
   351)       360.430 1  Rx        0129 -  4    01 00 00 00 
   352)       363.289 1  Rx        00AD -  5    01 00 00 50 1A 
   353)       364.441 1  Rx        002F -  8    00 00 00 00 00 D8 80 00 
   354)       364.654 1  Rx        0087 -  8    00 00 00 00 00 68 80 E9 
   355)       364.910 1  Rx        0089 -  8    FF FF FF 6D FF FF 80 FF 
   356)       365.166 1  Rx        008B -  8    00 00 00 00 00 00 00 00 
   357)       365.379 1  Rx        00A7 -  8    00 00 00 9E 40 9C 80 A3 
   358)       365.550 1  Rx        00B1 -  3    00 00 BE 
   359)       369.347 1  Rx        0077 -  2    00 01 
   360)       370.243 1  Rx        0023 -  8    10 12 10 00 00 00 D6 73 
   361)       370.457 1  Rx        01C0 -  6    00 00 00 00 00 00 
   362)       374.382 1  Rx        002F -  8    00 00 00 00 00 D7 80 00 
   363)       374.680 1  Rx        0071 -  8    1F FF 00 00 6A 00 90 52 
   364)       374.894 1  Rx        0079 -  8    80 00 00 00 00 00 90 40 
   365)       375.150 1  Rx        007F -  8    45 2F 00 00 00 00 FF FF 
   366)       375.363 1  Rx        0083 -  8    80 04 00 00 00 00 90 45 
   367)       375.619 1  Rx        0402 -  8    FD 03 BF FF FF FF FF FF 
   368)       379.374 1  Rx        009B -  8    15 00 00 55 00 79 00 FF 
   369)       380.227 1  Rx        0023 -  8    10 12 10 00 00 00 E6 39 
   370)       383.299 1  Rx        00AD -  5    01 00 00 60 50 
   371)       384.408 1  Rx        002F -  8    00 00 00 00 00 D7 80 00 
   372)       384.664 1  Rx        0087 -  8    00 00 00 00 00 68 90 24 
   373)       384.920 1  Rx        0089 -  8    FF FF FF 6D FF FF 90 FF 
   374)       385.134 1  Rx        008B -  8    00 00 00 00 00 00 00 00 
   375)       385.390 1  Rx        00A7 -  8    00 00 00 9E 40 9C 90 6E 
   376)       385.518 1  Rx        00B1 -  3    00 10 73 
   377)       385.774 1  Rx        00DD -  8    00 00 00 00 00 80 00 00 
   378)       389.400 1  Rx        0077 -  2    00 01 
   379)       390.254 1  Rx        0023 -  8    10 12 10 00 00 00 F5 D3 
   380)       394.392 1  Rx        002F -  8    00 00 00 00 00 D8 80 00 
   381)       394.648 1  Rx        0071 -  8    1F FF 00 00 6A 00 A0 18 
   382)       394.904 1  Rx        0079 -  8    80 00 00 00 00 00 A0 0A 
   383)       395.160 1  Rx        007F -  8    45 2F 00 00 00 00 FF FF 
   384)       395.373 1  Rx        0083 -  8    80 04 00 00 00 00 A0 0F 
   385)       399.384 1  Rx        009B -  8    15 00 00 55 00 79 00 FF 
   386)       400.195 1  Rx        0023 -  8    10 12 10 00 00 00 06 8B 
   387)       403.267 1  Rx        00AD -  5    01 00 00 70 9D 
   388)       404.419 1  Rx        002F -  8    00 00 00 00 00 D9 80 00 
   389)       404.675 1  Rx        0087 -  8    00 00 00 00 00 68 A0 6E 
   390)       404.888 1  Rx        0089 -  8    FF FF FF 6D FF FF A0 FF 
   391)       405.144 1  Rx        008B -  8    00 00 00 00 00 00 00 00 
   392)       405.400 1  Rx        00A7 -  8    00 00 00 9E 40 9C A0 24 
   393)       405.528 1  Rx        00B1 -  3    00 20 39 
   394)       409.283 1  Rx        0077 -  2    00 01 
   395)       410.307 1  Rx        0023 -  8    10 12 10 00 00 00 16 46 
   396)       414.402 1  Rx        002F -  8    00 00 00 00 00 D9 80 00 
   397)       414.701 1  Rx        0071 -  8    1F FF 00 00 6A 00 B0 D5 
   398)       414.872 1  Rx        0079 -  8    80 00 00 00 00 00 B0 C7 
   399)       415.128 1  Rx        007F -  8    45 2F 00 00 00 00 FF FF 
   400)       415.384 1  Rx        0083 -  8    80 04 00 00 00 00 B0 C2 
   401)       419.394 1  Rx        009B -  8    15 00 00 55 00 79 00 FF 
   402)       420.248 1  Rx        0023 -  8    10 12 10 00 00 00 26 0C 
   403)       423.277 1  Rx        00AD -  5    01 00 00 80 E2 
   404)       424.429 1  Rx        002F -  8    00 00 00 00 00 DC 80 00 
   405)       424.685 1  Rx        0087 -  8    00 00 00 00 00 67 B0 00 
   406)       424.898 1  Rx        0089 -  8    FF FF FF 6D FF FF B0 FF 
   407)       425.154 1  Rx        008B -  8    00 00 00 00 00 00 00 00 
   408)       425.368 1  Rx        00A7 -  8    00 00 00 9E 40 9C B0 E9 
   409)       425.538 1  Rx        00B1 -  3    00 30 F4 
   410)       429.293 1  Rx        0077 -  2    00 01 
   411)       430.274 1  Rx        0023 -  8    10 12 10 00 00 00 35 E6 
   412)       434.413 1  Rx        002F -  8    00 00 00 00 00 E4 80 00 
   413)       434.712 1  Rx        0071 -  8    1F FF 00 00 6B 00 C0 03 
   414)       434.882 1  Rx        0079 -  8    80 00 00 00 00 00 C0 9E 
   415)       435.138 1  Rx        007F -  8    45 2F 00 00 00 00 FF FF 
   416)       435.394 1  Rx        0083 -  8    80 04 00 00 00 00 C0 9B 
   417)       435.650 1  Rx        00DD -  8    00 00 00 00 00 80 00 00 
   418)       439.447 1  Rx        009B -  8    15 00 00 55 00 79 00 FF 
   419)       439.746 1  Rx        0133 -  8    00 00 00 00 FF 03 0C FF 
   420)       440.173 1  Rx        0023 -  8    10 12 10 00 00 00 46 98 
   421)       440.599 1  Rx        0318 -  8    00 00 00 00 00 00 FF 00 
   422)       443.287 1  Rx        00AD -  5    01 00 00 90 2F 
   423)       444.397 1  Rx        002F -  8    00 00 00 00 00 ED 80 00 
   424)       444.695 1  Rx        0087 -  8    00 00 00 00 00 67 C0 59 
   425)       444.909 1  Rx        0089 -  8    FF FF FF 6D FF FF C0 FF 
   426)       445.165 1  Rx        008B -  8    00 00 00 00 00 00 00 00 
   427)       445.378 1  Rx        00A7 -  8    00 00 00 9E 40 9C C0 B0 
   428)       445.549 1  Rx        00B1 -  3    00 40 AD 
   429)       445.762 1  Rx        02F2 -  8    00 00 00 00 00 00 00 00 
   430)       446.317 1  Rx        0620 -  8    02 3E 00 00 00 00 00 00 
   431)       449.431 1  Rx        0077 -  2    00 01 
   432)       449.687 1  Rx        03E8 -  8    49 31 A2 43 00 0E 50 5C 
   433)       449.943 1  Rx        0504 -  8    02 7E 00 C2 03 00 C8 0D 
   434)       450.327 1  Rx        0023 -  8    10 12 10 00 00 00 55 72 
   435)       454.423 1  Rx        002F -  8    00 00 00 00 00 F5 80 00 
   436)       454.722 1  Rx        0071 -  8    1F FF 00 00 6D 00 D0 CB 
   437)       454.935 1  Rx        0079 -  8    80 00 00 00 00 00 D0 53 
   438)       455.149 1  Rx        007F -  8    45 2F 00 00 00 00 FF FF 
   439)       455.405 1  Rx        0083 -  8    80 04 00 00 00 00 D0 56 
   440)       459.415 1  Rx        009B -  8    15 00 00 55 00 79 00 FF 
   441)       459.714 1  Rx        012B -  8    9A 18 90 5C 21 FF 7F FF 
   442)       459.927 1  Rx        013F -  8    FF FF C2 AE 01 36 00 00 
   443)       460.140 1  Rx        01C8 -  4    00 00 00 00 
   444)       460.354 1  Rx        0023 -  8    10 12 10 00 00 00 66 1F 
   445)       460.524 1  Rx        0129 -  4    01 00 00 00 
   446)       463.298 1  Rx        00AD -  5    01 00 00 A0 65 
   447)       464.620 1  Rx        002F -  8    00 00 00 00 01 00 80 00 
   448)       464.876 1  Rx        0087 -  8    00 23 00 00 00 66 D0 3A 
   449)       465.090 1  Rx        0089 -  8    FF FF FF 6D FF FF D0 FF 
   450)       465.346 1  Rx        008B -  8    00 00 00 00 00 00 00 00 
   451)       465.559 1  Rx        00A7 -  8    00 00 00 A7 40 A5 D0 C4 
   452)       465.730 1  Rx        00B1 -  3    00 50 60 
   453)       469.356 1  Rx        0403 -  8    FD 07 BF FF FF FF FF FF 
   454)       469.484 1  Rx        0077 -  2    00 01 
   455)       470.338 1  Rx        0023 -  8    10 12 10 00 00 00 76 D2 
   456)       474.604 1  Rx        002F -  8    00 00 00 00 01 08 80 00 
   457)       474.860 1  Rx        0071 -  8    1F FF 00 00 6E 00 E0 0D 
   458)       475.074 1  Rx        0079 -  8    80 12 00 90 00 00 E0 91 
   459)       475.330 1  Rx        007F -  8    45 2F 00 00 00 00 FF FF 
   460)       475.543 1  Rx        0083 -  8    85 04 00 00 00 00 E0 28 
   461)       479.468 1  Rx        009B -  8    15 00 00 55 00 79 00 FF 
   462)       480.193 1  Rx        0023 -  8    10 12 10 00 00 00 85 8A 
   463)       483.265 1  Rx        00AD -  5    01 00 00 B0 A8 
   464)       484.460 1  Rx        002F -  8    00 00 00 00 01 13 80 00 
   465)       484.673 1  Rx        0087 -  8    00 4D 00 00 00 64 E0 13 
   466)       484.929 1  Rx        0089 -  8    FF FF FF 6D FF FF E0 FF 
   467)       485.185 1  Rx        008B -  8    00 00 00 00 00 00 00 00 
   468)       485.399 1  Rx        00A7 -  8    00 00 00 B2 40 B0 E0 AD 
   469)       485.569 1  Rx        00B1 -  3    00 60 2A 
   470)       485.825 1  Rx        00DD -  8    00 00 00 00 00 80 00 00 
   471)       489.367 1  Rx        0077 -  2    00 01 
   472)       489.665 1  Rx        0230 -  8    00 35 31 08 00 00 00 00 
   473)       490.263 1  Rx        0023 -  8    10 12 10 00 00 00 96 60 
   474)       494.572 1  Rx        002F -  8    00 00 00 00 01 1E 80 00 
   475)       494.871 1  Rx        0071 -  8    1F FF 00 00 70 00 F0 D1 
   476)       495.041 1  Rx        0079 -  8    80 30 00 D8 00 00 F0 F0 
   477)       495.297 1  Rx        007F -  8    45 2F 00 00 00 00 FF FF 
   478)       495.553 1  Rx        0083 -  8    85 04 00 00 00 00 F0 E5 
   479)       499.436 1  Rx        009B -  8    15 00 00 55 00 79 00 FF 
   480)       499.692 1  Rx        0248 -  8    00 00 FF FF FF 03 FF FF 
   481)       500.246 1  Rx        0023 -  8    10 12 10 00 00 00 A6 2A 
   482)       503.276 1  Rx        00AD -  5    01 00 00 C0 F1 
   483)       504.556 1  Rx        002F -  8    00 00 00 00 01 2B 80 00 
   484)       504.812 1  Rx        0087 -  8    00 65 00 00 00 63 F0 05 
   485)       505.068 1  Rx        0089 -  8    FF FF FF 6D FF FF F0 FF 
   486)       505.324 1  Rx        008B -  8    00 00 00 00 00 00 00 00 
   487)       505.537 1  Rx        00A7 -  8    00 00 00 B9 40 B6 F0 F3 
   488)       505.665 1  Rx        00B1 -  3    00 70 E7 
   489)       509.292 1  Rx        0077 -  2    00 01 
   490)       510.316 1  Rx        0023 -  8    10 12 10 00 00 00 B6 E7 
   491)       514.582 1  Rx        002F -  8    00 00 00 00 01 37 80 00 
   492)       514.838 1  Rx        0071 -  8    1F FF 00 00 72 00 00 AD 
   493)       515.052 1  Rx        0079 -  8    80 61 01 0D 00 00 00 B0 
   494)       515.308 1  Rx        007F -  8    45 2F 00 00 00 00 FF FF 
   495)       515.564 1  Rx        0083 -  8    85 04 00 00 00 00 00 9A 
   496)       519.404 1  Rx        009B -  8    15 00 04 55 00 79 00 FF 
   497)       520.214 1  Rx        0023 -  8    10 12 10 00 00 00 C5 99 
   498)       523.286 1  Rx        00AD -  5    01 00 00 D0 3C 
   499)       524.566 1  Rx        002F -  8    00 00 00 00 01 44 80 00 
   500)       524.865 1  Rx        0087 -  8    00 7E 00 00 00 62 00 E2 
   501)       525.035 1  Rx        0089 -  8    FF FF FF 6D FF FF 00 FF 
   502)       525.291 1  Rx        008B -  8    00 00 00 00 00 00 00 00 
   503)       525.547 1  Rx        00A7 -  8    00 00 00 BF 40 BD 00 6B 
   504)       525.675 1  Rx        00B1 -  3    00 80 98 
   505)       529.302 1  Rx        0077 -  2    00 01 
   506)       530.283 1  Rx        0023 -  8    10 12 10 00 00 00 D6 73 
   507)       534.422 1  Rx        002F -  8    00 00 00 00 01 51 80 00 
   508)       534.678 1  Rx        0071 -  8    1F FF 00 00 74 00 10 65 
   509)       534.934 1  Rx        0079 -  8    80 A8 01 4D 00 00 10 55 
   510)       535.147 1  Rx        007F -  8    45 2F 00 00 00 00 FF FF 
   511)       535.403 1  Rx        0083 -  8    85 04 00 00 00 00 10 57 
   512)       535.659 1  Rx        00DD -  8    00 00 00 00 00 80 00 00 
   513)       539.499 1  Rx        009B -  8    15 00 04 55 00 79 00 FF 
   514)       539.755 1  Rx        0133 -  8    00 00 00 00 FF 03 0C FF 
   515)       540.267 1  Rx        0023 -  8    10 12 10 00 00 00 E5 1E 
   516)       540.609 1  Rx        0318 -  8    00 00 00 00 00 00 FF 00 
   517)       543.296 1  Rx        00AD -  5    01 00 00 E0 76 
   518)       544.448 1  Rx        002F -  8    00 00 00 00 01 5E 80 00 
   519)       544.704 1  Rx        0087 -  8    00 98 00 00 00 60 10 E6 
   520)       544.918 1  Rx        0089 -  8    FF FF FF 6D FF FF 10 FF 
   521)       545.174 1  Rx        008B -  8    00 00 00 00 00 00 00 00 
   522)       545.387 1  Rx        00A7 -  8    00 00 00 C6 40 C4 10 61 
   523)       545.558 1  Rx        00B1 -  3    00 90 55 
   524)       545.814 1  Rx        02F2 -  8    00 00 00 00 00 00 00 00 
   525)       549.355 1  Rx        0077 -  2    00 01 
   526)       550.251 1  Rx        0023 -  8    10 12 10 00 00 00 F6 F4 
   527)       554.432 1  Rx        002F -  8    00 00 00 00 01 6B 80 00 
   528)       554.688 1  Rx        0071 -  8    1F FF 00 00 76 00 20 2C 
   529)       554.902 1  Rx        0079 -  8    80 FD 01 89 00 00 20 F7 
   530)       555.158 1  Rx        007F -  8    45 2F 00 00 00 00 FF FF 
   531)       555.414 1  Rx        0083 -  8    85 04 00 00 00 00 20 1D 
   532)       555.627 1  Rx        01F7 -  8    FF FF 0F FF 00 80 00 00 
   533)       555.883 1  Rx        0407 -  8    FD 09 04 0F C4 FF FF 00 
   534)       559.424 1  Rx        009B -  8    15 00 04 55 00 79 00 FF 
   535)       559.723 1  Rx        012B -  8    9A 18 90 5C 21 FF 7D FF 
   536)       559.936 1  Rx        013F -  8    FF FF C2 AE 01 36 00 00 
   537)       560.278 1  Rx        0023 -  8    10 12 10 00 00 00 05 AC 
   538)       560.406 1  Rx        0129 -  4    01 00 00 00 
   539)       563.264 1  Rx        00AD -  5    01 00 00 F0 BB 
   540)       564.587 1  Rx        002F -  8    00 00 00 00 01 79 80 00 
   541)       564.843 1  Rx        0087 -  8    00 B1 00 00 00 5F 20 AA 
   542)       565.056 1  Rx        0089 -  8    FF FF FF 6D FF FF 20 FF 
   543)       565.312 1  Rx        008B -  8    00 00 00 00 00 00 00 00 
   544)       565.525 1  Rx        00A7 -  8    00 00 00 CD 40 CB 20 AE 
   545)       565.696 1  Rx        00B1 -  3    00 A0 1F 
   546)       569.323 1  Rx        0077 -  2    00 01 
   547)       570.261 1  Rx        0023 -  8    10 12 10 00 00 00 16 46 
   548)       570.475 1  Rx        01C0 -  6    00 00 00 00 00 00 
   549)       574.400 1  Rx        002F -  8    00 00 00 00 01 85 80 00 
   550)       574.699 1  Rx        0071 -  8    1F FF 00 00 78 00 30 E8 
   551)       574.912 1  Rx        0079 -  8    81 51 01 C7 00 00 30 81 
   552)       575.125 1  Rx        007F -  8    45 2F 00 00 00 00 FF FF 
   553)       575.381 1  Rx        0083 -  8    85 04 00 00 00 00 30 D0 
   554)       579.477 1  Rx        009B -  8    15 00 04 55 00 79 00 FF 
   555)       580.203 1  Rx        0023 -  8    10 12 10 00 00 00 25 2B 
   556)       583.275 1  Rx        00AD -  5    01 00 00 00 C4 
   557)       584.427 1  Rx        002F -  8    00 00 00 00 01 92 80 00 
   558)       584.682 1  Rx        0087 -  8    00 CC 00 00 00 5D 30 DA 
   559)       584.896 1  Rx        0089 -  8    FF FF FF 6D FF FF 30 FF 
   560)       585.152 1  Rx        008B -  8    00 00 00 00 00 00 00 00 
   561)       585.408 1  Rx        00A7 -  8    00 00 00 D4 40 D1 30 31 
   562)       585.536 1  Rx        00B1 -  3    00 B0 D2 
   563)       585.792 1  Rx        00DD -  8    00 00 00 00 00 80 00 00 
   564)       589.418 1  Rx        0077 -  2    00 01 
   565)       590.314 1  Rx        0023 -  8    10 12 10 00 00 00 35 E6 
   566)       594.410 1  Rx        002F -  8    00 00 00 00 01 9D 80 00 
   567)       594.666 1  Rx        0071 -  8    1F FF 00 00 7A 00 40 B2 
   568)       594.922 1  Rx        0079 -  8    81 A2 02 06 00 00 40 5C 
   569)       595.136 1  Rx        007F -  8    45 2F 00 00 00 00 FF FF 
   570)       595.392 1  Rx        0083 -  8    85 04 00 00 00 00 40 89 
   571)       599.402 1  Rx        009B -  8    15 00 04 55 00 79 00 FF 
   572)       600.213 1  Rx        0023 -  8    10 12 10 00 00 00 46 98 
   573)       603.285 1  Rx        00AD -  5    01 00 00 10 09 
   574)       604.437 1  Rx        002F -  8    00 00 00 00 01 A7 80 00 
   575)       604.650 1  Rx        0087 -  8    00 E3 00 00 00 5C 40 22 
   576)       604.906 1  Rx        0089 -  8    FF FF FF 6D FF FF 40 FF 
   577)       605.162 1  Rx        008B -  8    00 00 00 00 00 00 00 00 
   578)       605.376 1  Rx        00A7 -  8    00 00 00 DA 40 D8 40 8B 
   579)       605.546 1  Rx        00B1 -  3    00 C0 8B 
   580)       609.301 1  Rx        0077 -  2    00 01 
   581)       610.282 1  Rx        0023 -  8    10 12 10 00 00 00 55 72 
   582)       614.421 1  Rx        002F -  8    00 00 00 00 01 B0 80 00 
   583)       614.677 1  Rx        0071 -  8    1F FF 00 00 7C 00 50 7A 
   584)       614.890 1  Rx        0079 -  8    81 E8 02 38 00 00 50 DD 
   585)       615.146 1  Rx        007F -  8    45 2F 00 00 00 00 FF FF 
   586)       615.402 1  Rx        0083 -  8    85 04 00 00 00 00 50 44 
   587)       619.413 1  Rx        009B -  8    15 00 04 55 00 79 00 FF 
   588)       620.223 1  Rx        0023 -  8    10 12 10 00 00 00 66 1F 
   589)       623.295 1  Rx        00AD -  5    01 00 00 20 43 
   590)       624.447 1  Rx        002F -  8    00 00 00 00 01 B9 80 00 
   591)       624.661 1  Rx        0087 -  8    00 F8 00 00 00 5B 50 C2 
   592)       624.917 1  Rx        0089 -  8    FF FF FF 6D FF FF 50 FF 
   593)       625.173 1  Rx        008B -  8    00 00 00 00 00 00 00 00 
   594)       625.386 1  Rx        00A7 -  8    00 00 00 DF 40 DD 50 F4 
   595)       625.557 1  Rx        00B1 -  3    00 D0 46 
   596)       629.311 1  Rx        0077 -  2    00 01 
   597)       630.335 1  Rx        0023 -  8    10 12 10 00 00 00 76 D2 
   598)       634.431 1  Rx        002F -  8    00 00 00 00 01 C1 80 00 
   599)       634.730 1  Rx        0071 -  8    1F FF 00 00 7E 00 60 33 
   600)       634.900 1  Rx        0079 -  8    82 29 02 6F 00 00 60 83 
   601)       635.156 1  Rx        007F -  8    45 2F 00 00 00 00 FF FF 
   602)       635.412 1  Rx        0083 -  8    85 04 00 00 00 00 60 0E 
   603)       635.626 1  Rx        00DD -  8    00 00 00 00 00 80 00 00 
   604)       639.466 1  Rx        009B -  8    15 00 04 55 00 79 00 FF 
   605)       639.764 1  Rx        0133 -  8    00 00 00 00 FF 03 0C FF 
   606)       640.234 1  Rx        0023 -  8    10 12 10 00 00 00 85 8A 
   607)       640.618 1  Rx        0318 -  8    00 00 00 00 00 00 FF 00 
   608)       643.306 1  Rx        00AD -  5    01 00 00 30 8E 
   609)       644.415 1  Rx        002F -  8    00 00 00 00 01 CA 80 00 
   610)       644.671 1  Rx        0087 -  8    01 11 00 00 00 5A 60 0D 
   611)       644.927 1  Rx        0089 -  8    FF FF FF 6D FF FF 60 FF 
   612)       645.183 1  Rx        008B -  8    00 00 00 00 00 00 00 00 
   613)       645.396 1  Rx        00A7 -  8    00 00 00 E6 40 E4 60 07 
   614)       645.567 1  Rx        00B1 -  3    00 E0 0C 
   615)       645.823 1  Rx        02F2 -  8    00 00 00 00 00 00 00 00 
   616)       648.340 1  Rx        0409 -  8    FD 23 BF FF FF FF FF FF 
   617)       649.407 1  Rx        0077 -  2    00 01 
   618)       650.260 1  Rx        0023 -  8    10 12 10 00 00 00 96 60 
   619)       654.441 1  Rx        002F -  8    00 00 00 00 01 D3 80 00 
   620)       654.697 1  Rx        0071 -  8    1F FF 00 00 7F 00 70 71 
   621)       654.911 1  Rx        0079 -  8    82 6A 02 B0 00 00 70 38 
   622)       655.167 1  Rx        007F -  8    45 2F 00 00 00 00 FF FF 
   623)       655.423 1  Rx        0083 -  8    85 04 00 00 00 00 70 C3 
   624)       659.433 1  Rx        009B -  8    15 00 04 55 00 79 00 FF 
   625)       659.732 1  Rx        012B -  8    9A 18 90 5C 21 FF 7E FF 
   626)       659.945 1  Rx        013F -  8    FF FF C2 14 01 35 00 00 
   627)       660.329 1  Rx        0023 -  8    10 12 10 00 00 00 A6 2A 
   628)       660.500 1  Rx        0129 -  4    01 00 00 00 
   629)       663.273 1  Rx        00AD -  5    01 00 00 40 D7 
   630)       663.956 1  Rx        0328 -  8    40 41 00 4D 00 55 00 53 
   631)       664.425 1  Rx        002F -  8    00 00 00 00 01 DC 80 00 
   632)       664.681 1  Rx        0087 -  8    01 2D 00 00 00 59 70 27 
   633)       664.937 1  Rx        0089 -  8    FF FF FF 6D FF FF 70 FF 
   634)       665.151 1  Rx        008B -  8    00 00 00 00 00 00 00 00 
   635)       665.407 1  Rx        00A7 -  8    00 00 00 ED 40 EB 70 4F 
   636)       665.577 1  Rx        00B1 -  3    00 F0 C1 
   637)       669.289 1  Rx        0077 -  2    00 01 
   638)       670.313 1  Rx        0023 -  8    10 12 10 00 00 00 B6 E7 
   639)       674.409 1  Rx        002F -  8    00 00 00 00 01 E5 80 00 
   640)       674.708 1  Rx        0071 -  8    1F FF 00 00 81 00 80 8F 
   641)       674.921 1  Rx        0079 -  8    82 AA 02 F0 00 00 80 23 
   642)       675.134 1  Rx        007F -  8    45 2F 00 00 00 00 FF FF 
   643)       675.390 1  Rx        0083 -  8    85 04 00 00 00 00 80 BC 
   644)       679.401 1  Rx        009B -  8    15 00 04 55 00 79 00 FF 
   645)       680.212 1  Rx        0023 -  8    10 12 10 00 00 00 C5 99 
   646)       683.284 1  Rx        00AD -  5    01 00 00 50 1A 
   647)       684.436 1  Rx        002F -  8    00 00 00 00 01 ED 80 00 
   648)       684.649 1  Rx        0087 -  8    01 46 00 00 00 58 80 AC 
   649)       684.905 1  Rx        0089 -  8    FF FF FF 6D FF FF 80 FF 
   650)       685.161 1  Rx        008B -  8    00 00 00 00 00 00 00 00 
   651)       685.374 1  Rx        00A7 -  8    00 00 00 F4 40 F2 80 B6 
   652)       685.545 1  Rx        00B1 -  3    00 00 BE 
   653)       685.801 1  Rx        00DD -  8    00 00 00 00 00 80 00 00 
   654)       689.470 1  Rx        0077 -  2    00 01 
   655)       690.281 1  Rx        0023 -  8    10 12 10 00 00 00 D6 73 
   656)       693.523 1  Rx        0328 -  8    30 01 00 49 00 43 00 20 
   657)       694.419 1  Rx        002F -  8    00 00 00 00 01 F5 80 00 
   658)       694.675 1  Rx        0071 -  8    1F FF 00 00 82 00 90 CE 
   659)       694.889 1  Rx        0079 -  8    82 EA 03 2C 00 00 90 82 
   660)       695.145 1  Rx        007F -  8    45 2F 00 00 00 00 FF FF 
   661)       695.401 1  Rx        0083 -  8    85 04 00 00 00 00 90 71 
   662)       699.411 1  Rx        009B -  8    15 00 04 55 00 79 00 FF 
   663)       700.222 1  Rx        0023 -  8    10 12 10 00 00 00 E5 1E 
   664)       703.294 1  Rx        00AD -  5    01 00 00 60 50 
   665)       704.446 1  Rx        002F -  8    00 00 00 00 01 FC 80 00 
   666)       704.659 1  Rx        0087 -  8    01 5E 00 00 00 57 90 DC 
   667)       704.915 1  Rx        0089 -  8    FF FF FF 6D FF FF 90 FF 
   668)       705.171 1  Rx        008B -  8    00 00 00 00 00 00 00 00 
   669)       705.385 1  Rx        00A7 -  8    00 00 00 FA 40 F8 90 4C 
   670)       705.555 1  Rx        00B1 -  3    00 10 73 
   671)       709.310 1  Rx        0077 -  2    00 01 
   672)       710.334 1  Rx        0023 -  8    10 12 10 00 00 00 F5 D3 
   673)       714.430 1  Rx        002F -  8    00 00 00 00 02 02 80 00 
   674)       714.643 1  Rx        0071 -  8    1F FF 00 00 83 00 A0 0B 
   675)       714.899 1  Rx        0079 -  8    83 23 03 61 00 00 A0 F2 
   676)       715.155 1  Rx        007F -  8    45 2F 00 00 00 00 FF FF 
   677)       715.368 1  Rx        0083 -  8    85 04 00 00 00 00 A0 3B 
   678)       719.379 1  Rx        009B -  8    15 00 04 55 00 79 00 FF 
   679)       720.232 1  Rx        0023 -  8    10 12 10 00 00 00 06 8B 
   680)       723.304 1  Rx        00AD -  5    01 00 00 70 9D 
   681)       723.560 1  Rx        0328 -  8    20 01 00 4F 00 46 00 46 
   682)       724.414 1  Rx        002F -  8    00 00 00 00 02 08 80 00 
   683)       724.712 1  Rx        0087 -  8    01 74 00 00 00 56 A0 74 
   684)       724.926 1  Rx        0089 -  8    FF FF FF 6D FF FF A0 FF 
   685)       725.139 1  Rx        008B -  8    00 00 00 00 00 00 00 00 
   686)       725.395 1  Rx        00A7 -  8    00 00 01 00 40 FE A0 AC 
   687)       725.566 1  Rx        00B1 -  3    00 20 39 
   688)       729.320 1  Rx        0077 -  2    00 01 
   689)       730.344 1  Rx        0023 -  8    10 12 10 00 00 00 16 46 
   690)       734.440 1  Rx        002F -  8    00 00 00 00 02 0E 80 00 
   691)       734.653 1  Rx        0071 -  8    1F FF 00 00 85 00 B0 C3 
   692)       734.909 1  Rx        0079 -  8    83 62 03 96 00 00 B0 13 
   693)       735.165 1  Rx        007F -  8    45 2F 00 00 00 00 FF FF 
   694)       735.379 1  Rx        0083 -  8    85 04 00 00 00 00 B0 F6 
   695)       735.635 1  Rx        00DD -  8    00 00 00 00 00 80 00 00 
   696)       735.891 1  Rx        0423 -  8    FD 00 84 0F 00 00 00 00 
   697)       739.475 1  Rx        009B -  8    15 00 04 55 00 79 00 FF 
   698)       739.731 1  Rx        0133 -  8    00 00 00 00 FF 03 0C FF 
   699)       740.243 1  Rx        0023 -  8    10 12 10 00 00 00 25 2B 
   700)       740.627 1  Rx        0318 -  8    00 00 00 00 00 00 FF 00 
   701)       743.272 1  Rx        00AD -  5    01 00 00 80 E2 
   702)       744.424 1  Rx        002F -  8    00 00 00 00 02 13 80 00 
   703)       744.680 1  Rx        0087 -  8    01 89 00 00 00 55 B0 E8 
   704)       744.893 1  Rx        0089 -  8    FF FF FF 6D FF FF B0 FF 
   705)       745.149 1  Rx        008B -  8    00 00 00 00 00 00 00 00 
   706)       745.405 1  Rx        00A7 -  8    00 00 01 06 41 03 B0 5E 
   707)       745.576 1  Rx        00B1 -  3    00 30 F4 
   708)       745.789 1  Rx        02F2 -  8    00 00 00 00 00 00 00 00 
   709)       749.373 1  Rx        0077 -  2    00 01 
   710)       750.312 1  Rx        0023 -  8    10 12 10 00 00 00 35 E6 
   711)       753.597 1  Rx        0328 -  8    10 01 00 00 00 00 00 00 
   712)       754.408 1  Rx        002F -  8    00 00 00 00 02 1A 80 00 
   713)       754.707 1  Rx        0071 -  8    1F FF 00 00 85 00 C0 9A 
   714)       754.920 1  Rx        0079 -  8    83 9E 03 C5 00 00 C0 82 
   715)       755.133 1  Rx        007F -  8    45 2F 00 00 00 00 FF FF 
   716)       755.389 1  Rx        0083 -  8    85 04 00 00 00 00 C0 AF 
   717)       759.442 1  Rx        009B -  8    15 00 04 55 00 79 00 FF 
   718)       759.741 1  Rx        012B -  8    9A 18 90 5C 21 FF 7E FF 
   719)       759.954 1  Rx        013F -  8    FF FF C1 CB 01 35 00 00 
   720)       760.296 1  Rx        0023 -  8    10 12 10 00 00 00 46 98 
   721)       760.424 1  Rx        0129 -  4    01 00 00 00 
   722)       763.282 1  Rx        00AD -  5    01 00 00 90 2F 
   723)       764.434 1  Rx        002F -  8    00 00 00 00 02 1E 80 00 
   724)       764.733 1  Rx        0087 -  8    01 9C 00 00 00 54 C0 AA 
   725)       764.904 1  Rx        0089 -  8    FF FF FF 6D FF FF C0 FF 
   726)       765.160 1  Rx        008B -  8    00 00 00 00 00 00 00 00 
   727)       765.416 1  Rx        00A7 -  8    00 00 01 0B 41 08 C0 C6 
   728)       765.544 1  Rx        00B1 -  3    00 40 AD 
   729)       769.341 1  Rx        0077 -  2    00 01 
   730)       770.280 1  Rx        0023 -  8    10 12 10 00 00 00 55 72 
   731)       770.493 1  Rx        01C0 -  6    00 00 00 00 00 00 
   732)       774.418 1  Rx        002F -  8    00 00 00 00 02 23 80 00 
   733)       774.717 1  Rx        0071 -  8    1F FF 00 00 86 00 D0 DB 
   734)       774.888 1  Rx        0079 -  8    83 CF 03 F0 00 00 D0 F1 
   735)       775.144 1  Rx        007F -  8    45 2F 00 00 00 00 FF FF 
   736)       775.400 1  Rx        0083 -  8    85 04 00 00 00 00 D0 62 
   737)       779.410 1  Rx        009B -  8    15 00 04 55 00 79 00 FF 
   738)       780.221 1  Rx        0023 -  8    10 12 10 00 00 00 66 1F 
   739)       783.293 1  Rx        00AD -  5    01 00 00 A0 65 
   740)       783.549 1  Rx        0328 -  8    00 01 00 00 00 00 00 00 
   741)       784.445 1  Rx        002F -  8    00 00 00 00 02 27 80 00 
   742)       784.658 1  Rx        0087 -  8    01 AE 00 00 00 54 D0 D7 
   743)       784.914 1  Rx        0089 -  8    FF FF FF 6D FF FF D0 FF 
   744)       785.170 1  Rx        008B -  8    00 00 00 00 00 00 00 00 
   745)       785.383 1  Rx        00A7 -  8    00 00 01 10 41 0D D0 69 
   746)       785.554 1  Rx        00B1 -  3    00 50 60 
   747)       785.810 1  Rx        00DD -  8    00 00 00 00 00 80 00 00 
   748)       789.522 1  Rx        0077 -  2    00 01 
   749)       790.290 1  Rx        0023 -  8    10 12 10 00 00 00 75 F5 
   750)       794.429 1  Rx        002F -  8    00 00 00 00 02 2B 80 00 
   751)       794.642 1  Rx        0071 -  8    1F FF 00 00 87 00 E0 1E 
   752)       794.898 1  Rx        0079 -  8    83 FA 04 17 00 00 E0 D0 
   753)       795.154 1  Rx        007F -  8    45 2F 00 00 00 00 FF FF 
   754)       795.367 1  Rx        0083 -  8    85 04 00 00 00 00 E0 28 
   755)       799.420 1  Rx        009B -  8    15 00 04 55 00 79 00 FF 
   756)       800.231 1  Rx        0023 -  8    10 12 10 00 00 00 86 AD 
   757)       803.303 1  Rx        00AD -  5    01 00 00 B0 A8 
   758)       804.412 1  Rx        002F -  8    00 00 00 00 02 2E 80 00 
   759)       804.668 1  Rx        0087 -  8    01 BD 00 00 00 53 E0 BA 
   760)       804.924 1  Rx        0089 -  8    FF FF FF 6D FF FF E0 FF 
   761)       805.138 1  Rx        008B -  8    00 00 00 00 00 00 00 00 
   762)       805.394 1  Rx        00A7 -  8    00 00 01 14 41 11 E0 AE 
   763)       805.564 1  Rx        00B1 -  3    00 60 2A 
   764)       809.319 1  Rx        0077 -  2    00 01 
   765)       810.343 1  Rx        0023 -  8    10 12 10 00 00 00 96 60 
   766)       813.628 1  Rx        0328 -  8    00 00 00 00 00 00 00 00 
   767)       814.396 1  Rx        002F -  8    00 00 00 00 02 31 80 00 
   768)       814.652 1  Rx        0071 -  8    1F FF 00 00 88 00 F0 55 
   769)       814.908 1  Rx        0079 -  8    84 20 04 38 00 00 F0 D3 
   770)       815.122 1  Rx        007F -  8    45 2F 00 00 00 00 FF FF 
   771)       815.378 1  Rx        0083 -  8    85 04 00 00 00 00 F0 E5 
   772)       819.431 1  Rx        009B -  8    15 00 04 55 00 79 00 FF 
   773)       820.284 1  Rx        0023 -  8    10 12 10 00 00 00 A6 2A 
   774)       823.271 1  Rx        00AD -  5    01 00 00 C0 F1 
   775)       824.423 1  Rx        002F -  8    00 00 00 00 02 33 80 00 
   776)       824.721 1  Rx        0087 -  8    01 C9 00 00 00 53 F0 1E 
   777)       824.892 1  Rx        0089 -  8    FF FF FF 6D FF FF F0 FF 
   778)       825.148 1  Rx        008B -  8    00 00 00 00 00 00 00 00 
   779)       825.404 1  Rx        00A7 -  8    00 00 01 17 41 14 F0 B8 
   780)       825.575 1  Rx        00B1 -  3    00 70 E7 
   781)       829.329 1  Rx        0077 -  2    00 01 
   782)       830.311 1  Rx        0023 -  8    10 12 10 00 00 00 B5 C0 
   783)       834.407 1  Rx        002F -  8    00 00 00 00 02 35 80 00 
   784)       834.663 1  Rx        0071 -  8    1F FF 00 00 88 00 00 2A 
   785)       834.919 1  Rx        0079 -  8    84 3F 04 55 00 00 00 EC 
   786)       835.132 1  Rx        007F -  8    45 2F 00 00 00 00 FF FF 
   787)       835.388 1  Rx        0083 -  8    85 04 00 00 00 00 00 9A 
   788)       835.644 1  Rx        00DD -  8    00 00 00 00 00 80 00 00 
   789)       835.900 1  Rx        0400 -  8    FD 01 BF FF FF FF FF FF 
   790)       839.484 1  Rx        009B -  8    15 00 04 55 00 79 00 FF 
   791)       839.740 1  Rx        0133 -  8    00 00 00 00 FF 03 0C FF 
   792)       840.252 1  Rx        0023 -  8    10 12 10 00 00 00 C6 BE 
   793)       840.636 1  Rx        0318 -  8    00 00 00 00 00 00 FF 00 
   794)       843.281 1  Rx        00AD -  5    01 00 00 D0 3C 
   795)       844.433 1  Rx        002F -  8    00 00 00 00 02 37 80 00 
   796)       844.646 1  Rx        0087 -  8    01 D3 00 00 00 53 00 F3 
   797)       844.902 1  Rx        0089 -  8    FF FF FF 6D FF FF 00 FF 
   798)       845.158 1  Rx        008B -  8    00 00 00 00 00 00 00 00 
   799)       845.372 1  Rx        00A7 -  8    00 00 01 19 41 17 00 E6 
   800)       845.542 1  Rx        00B1 -  3    00 80 98 
   801)       845.798 1  Rx        02F2 -  8    00 00 00 00 00 00 00 00 
   802)       849.382 1  Rx        0077 -  2    00 01 
   803)       850.321 1  Rx        0023 -  8    10 12 10 00 00 00 D5 54 
   804)       854.417 1  Rx        002F -  8    00 00 00 00 02 39 80 00 
   805)       854.673 1  Rx        0071 -  8    1F FF 00 00 89 00 10 68 
   806)       854.886 1  Rx        0079 -  8    84 59 04 6B 00 00 10 4A 
   807)       855.142 1  Rx        007F -  8    45 2F 00 00 00 00 FF FF 
   808)       855.398 1  Rx        0083 -  8    85 04 00 00 00 00 10 57 
   809)       859.409 1  Rx        009B -  8    15 00 04 55 00 79 00 FF 
   810)       859.665 1  Rx        012B -  8    9A 18 90 5C 21 FF 7E FF 
   811)       859.921 1  Rx        013F -  8    FF FF C1 DB 01 35 00 00 
   812)       860.305 1  Rx        0023 -  8    10 12 10 00 00 00 E6 39 
   813)       860.476 1  Rx        0129 -  4    01 00 00 00 
   814)       863.291 1  Rx        00AD -  5    01 00 00 E0 76 
   815)       864.443 1  Rx        002F -  8    00 00 00 00 02 3A 80 00 
   816)       864.657 1  Rx        0087 -  8    01 DC 00 00 00 52 10 B7 
   817)       864.913 1  Rx        0089 -  8    FF FF FF 6D FF FF 10 FF 
   818)       865.169 1  Rx        008B -  8    00 00 00 00 00 00 00 00 
   819)       865.382 1  Rx        00A7 -  8    00 00 01 1C 41 19 10 17 
   820)       865.553 1  Rx        00B1 -  3    00 90 55 
   821)       869.307 1  Rx        0077 -  2    00 01 
   822)       870.331 1  Rx        0023 -  8    10 12 10 00 00 00 F6 F4 
   823)       874.427 1  Rx        002F -  8    00 00 00 00 02 3B 80 00 
   824)       874.641 1  Rx        0071 -  8    1F FF 00 00 89 00 20 22 
   825)       874.897 1  Rx        0079 -  8    84 6E 04 7B 00 00 20 D6 
   826)       875.153 1  Rx        007F -  8    45 2F 00 00 00 00 FF FF 
   827)       875.366 1  Rx        0083 -  8    85 04 00 00 00 00 20 1D 
   828)       879.419 1  Rx        009B -  8    15 00 04 55 00 79 00 FF 
   829)       880.230 1  Rx        0023 -  8    10 12 10 00 00 00 05 AC 
   830)       883.302 1  Rx        00AD -  5    01 00 00 F0 BB 
   831)       884.411 1  Rx        002F -  8    00 00 00 00 02 3C 80 00 
   832)       884.667 1  Rx        0087 -  8    01 E2 00 00 00 52 20 42 
   833)       884.880 1  Rx        0089 -  8    FF FF FF 6D FF FF 20 FF 
   834)       885.136 1  Rx        008B -  8    00 00 00 00 00 00 00 00 
   835)       885.392 1  Rx        00A7 -  8    00 00 01 1D 41 1B 20 58 
   836)       885.563 1  Rx        00B1 -  3    00 A0 1F 
   837)       885.776 1  Rx        00DD -  8    00 00 00 00 00 80 00 00 
   838)       889.488 1  Rx        0077 -  2    00 01 
   839)       890.299 1  Rx        0023 -  8    10 12 10 00 00 00 16 46 
   840)       894.395 1  Rx        002F -  8    00 00 00 00 02 3C 80 00 
   841)       894.651 1  Rx        0071 -  8    1F FF 00 00 89 00 30 EF 
   842)       894.907 1  Rx        0079 -  8    84 7E 04 8A 00 00 30 5C 
   843)       895.120 1  Rx        007F -  8    45 2F 00 00 00 00 FF FF 
   844)       895.376 1  Rx        0083 -  8    85 04 00 00 00 00 30 D0 
   845)       899.430 1  Rx        009B -  8    15 00 04 55 00 79 00 FF 
   846)       900.283 1  Rx        0023 -  8    10 12 10 00 00 00 26 0C 
   847)       903.270 1  Rx        00AD -  5    01 00 00 00 C4 
   848)       904.422 1  Rx        002F -  8    00 00 00 00 02 3C 80 00 
   849)       904.677 1  Rx        0087 -  8    01 E7 00 00 00 52 30 CC 
   850)       904.891 1  Rx        0089 -  8    FF FF FF 6D FF FF 30 FF 
   851)       905.147 1  Rx        008B -  8    00 00 00 00 00 00 00 00 
   852)       905.403 1  Rx        00A7 -  8    00 00 01 1F 41 1C 30 4B 
   853)       905.531 1  Rx        00B1 -  3    00 B0 D2 
   854)       909.328 1  Rx        0077 -  2    00 01 
   855)       910.309 1  Rx        0023 -  8    10 12 10 00 00 00 35 E6 
   856)       914.405 1  Rx        002F -  8    00 00 00 00 02 3C 80 00 
   857)       914.704 1  Rx        0071 -  8    1F FF 00 00 89 00 40 B6 
   858)       914.875 1  Rx        0079 -  8    84 8B 04 93 00 00 40 AE 
   859)       915.131 1  Rx        007F -  8    45 2F 00 00 00 00 FF FF 
   860)       915.387 1  Rx        0083 -  8    85 04 00 00 00 00 40 89 
   861)       919.397 1  Rx        009B -  8    15 00 04 55 00 79 00 FF 
   862)       920.251 1  Rx        0023 -  8    10 12 10 00 00 00 46 98 
   863)       921.360 1  Rx        0401 -  8    FD 02 04 0F 02 00 00 00 
   864)       923.280 1  Rx        00AD -  5    01 00 00 10 09 
   865)       924.432 1  Rx        002F -  8    00 00 00 00 02 3C 80 00 
   866)       924.731 1  Rx        0087 -  8    01 EB 00 00 00 52 40 9A 
   867)       924.944 1  Rx        0089 -  8    FF FF FF 6D FF FF 40 FF 
   868)       925.157 1  Rx        008B -  8    00 00 00 00 00 00 00 00 
   869)       925.413 1  Rx        00A7 -  8    00 00 01 20 41 1D 40 59 
   870)       925.541 1  Rx        00B1 -  3    00 C0 8B 
   871)       929.338 1  Rx        0077 -  2    00 01 
   872)       929.637 1  Rx        025D -  8    03 FC 00 00 7F 7F 7F 7F 
   873)       929.850 1  Rx        028B -  8    00 00 00 00 00 1E 00 00 
   874)       930.106 1  Rx        038A -  8    01 00 00 00 00 00 00 00 
   875)       930.362 1  Rx        0023 -  8    10 12 10 00 00 00 55 72 
   876)       934.416 1  Rx        002F -  8    00 00 00 00 02 3C 80 00 
   877)       934.672 1  Rx        0071 -  8    1F FF 00 00 89 00 50 7B 
   878)       934.928 1  Rx        0079 -  8    84 95 04 9D 00 00 50 01 
   879)       935.141 1  Rx        007F -  8    45 2F 00 00 00 00 FF FF 
   880)       935.397 1  Rx        0083 -  8    85 04 00 00 00 00 50 44 
   881)       935.653 1  Rx        00DD -  8    00 00 00 00 00 80 00 00 
   882)       939.493 1  Rx        009B -  8    15 00 04 55 00 79 00 FF 
   883)       939.792 1  Rx        0133 -  8    00 00 00 00 FF 03 0C FF 
   884)       940.048 1  Rx        03A9 -  8    0E 3C 1E FF FF 61 D0 02 
   885)       940.304 1  Rx        03E4 -  8    81 DF 88 46 06 00 00 00 
   886)       940.560 1  Rx        0023 -  8    10 12 10 00 00 00 65 38 
   887)       940.773 1  Rx        0318 -  8    00 00 00 00 00 00 FF 00 
   888)       943.290 1  Rx        00AD -  5    01 00 00 20 43 
   889)       944.442 1  Rx        002F -  8    00 00 00 00 02 3B 80 00 
   890)       944.698 1  Rx        0087 -  8    01 EE 00 00 00 52 50 14 
   891)       944.912 1  Rx        0089 -  8    FF FF FF 6D FF FF 50 FF 
   892)       945.168 1  Rx        008B -  8    00 00 00 00 00 00 00 00 
   893)       945.424 1  Rx        00A7 -  8    00 00 01 20 41 1E 50 40 
   894)       945.552 1  Rx        00B1 -  3    00 D0 46 
   895)       945.808 1  Rx        02F2 -  8    00 00 00 00 00 00 00 00 
   896)       946.362 1  Rx        0620 -  8    02 3E 00 00 00 00 00 00 
   897)       949.477 1  Rx        0077 -  2    00 01 
   898)       949.733 1  Rx        038E -  8    00 00 00 20 4B 21 C6 CF 
   899)       949.989 1  Rx        0504 -  8    02 7E 00 C2 03 00 C8 0D 
   900)       950.287 1  Rx        03E3 -  8    11 04 10 08 00 00 00 00 
   901)       950.543 1  Rx        0023 -  8    10 12 10 00 00 00 75 F5 
   902)       950.757 1  Rx        03E8 -  8    49 31 A2 43 00 0E 50 5C 
   903)       954.597 1  Rx        002F -  8    00 00 00 00 02 3B 80 00 
   904)       954.810 1  Rx        0071 -  8    1F FF 00 00 89 00 60 31 
   905)       955.066 1  Rx        0079 -  8    84 9D 04 A2 00 00 60 46 
   906)       955.279 1  Rx        007F -  8    45 2F 00 00 00 00 FF FF 
   907)       955.535 1  Rx        0083 -  8    85 04 00 00 00 00 60 0E 
   908)       959.503 1  Rx        009B -  8    15 00 04 55 00 79 00 FF 
   909)       959.759 1  Rx        012B -  8    9A 18 90 5C 21 FF 7E FF 
   910)       960.015 1  Rx        013F -  8    FF FF C1 E7 01 35 00 00 
   911)       960.229 1  Rx        01C8 -  4    00 00 00 00 
   912)       960.442 1  Rx        0023 -  8    10 12 10 00 00 00 85 8A 
   913)       960.698 1  Rx        03E9 -  8    01 5C 64 00 24 24 00 00 
   914)       960.826 1  Rx        0129 -  4    01 00 00 00 
   915)       963.301 1  Rx        00AD -  5    01 00 00 30 8E 
   916)       964.453 1  Rx        002F -  8    00 00 00 00 02 3B 80 00 
   917)       964.709 1  Rx        0087 -  8    01 F0 00 00 00 52 60 C9 
   918)       964.922 1  Rx        0089 -  8    FF FF FF 6D FF FF 60 FF 
   919)       965.178 1  Rx        008B -  8    00 00 00 00 00 00 00 00 
   920)       965.434 1  Rx        00A7 -  8    00 00 01 21 41 1F 60 DB 
   921)       965.562 1  Rx        00B1 -  3    00 E0 0C 
   922)       969.359 1  Rx        0077 -  2    00 01 
   923)       969.658 1  Rx        025F -  8    00 00 00 00 00 00 00 00 
   924)       969.786 1  Rx        039E -  3    01 00 00 
   925)       970.042 1  Rx        03EA -  8    41 47 1E 08 8A 34 41 A4 
   926)       970.383 1  Rx        0023 -  8    10 12 10 00 00 00 95 47 
   927)       970.639 1  Rx        01C0 -  6    00 00 00 00 00 00 
   928)       974.436 1  Rx        002F -  8    00 00 00 00 02 3B 80 00 
   929)       974.692 1  Rx        0071 -  8    1F FF 00 00 89 00 70 FC 
   930)       974.906 1  Rx        0079 -  8    84 A2 04 A6 00 00 70 3C 
   931)       975.162 1  Rx        007F -  8    45 2F 00 00 00 00 FF FF 
   932)       975.418 1  Rx        0083 -  8    85 04 00 00 00 00 70 C3 
   933)       979.386 1  Rx        009B -  8    15 00 04 55 00 79 00 FF 
   934)       979.684 1  Rx        0332 -  8    00 E1 03 FF 00 00 03 E8 
   935)       979.940 1  Rx        03EB -  8    43 E8 0D 7A 0A A0 09 8D 
   936)       980.282 1  Rx        0023 -  8    10 12 10 00 00 00 A5 0D 
   937)       980.452 1  Rx        0129 -  4    22 00 00 00 
   938)       983.311 1  Rx        00AD -  5    01 00 00 40 D7 
   939)       984.164 1  Rx        020C -  8    05 03 E7 A7 24 1E 84 40 
   940)       984.463 1  Rx        002F -  8    00 00 00 00 02 3B 80 00 
   941)       984.676 1  Rx        0087 -  8    01 F2 00 00 00 52 70 88 
   942)       984.932 1  Rx        0089 -  8    FF FF FF 6D FF FF 70 FF 
   943)       985.188 1  Rx        008B -  8    00 00 00 00 00 00 00 00 
   944)       985.402 1  Rx        00A7 -  8    00 00 01 22 41 1F 70 AC 
   945)       985.572 1  Rx        00B1 -  3    00 F0 C1 
   946)       985.786 1  Rx        00DD -  8    00 00 00 00 00 80 00 00 
   947)       986.042 1  Rx        02A7 -  8    00 00 00 00 00 00 00 00 
   948)       989.455 1  Rx        0077 -  2    00 01 
   949)       989.711 1  Rx        0230 -  8    00 35 31 08 00 00 00 00 
   950)       989.967 1  Rx        03B3 -  8    01 30 70 01 E4 A1 07 10 
   951)       990.223 1  Rx        03F0 -  8    3D CD 04 11 43 E8 80 9F 
   952)       990.479 1  Rx        0023 -  8    10 12 10 00 00 00 B6 E7 
   953)       990.692 1  Rx        044A -  8    01 00 00 00 00 00 00 20 
   954)       994.447 1  Rx        002F -  8    00 00 00 00 02 3B 80 00 
   955)       994.660 1  Rx        0071 -  8    1F FF 00 00 89 00 80 83 
   956)       994.916 1  Rx        0079 -  8    84 A8 04 AE 00 00 80 59 
   957)       995.172 1  Rx        007F -  8    45 2F 00 00 00 00 FF FF 
   958)       995.385 1  Rx        0083 -  8    85 04 00 00 00 00 80 BC 
   959)       997.177 1  Rx        020E -  6    AB 12 75 0D 00 00 
   960)       999.481 1  Rx        009B -  8    15 00 04 55 00 79 00 FF 
   961)       999.780 1  Rx        0248 -  8    00 00 FF FF FF 03 FF FF 
   962)       999.951 1  Rx        02B1 -  5    7F 0F 08 7F 7F 
   963)      1000.207 1  Rx        03B4 -  8    35 80 00 00 00 00 04 00 
   964)      1000.463 1  Rx        0023 -  8    10 12 10 00 00 00 C5 99 
   965)      1000.633 1  Rx        0129 -  4    36 00 00 00 
   966)      1000.847 1  Rx        03F1 -  8    0D B9 0F 00 0C 04 6F C0 
   967)      1001.103 1  Rx        044C -  8    79 00 00 00 00 00 FF FF 
   968)      1003.279 1  Rx        00AD -  5    01 00 00 50 1A 
   969)      1004.431 1  Rx        002F -  8    00 00 00 00 02 3A 80 00 
   970)      1004.687 1  Rx        0087 -  8    01 F4 00 00 00 52 80 7E 
   971)      1004.900 1  Rx        0089 -  8    FF FF FF 6D FF FF 80 FF 
   972)      1005.156 1  Rx        008B -  8    00 00 00 00 00 00 00 00 
   973)      1005.412 1  Rx        00A7 -  8    00 00 01 22 41 1F 80 D3 
   974)      1005.583 1  Rx        00B1 -  3    00 00 BE 
   975)      1009.295 1  Rx        0077 -  2    00 02 
   976)      1009.551 1  Rx        03F2 -  8    05 02 B0 01 08 20 10 04 
   977)      1009.807 1  Rx        03F7 -  8    C1 2E 01 3C A1 88 48 00 
   978)      1010.319 1  Rx        0023 -  8    10 12 10 00 00 00 D6 73 
   979)      1014.414 1  Rx        002F -  8    00 00 00 00 02 3B 80 00 
   980)      1014.670 1  Rx        0071 -  8    1F FF 00 00 8A 00 90 C2 
   981)      1014.884 1  Rx        0079 -  8    84 AD 04 B0 00 00 90 07 
   982)      1015.140 1  Rx        007F -  8    45 2F 00 00 00 00 FF FF 
   983)      1015.396 1  Rx        0083 -  8    85 04 00 00 00 00 90 71 
   984)      1015.609 1  Rx        0402 -  8    FD 03 BF FF FF FF FF FF 
   985)      1019.406 1  Rx        009B -  8    15 00 04 55 00 79 00 FF 
   986)      1019.705 1  Rx        0261 -  8    19 66 17 F0 17 91 03 E3 
   987)      1019.918 1  Rx        03D8 -  8    FD 00 64 FA 58 23 00 00 
   988)      1020.174 1  Rx        03F3 -  8    81 00 20 00 00 02 00 00 
   989)      1020.430 1  Rx        0023 -  8    10 12 10 00 00 00 E5 1E 
   990)      1023.289 1  Rx        00AD -  5    01 00 00 60 50 
   991)      1024.441 1  Rx        002F -  8    00 00 00 00 02 3B 80 00 
   992)      1024.697 1  Rx        0087 -  8    01 F6 00 00 00 52 90 3F 
   993)      1024.910 1  Rx        0089 -  8    FF FF FF 6D FF FF 90 FF 
   994)      1025.166 1  Rx        008B -  8    00 00 00 00 00 00 00 00 
   995)      1025.422 1  Rx        00A7 -  8    00 00 01 23 41 20 90 E1 
   996)      1025.550 1  Rx        00B1 -  3    00 10 73 
   997)      1029.348 1  Rx        0077 -  2    00 02 
   998)      1029.604 1  Rx        0297 -  8    F0 FF 03 00 00 0C 00 FF 
   999)      1029.860 1  Rx        03D7 -  8    01 00 00 00 00 00 00 00 
  1000)      1030.116 1  Rx        03F4 -  8    11 0F FF 20 02 00 00 00 
  1001)      1030.372 1  Rx        0023 -  8    10 12 10 00 00 00 F6 F4 
  1002)      1034.425 1  Rx        002F -  8    00 00 00 00 02 3A 80 00 
  1003)      1034.681 1  Rx        0071 -  8    1F FF 00 00 8A 00 A0 88 
  1004)      1034.894 1  Rx        0079 -  8    84 B0 04 B2 00 00 A0 37 
  1005)      1035.150 1  Rx        007F -  8    45 2F 00 00 00 00 FF FF 
  1006)      1035.363 1  Rx        0083 -  8    85 04 00 00 00 00 A0 3B 
  1007)      1035.619 1  Rx        00DD -  8    00 00 00 00 00 80 00 00 
  1008)      1039.545 1  Rx        009B -  8    15 00 04 55 00 79 00 FF 
  1009)      1039.801 1  Rx        0133 -  8    00 00 00 00 FF 03 0C FF 
  1010)      1040.057 1  Rx        022D -  8    FF 00 00 00 00 00 00 00 
  1011)      1040.313 1  Rx        0023 -  8    10 12 10 00 00 00 06 8B 
  1012)      1040.569 1  Rx        02AD -  8    00 00 00 00 00 00 FF FF 
  1013)      1040.825 1  Rx        0318 -  8    00 00 00 00 00 00 FF 00 
  1014)      1041.038 1  Rx        03F5 -  8    01 00 00 00 0C 00 10 10 
  1015)      1043.299 1  Rx        00AD -  5    01 00 00 70 9D 
  1016)      1044.451 1  Rx        002F -  8    00 00 00 00 02 3A 80 00 
  1017)      1044.665 1  Rx        0087 -  8    01 F7 00 00 00 52 A0 33 
  1018)      1044.921 1  Rx        0089 -  8    FF FF FF 6D FF FF A0 FF 
  1019)      1045.177 1  Rx        008B -  8    00 00 00 00 00 00 00 00 
  1020)      1045.433 1  Rx        00A7 -  8    00 00 01 23 41 20 A0 AB 
  1021)      1045.561 1  Rx        00B1 -  3    00 20 39 
  1022)      1045.817 1  Rx        02F2 -  8    00 00 00 00 00 00 00 00 
  1023)      1049.358 1  Rx        0296 -  8    60 00 00 25 25 25 24 FF 
  1024)      1049.486 1  Rx        0077 -  2    05 02 
  1025)      1049.742 1  Rx        0350 -  8    20 2C 08 07 E5 06 18 39 
  1026)      1050.041 1  Rx        03D5 -  8    01 00 00 00 00 00 00 00 
  1027)      1050.382 1  Rx        0023 -  8    10 12 10 00 00 00 16 46 
  1028)      1054.435 1  Rx        002F -  8    00 00 00 00 02 3A 80 00 
  1029)      1054.648 1  Rx        0071 -  8    1F FF 00 00 8A 00 B0 45 
  1030)      1054.904 1  Rx        0079 -  8    84 B3 04 B5 00 00 B0 C4 
  1031)      1055.160 1  Rx        007F -  8    45 2F 00 00 00 00 FF FF 
  1032)      1055.374 1  Rx        0083 -  8    85 04 00 00 00 00 B0 F6 
  1033)      1055.630 1  Rx        01F7 -  8    FF FF 0F FF 00 80 00 00 
  1034)      1059.470 1  Rx        009B -  8    15 00 04 55 00 79 00 FF 
  1035)      1059.726 1  Rx        012B -  8    9A 18 90 5C 20 FF 7E FF 
  1036)      1059.982 1  Rx        013F -  8    FF FF C1 E7 01 35 00 00 
  1037)      1060.238 1  Rx        0281 -  8    E8 23 00 21 00 00 00 7C 
  1038)      1060.494 1  Rx        0023 -  8    10 12 10 00 00 00 26 0C 
  1039)      1060.664 1  Rx        0129 -  4    36 00 00 00 
  1040)      1060.835 1  Rx        0358 -  4    FF 01 FF 00 
  1041)      1061.091 1  Rx        03D3 -  8    1D 13 0A 03 FF DA 0F 0F 
  1042)      1061.347 1  Rx        03D4 -  8    41 60 20 40 00 00 00 00 
  1043)      1061.603 1  Rx        03D6 -  8    69 30 00 00 36 11 05 00 
  1044)      1063.310 1  Rx        00AD -  5    01 00 00 80 E2 
  1045)      1064.419 1  Rx        002F -  8    00 00 00 00 02 3A 80 00 
  1046)      1064.675 1  Rx        0087 -  8    01 F7 00 00 00 52 B0 FE 
  1047)      1064.931 1  Rx        0089 -  8    FF FF FF 6D FF FF B0 FF 
  1048)      1065.144 1  Rx        008B -  8    00 00 00 00 00 00 00 00 
  1049)      1065.400 1  Rx        00A7 -  8    00 00 01 23 41 20 B0 66 
  1050)      1065.528 1  Rx        00B1 -  3    00 30 F4 
  1051)      1065.784 1  Rx        03AA -  8    00 00 00 00 00 00 00 00 
  1052)      1069.326 1  Rx        0077 -  2    05 02 
  1053)      1069.624 1  Rx        0283 -  8    00 08 00 00 00 01 00 00 
  1054)      1069.838 1  Rx        035C -  6    00 00 00 00 00 00 
  1055)      1070.307 1  Rx        0023 -  8    10 12 10 00 00 00 35 E6 
  1056)      1074.446 1  Rx        002F -  8    00 00 00 00 02 3A 80 00 
  1057)      1074.702 1  Rx        0071 -  8    1F FF 00 00 8A 00 C0 1C 
  1058)      1074.915 1  Rx        0079 -  8    84 B5 04 B7 00 00 C0 33 
  1059)      1075.171 1  Rx        007F -  8    45 2F 00 00 00 00 FF FF 
  1060)      1075.384 1  Rx        0083 -  8    85 04 00 00 00 00 C0 AF 
  1061)      1075.640 1  Rx        02A1 -  8    80 08 FC F3 A9 FE 7D FE 
  1062)      1079.523 1  Rx        009B -  8    15 00 04 55 00 79 00 FF 
  1063)      1079.693 1  Rx        03C9 -  4    71 3F 00 00 
  1064)      1079.949 1  Rx        03F6 -  8    09 A9 82 33 88 88 88 44 
  1065)      1080.291 1  Rx        0023 -  8    10 12 10 00 00 00 45 BF 
  1066)      1083.277 1  Rx        00AD -  5    01 00 00 90 2F 
  1067)      1084.387 1  Rx        002F -  8    00 00 00 00 02 3B 80 00 
  1068)      1084.643 1  Rx        0087 -  8    01 F9 00 00 00 52 C0 24 
  1069)      1084.899 1  Rx        0089 -  8    80 00 80 6D 80 80 C0 80 
  1070)      1085.112 1  Rx        008B -  8    C0 00 C0 00 C0 00 C0 00 
  1071)      1085.368 1  Rx        00A7 -  8    00 00 01 23 41 20 C0 3F 
  1072)      1085.539 1  Rx        00B1 -  3    00 40 AD 
  1073)      1085.752 1  Rx        00DD -  8    00 00 00 00 00 80 00 00 
  1074)      1086.008 1  Rx        027B -  8    01 FC 07 FF 00 00 00 00 
  1075)      1089.421 1  Rx        0077 -  2    05 02 
  1076)      1089.677 1  Rx        0291 -  8    40 00 06 00 00 01 00 00 
  1077)      1089.933 1  Rx        02C2 -  8    41 94 3F 03 E3 DA 00 00 
  1078)      1090.360 1  Rx        0023 -  8    10 12 10 00 00 00 55 72 
  1079)      1094.371 1  Rx        002F -  8    00 00 00 00 02 3B 80 00 
  1080)      1096.443 1  Warng FFFFFFFF -  4    00 00 00 08  BUSHEAVY 
  1081)      1099.149 1  Rx        03AB -  8    00 47 00 00 00 00 00 00 
  1082)      1099.362 1  Rx        0071 -  8    1F FF 00 00 8A 00 D0 D1 
  1083)      1099.618 1  Rx        009B -  8    15 00 04 55 00 79 00 FF 
  1084)      1099.832 1  Rx        0079 -  8    84 B8 04 BA 00 00 D0 F8 
  1085)      1100.088 1  Rx        0289 -  8    30 00 07 1E C0 FE 80 00 
  1086)      1100.344 1  Rx        0023 -  8    10 12 10 00 00 00 66 1F 
  1087)      1100.557 1  Rx        007F -  8    45 2F 00 00 00 00 FF FF 
  1088)      1100.813 1  Rx        02C5 -  8    01 EE EE 1C 01 00 00 00 
  1089)      1101.069 1  Rx        0083 -  8    85 04 00 00 00 00 D0 62 
  1090)      1103.288 1  Rx        00AD -  5    01 00 00 A0 65 
  1091)      1104.269 1  Rx        002F -  8    00 00 00 00 02 3B 80 00 
  1092)      1104.525 1  Rx        0087 -  8    01 FA 00 00 00 52 D0 23 
  1093)      1104.781 1  Rx        0089 -  8    80 00 80 6D 80 80 D0 80 
  1094)      1105.037 1  Rx        008B -  8    C0 00 C0 00 C0 00 C0 00 
  1095)      1105.293 1  Rx        0091 -  8    01 FF 7F 00 00 00 00 92 
  1096)      1105.506 1  Rx        00A7 -  8    00 00 01 24 41 21 D0 4A 
  1097)      1105.677 1  Rx        00B1 -  3    00 50 60 
  1098)      1105.933 1  Rx        0277 -  8    00 00 4C 00 00 00 C0 00 
  1099)      1106.146 1  Rx        027A -  8    00 7A 00 00 01 6B EB 07 
  1100)      1106.402 1  Rx        027B -  8    00 00 07 FF 00 00 00 00 
  1101)      1107.384 1  Rx        0037 -  8    7F FF 00 00 1F FF 00 88 
  1102)      1108.365 1  Rx        0095 -  7    07 FF 00 00 00 00 D6 
  1103)      1109.389 1  Rx        0403 -  8    FD 07 BF FF FF FF FF FF 
  1104)      1109.517 1  Rx        0077 -  2    05 02 
  1105)      1109.773 1  Rx        00AB -  8    00 00 0F 0F 00 00 00 1E 
  1106)      1110.242 1  Rx        026F -  8    00 C0 FF FF FF 7F 7F 7F 
  1107)      1110.498 1  Rx        0023 -  8    10 12 10 00 00 00 76 D2 
  1108)      1110.754 1  Rx        002B -  8    F0 00 30 00 0F FF 00 FF 
  1109)      1110.968 1  Rx        00B3 -  8    00 00 00 00 00 00 00 0A 
  1110)      1111.224 1  Rx        01A1 -  8    00 00 80 00 00 00 00 00 
  1111)      1111.480 1  Rx        02C6 -  8    41 03 01 13 00 00 00 00 
  1112)      1111.736 1  Rx        0328 -  8    40 41 00 4D 00 55 00 53 
  1113)      1113.826 1  Rx        0257 -  8    FF 0F 00 36 36 36 00 00 
  1114)      1114.594 1  Rx        01D0 -  8    44 E7 0F 0F 00 07 00 00 
  1115)      1115.021 1  Rx        002F -  8    00 00 00 00 02 3B 80 00 
  1116)      1115.277 1  Rx        008D -  8    C6 C0 FF FF FF FF FF FF 
  1117)      1115.533 1  Rx        0071 -  8    1F FF 00 00 8A 00 E0 9B 
  1118)      1115.746 1  Rx        03CD -  8    00 00 00 00 00 00 00 00 
  1119)      1116.002 1  Rx        0079 -  8    84 BB 00 00 00 00 E0 2C 
  1120)      1116.301 1  Rx        007F -  8    45 2F 00 00 00 00 FF FF 
  1121)      1116.514 1  Rx        0083 -  8    85 04 00 00 00 00 E0 28 
  1122)      1117.368 1  Rx        0037 -  8    7F FF 00 00 1F FF 10 45 
  1123)      1118.391 1  Rx        0085 -  8    00 FF 04 FF FF FF FF 00 
  1124)      1119.373 1  Rx        0093 -  8    1C FF FF 00 00 00 01 F3 
  1125)      1119.629 1  Rx        009B -  8    15 00 04 55 00 79 00 FF 
  1126)      1119.885 1  Rx        0230 -  8    03 35 31 09 00 00 00 00 
  1127)      1120.141 1  Rx        0265 -  8    00 00 00 00 00 00 06 00 
  1128)      1120.397 1  Rx        0023 -  8    10 12 10 00 00 00 86 AD 
  1129)      1120.653 1  Rx        002B -  8    F0 00 30 00 0F FF 00 FF 
  1130)      1120.823 1  Rx        02B1 -  5    15 0F 08 7F 7F 
  1131)      1121.079 1  Rx        0381 -  8    89 8D 00 00 00 04 00 00 
  1132)      1123.298 1  Rx        00AD -  5    01 00 00 B0 A8 
  1133)      1124.919 1  Rx        002F -  8    00 00 00 00 02 3C 80 00 
  1134)      1125.175 1  Rx        0091 -  8    01 FF 7F 00 00 00 10 5F 
  1135)      1125.389 1  Rx        0087 -  8    00 00 00 00 00 52 E0 7E 
  1136)      1125.559 1  Rx        00B1 -  3    00 60 2A 
  1137)      1125.773 1  Rx        0089 -  8    80 00 80 6D 80 80 E0 80 
  1138)      1126.029 1  Rx        008B -  8    C0 00 C0 00 C0 00 C0 00 
  1139)      1126.285 1  Rx        00A7 -  8    00 00 01 24 41 21 E0 00 
  1140)      1127.351 1  Rx        0037 -  8    7F FF 00 00 1F FF 20 0F 
  1141)      1128.333 1  Rx        0095 -  7    07 FF 00 00 00 10 1B 
  1142)      1129.357 1  Rx        00AB -  8    00 00 0F 0F 00 00 10 D3 
  1143)      1129.527 1  Rx        0077 -  2    05 02 
  1144)      1130.338 1  Rx        0023 -  8    10 12 10 00 00 00 95 47 
  1145)      1130.594 1  Rx        00B3 -  8    00 00 00 00 00 00 10 C7 
  1146)      1130.807 1  Rx        002B -  8    F0 00 30 00 0F FF 00 FF 
  1147)      1131.063 1  Rx        01A1 -  8    00 00 80 00 00 00 00 00 
  1148)      1134.690 1  Rx        002F -  8    00 00 00 00 02 3C 80 00 
  1149)      1134.946 1  Rx        0071 -  8    1F FF 00 00 8A 00 F0 56 
  1150)      1135.202 1  Rx        008D -  8    C6 C0 FF FF FF FF FF FF 
  1151)      1135.415 1  Rx        0079 -  8    8F FF 00 00 00 00 F0 81 
  1152)      1135.671 1  Rx        007F -  8    45 2F 00 00 00 00 FF FF 
  1153)      1135.927 1  Rx        0083 -  8    85 04 00 00 00 00 F0 E5 
  1154)      1136.226 1  Rx        00DD -  8    00 00 00 00 00 80 00 00 
  1155)      1137.378 1  Rx        0037 -  8    7F FF 00 00 1F FF 30 C2 
  1156)      1138.402 1  Rx        0085 -  8    00 FF 04 FF FF FF FF 04 
  1157)      1139.383 1  Rx        0093 -  8    1C FF FF 00 00 00 11 3E 
  1158)      1139.639 1  Rx        009B -  8    15 00 04 55 00 79 00 FF 
  1159)      1139.895 1  Rx        0133 -  8    00 00 00 00 FF 03 0C FF 
  1160)      1140.322 1  Rx        0023 -  8    10 12 10 00 00 00 A5 0D 
  1161)      1140.620 1  Rx        002B -  8    F0 00 30 00 0F FF 00 FF 
  1162)      1140.834 1  Rx        0318 -  8    00 00 00 00 00 00 FF 00 
  1163)      1141.644 1  Rx        0328 -  8    30 01 00 49 00 43 00 20 
  1164)      1143.308 1  Rx        00AD -  5    01 00 00 C0 F1 
  1165)      1144.418 1  Rx        002F -  8    00 00 00 00 02 3C 80 00 
  1166)      1144.674 1  Rx        0087 -  8    01 FD 00 00 00 52 F0 6B 
  1167)      1144.930 1  Rx        0089 -  8    80 00 80 6D 80 80 F0 80 
  1168)      1145.186 1  Rx        0091 -  8    01 FF 7F 00 00 00 20 15 
  1169)      1145.399 1  Rx        008B -  8    C0 00 C0 00 C0 00 C0 00 
  1170)      1145.570 1  Rx        00B1 -  3    00 70 E7 
  1171)      1145.783 1  Rx        00A7 -  8    00 00 01 24 41 22 F0 19 
  1172)      1146.039 1  Rx        027A -  8    10 7A 00 00 01 6B EB 07 
  1173)      1146.295 1  Rx        02F2 -  8    00 00 00 00 00 00 00 00 
  1174)      1146.551 1  Rx        03AC -  8    00 00 00 01 19 00 01 C6 
  1175)      1147.404 1  Rx        0037 -  8    7F FF 00 00 1F FF 40 9B 
  1176)      1148.386 1  Rx        0095 -  7    07 FF 00 00 00 20 51 
  1177)      1149.410 1  Rx        00AB -  8    00 00 0F 0F 00 00 20 99 
  1178)      1149.538 1  Rx        0077 -  2    05 02 
  1179)      1150.348 1  Rx        0023 -  8    10 12 10 00 00 00 B6 E7 
  1180)      1150.562 1  Rx        00B3 -  8    00 00 00 00 00 00 20 8D 
  1181)      1150.818 1  Rx        002B -  8    F0 00 30 00 0F FF 00 FF 
  1182)      1154.444 1  Rx        002F -  8    00 00 00 00 02 3C 80 00 
  1183)      1154.700 1  Rx        0071 -  8    1F FF 00 00 8A 00 00 29 
  1184)      1154.956 1  Rx        0079 -  8    83 74 04 C3 00 00 00 8B 
  1185)      1155.170 1  Rx        008D -  8    C6 C0 FF FF FF FF FF FF 
  1186)      1155.426 1  Rx        007F -  8    45 2F 00 00 00 00 FF FF 
  1187)      1155.682 1  Rx        0083 -  8    85 04 00 00 00 00 00 9A 
  1188)      1157.346 1  Rx        0037 -  8    7F FF 00 00 1F FF 50 56 
  1189)      1158.370 1  Rx        0085 -  8    00 FF 04 FF FF FF FF 08 
  1190)      1159.351 1  Rx        0093 -  8    1C FF FF 00 00 00 21 74 
  1191)      1159.607 1  Rx        009B -  8    15 A7 04 55 00 79 00 FF 
  1192)      1159.863 1  Rx        012B -  8    9A 18 90 5C 21 FF 7B FF 
  1193)      1160.119 1  Rx        013F -  8    FF FF C1 E4 01 35 00 00 
  1194)      1160.332 1  Rx        0023 -  8    10 12 10 00 00 00 C5 99 
  1195)      1160.503 1  Rx        0129 -  4    36 00 00 00 
  1196)      1160.759 1  Rx        002B -  8    F0 00 30 00 0F FF 00 FF 
  1197)      1163.276 1  Rx        00AD -  5    01 00 00 D0 3C 
  1198)      1164.428 1  Rx        002F -  8    00 00 00 00 02 3D 80 00 
  1199)      1164.727 1  Rx        0087 -  8    01 FE 00 00 00 52 00 DE 
  1200)      1164.940 1  Rx        0089 -  8    80 00 80 6D 80 80 00 80 
  1201)      1165.196 1  Rx        0091 -  8    01 FF 7F 00 00 00 30 D8 
  1202)      1165.452 1  Rx        008B -  8    C0 00 C0 00 C0 00 C0 00 
  1203)      1165.580 1  Rx        00B1 -  3    00 80 98 
  1204)      1165.836 1  Rx        00A7 -  8    00 00 01 25 41 22 00 FB 
  1205)      1167.329 1  Rx        0037 -  8    7F FF 00 00 1F FF 60 1C 
  1206)      1168.311 1  Rx        0095 -  7    07 FF 00 00 00 30 9C 
  1207)      1169.335 1  Rx        00AB -  8    00 00 0F 0F 00 00 30 54 
  1208)      1169.463 1  Rx        0077 -  2    05 02 
  1209)      1170.316 1  Rx        0023 -  8    10 12 10 00 00 00 D6 73 
  1210)      1170.615 1  Rx        00B3 -  8    00 00 00 00 00 00 30 40 
  1211)      1170.828 1  Rx        002B -  8    F0 00 30 00 0F FF 00 FF 
  1212)      1171.041 1  Rx        01C0 -  6    00 00 00 00 00 00 
  1213)      1172.193 1  Rx        0328 -  8    20 01 00 4F 00 46 00 46 
  1214)      1174.412 1  Rx        002F -  8    00 00 00 00 02 3C 80 00 
  1215)      1174.711 1  Rx        0071 -  8    1F FF 00 00 89 00 10 68 
  1216)      1174.924 1  Rx        0079 -  8    84 2E 04 C6 00 00 10 D9 
  1217)      1175.180 1  Rx        008D -  8    C6 C0 FF FF FF FF FF FF 
  1218)      1175.393 1  Rx        007F -  8    45 2F 00 00 00 00 FF FF 
  1219)      1175.692 1  Rx        0083 -  8    85 04 00 00 00 00 10 57 
  1220)      1177.399 1  Rx        0037 -  8    7F FF 00 00 1F FF 70 D1 
  1221)      1178.380 1  Rx        0085 -  8    00 FF 04 FF FF FF FF 0C 
  1222)      1179.404 1  Rx        0093 -  8    1C FF FF 00 00 00 31 B9 
  1223)      1179.617 1  Rx        009B -  8    15 A7 04 55 00 79 00 FF 
  1224)      1180.300 1  Rx        0023 -  8    10 12 10 00 00 00 E6 39 
  1225)      1180.599 1  Rx        002B -  8    F0 00 30 00 0F FF 00 FF 
  1226)      1183.286 1  Rx        00AD -  5    01 00 00 E0 76 
  1227)      1184.609 1  Rx        002F -  8    00 00 00 00 02 3C 80 00 
  1228)      1184.865 1  Rx        0087 -  8    01 FE 00 00 00 52 10 13 
  1229)      1185.121 1  Rx        0089 -  8    80 00 80 6D 80 80 10 80 
  1230)      1185.334 1  Rx        0091 -  8    01 FF 7F 00 00 00 40 81 
  1231)      1185.590 1  Rx        008B -  8    C0 00 C0 00 C0 00 C0 00 
  1232)      1185.718 1  Rx        00B1 -  3    00 90 55 
  1233)      1185.974 1  Rx        00A7 -  8    00 00 01 25 41 22 10 36 
  1234)      1186.273 1  Rx        00DD -  8    00 00 00 00 00 80 00 00 
  1235)      1187.382 1  Rx        0037 -  8    7F FF 00 00 1F FF 80 AE 
  1236)      1188.364 1  Rx        0095 -  7    07 FF 00 00 00 40 C5 
  1237)      1189.388 1  Rx        00AB -  8    00 00 0F 0F 00 00 40 0D 
  1238)      1189.516 1  Rx        0077 -  2    05 02 
  1239)      1190.369 1  Rx        0023 -  8    10 12 10 00 00 00 F6 F4 
  1240)      1190.625 1  Rx        002B -  8    F0 00 30 00 0F FF 00 FF 
  1241)      1190.881 1  Rx        00B3 -  8    00 00 00 00 00 00 40 19 
  1242)      1194.593 1  Rx        002F -  8    00 00 00 00 02 3C 80 00 
  1243)      1194.892 1  Rx        0071 -  8    1F FF 00 00 89 00 20 22 
  1244)      1195.105 1  Rx        0079 -  8    84 8D 04 C6 00 00 20 D1 
  1245)      1195.361 1  Rx        008D -  8    C6 C0 FF FF FF FF FF FF 
  1246)      1195.617 1  Rx        007F -  8    45 2F 00 00 00 00 FF FF 
  1247)      1195.788 1  Rx        01CE -  4    9D 00 00 AC 
  1248)      1196.001 1  Rx        0083 -  8    85 04 00 00 00 00 20 1D 
  1249)      1196.257 1  Rx        03AD -  8    00 00 00 00 00 00 00 00 
  1250)      1196.428 1  Rx        03C7 -  4    02 00 00 F2 
  1251)      1196.684 1  Rx        0407 -  8    FD 09 04 0F E0 FF FF 00 
  1252)      1197.366 1  Rx        0037 -  8    7F FF 00 00 1F FF 90 63 
  1253)      1198.390 1  Rx        0085 -  8    00 FF 04 FF FF FF FF 10 
  1254)      1199.414 1  Rx        0093 -  8    1C FF FF 00 00 00 41 E0 
  1255)      1199.628 1  Rx        009B -  8    15 A7 04 55 00 79 00 FF 
  1256)      1200.310 1  Rx        0023 -  8    10 12 10 00 00 00 06 8B 
  1257)      1200.481 1  Rx        0125 -  3    F0 5A 00 
  1258)      1200.737 1  Rx        002B -  8    F0 00 30 00 0F FF 00 FF 
  1259)      1201.804 1  Rx        0328 -  8    10 01 00 00 00 00 00 00 
  1260)      1203.297 1  Rx        00AD -  5    01 00 00 F0 BB 
  1261)      1204.619 1  Rx        002F -  8    00 00 00 00 02 3C 80 00 
  1262)      1204.833 1  Rx        0087 -  8    01 FE 00 00 00 52 20 59 
  1263)      1205.089 1  Rx        0089 -  8    80 00 80 6D 80 80 20 80 
  1264)      1205.345 1  Rx        008B -  8    C0 00 C0 00 C0 00 C0 00 
  1265)      1205.558 1  Rx        0091 -  8    01 FF 7F 00 00 00 50 4C 
  1266)      1205.814 1  Rx        00A7 -  8    00 00 01 25 41 22 20 7C 
  1267)      1205.942 1  Rx        00B1 -  3    00 A0 1F 
  1268)      1206.198 1  Rx        0259 -  8    0F 0F 00 00 00 00 00 93 
  1269)      1207.393 1  Rx        0037 -  8    7F FF 00 00 1F FF A0 29 
  1270)      1208.374 1  Rx        0095 -  7    07 FF 00 00 00 50 08 
  1271)      1209.398 1  Rx        00AB -  8    00 00 0F 0F 00 00 50 C0 
  1272)      1209.526 1  Rx        0077 -  2    05 02 
  1273)      1209.953 1  Rx        01D0 -  8    C6 E7 7F 0F 00 07 00 00 
  1274)      1210.379 1  Rx        00B3 -  8    00 00 00 00 00 00 50 D4 
  1275)      1210.635 1  Rx        0023 -  8    10 12 10 00 00 00 16 46 
  1276)      1210.849 1  Rx        002B -  8    F0 00 30 00 0F FF 00 FF 
  1277)      1214.433 1  Rx        002F -  8    00 00 00 00 02 3C 80 00 
  1278)      1214.731 1  Rx        0071 -  8    1F FF 00 00 89 00 30 EF 
  1279)      1214.902 1  Rx        0079 -  8    84 B1 04 C6 00 00 30 2F 
  1280)      1215.158 1  Rx        007F -  8    45 2F 00 00 00 00 FF FF 
  1281)      1215.414 1  Rx        0083 -  8    85 04 00 00 00 00 30 D0 
  1282)      1215.670 1  Rx        008D -  8    C6 C0 FF FF FF FF FF FF 
  1283)      1215.841 1  Rx        03C7 -  4    02 00 10 3F 
  1284)      1216.054 1  Rx        0035 -  8    00 00 00 00 00 00 1F 7C 
  1285)      1216.822 1  Rx        007B -  7    00 00 00 00 00 10 3B 
  1286)      1217.377 1  Rx        0037 -  8    7F FF 00 00 1F FF B0 E4 
  1287)      1217.846 1  Rx        0025 -  8    00 00 00 00 00 00 10 C7 
  1288)      1218.358 1  Rx        0085 -  8    00 FF 04 FF FF FF FF 14 
  1289)      1218.827 1  Rx        009D -  8    00 00 00 00 00 00 10 C7 
  1290)      1219.382 1  Rx        0093 -  8    1C FF FF 00 00 00 51 2D 
  1291)      1219.595 1  Rx        009B -  8    15 A7 04 55 00 79 00 FF 
  1292)      1219.851 1  Rx        0027 -  8    80 00 00 00 00 00 10 66 
  1293)      1220.321 1  Rx        0023 -  8    10 12 10 00 00 00 26 0C 
  1294)      1220.619 1  Rx        002B -  8    F0 00 30 00 0F FF 00 FF 
  1295)      1220.875 1  Rx        0081 -  8    18 00 7E 64 10 00 00 00 
  1296)      1222.795 1  Rx        007D -  6    00 00 00 00 00 00 
  1297)      1223.307 1  Rx        00AD -  5    01 00 00 00 C4 
  1298)      1224.672 1  Rx        002F -  8    00 00 00 00 02 3D 80 00 
  1299)      1224.928 1  Rx        0087 -  8    01 FF 00 00 00 52 30 D2 
  1300)      1225.184 1  Rx        0089 -  8    80 00 80 6D 80 80 30 80 
  1301)      1225.398 1  Rx        008B -  8    C0 00 C0 00 C0 00 C0 00 
  1302)      1225.654 1  Rx        0091 -  8    01 FF 7F 00 00 00 60 06 
  1303)      1225.867 1  Rx        00A7 -  8    00 00 01 25 41 22 30 B1 
  1304)      1226.123 1  Rx        0035 -  8    00 00 00 00 00 00 2F 36 
  1305)      1226.294 1  Rx        00B1 -  3    00 B0 D2 
  1306)      1226.507 1  Rx        0137 -  8    00 00 00 00 00 00 00 00 
  1307)      1226.763 1  Rx        014D -  8    7B 7B 92 92 00 00 15 00 
  1308)      1227.403 1  Rx        0037 -  8    7F FF 00 00 1F FF C0 BD 
  1309)      1227.830 1  Rx        0025 -  8    00 00 00 00 00 00 20 8D 
  1310)      1228.384 1  Rx        0095 -  7    07 FF 00 00 00 60 42 
  1311)      1228.854 1  Rx        00B5 -  8    00 00 00 00 00 00 00 00 
  1312)      1229.408 1  Rx        00AB -  8    00 00 0F 0F 00 00 60 8A 
  1313)      1229.536 1  Rx        0077 -  2    05 02 
  1314)      1229.835 1  Rx        0027 -  8    87 D0 07 F3 00 00 20 39 
  1315)      1230.390 1  Rx        0023 -  8    10 12 10 00 00 00 36 C1 
  1316)      1230.646 1  Rx        002B -  8    F0 00 30 00 0F FF 00 FF 
  1317)      1230.859 1  Rx        00B3 -  8    00 00 00 00 00 00 60 9E 
  1318)      1231.670 1  Rx        0328 -  8    00 01 00 00 00 00 00 00 
  1319)      1234.614 1  Rx        002F -  8    00 00 00 00 02 3C 80 00 
  1320)      1234.827 1  Rx        0071 -  8    00 00 00 00 89 00 40 5A 
  1321)      1235.083 1  Rx        0079 -  8    84 BF 04 C8 00 00 40 00 
  1322)      1235.339 1  Rx        007F -  8    45 2F 00 00 00 00 FF FF 
  1323)      1235.552 1  Rx        0083 -  8    85 04 00 00 00 00 40 89 
  1324)      1235.851 1  Rx        008D -  8    C6 C0 FF FF FF FF FF FF 
  1325)      1236.064 1  Rx        0035 -  8    07 F2 07 D0 00 00 37 52 
  1326)      1236.320 1  Rx        00DD -  8    00 00 00 00 00 80 00 01 
  1327)      1236.534 1  Rx        0127 -  8    5D 82 64 00 C7 00 00 00 
  1328)      1236.790 1  Rx        03E0 -  8    00 31 43 34 47 4A 58 41 
  1329)      1237.003 1  Rx        007B -  7    07 F2 00 07 D0 20 E4 
  1330)      1237.387 1  Rx        0037 -  8    7F FF 00 00 1F FF D0 70 
  1331)      1237.856 1  Rx        0025 -  8    00 00 07 D0 07 D0 30 D2 
  1332)      1238.368 1  Rx        0085 -  8    00 FF 04 FF FF FF FF 18 
  1333)      1238.838 1  Rx        009D -  8    00 00 00 00 00 00 20 8D 
  1334)      1239.392 1  Rx        0093 -  8    1C FF FF 00 00 00 61 67 
  1335)      1239.606 1  Rx        009B -  8    15 A7 04 55 00 79 00 FF 
  1336)      1239.904 1  Rx        0027 -  8    8C DC 07 D2 00 00 30 19 
  1337)      1240.118 1  Rx        0133 -  8    00 00 00 00 FF 03 0C FF 
  1338)      1240.331 1  Rx        0023 -  8    10 12 10 00 00 00 45 BF 
  1339)      1240.630 1  Rx        002B -  8    F0 00 30 00 0F FF 00 FF 
  1340)      1240.843 1  Rx        0081 -  8    18 00 7E 64 10 00 00 00 
  1341)      1241.099 1  Rx        0318 -  8    00 00 00 00 00 00 FF 00 
  1342)      1242.806 1  Rx        007D -  6    00 7A 00 00 03 1F 
  1343)      1243.275 1  Rx        00AD -  5    01 00 00 10 09 
  1344)      1244.683 1  Rx        002F -  8    00 00 00 00 02 3D 80 00 
  1345)      1244.939 1  Rx        0087 -  8    01 FF 00 00 00 52 40 8B 
  1346)      1245.195 1  Rx        0089 -  8    80 00 80 6D 80 80 40 80 
  1347)      1245.408 1  Rx        008B -  8    C0 00 C0 00 C0 00 C0 00 
  1348)      1245.664 1  Rx        0091 -  8    01 FF 7F 00 00 00 70 CB 
  1349)      1245.877 1  Rx        00A7 -  8    00 00 01 25 41 22 40 E8 
  1350)      1246.133 1  Rx        0035 -  8    07 D2 06 F4 00 00 47 4D 
  1351)      1246.261 1  Rx        00B1 -  3    00 C0 8B 
  1352)      1246.517 1  Rx        015B -  8    00 00 00 00 00 00 00 00 
  1353)      1246.688 1  Rx        01CE -  4    9D 00 10 61 
  1354)      1246.944 1  Rx        02A4 -  8    00 7E 00 00 00 00 00 FF 
  1355)      1247.200 1  Rx        02F2 -  8    00 00 00 00 00 00 00 00 
  1356)      1247.456 1  Rx        03AE -  8    00 00 00 00 00 00 00 00 
  1357)      1247.797 1  Rx        0037 -  8    7F FF 00 00 1F FF E0 3A 
  1358)      1248.011 1  Rx        0025 -  8    00 00 06 F4 07 D2 40 7D 
  1359)      1248.779 1  Rx        0095 -  7    07 FF 00 00 00 70 8F 
  1360)      1248.992 1  Rx        00B5 -  8    00 00 00 00 00 00 00 00 
  1361)      1249.419 1  Rx        0077 -  2    05 02 
  1362)      1249.760 1  Rx        00AB -  8    00 00 0F 0F 00 00 70 47 
  1363)      1250.016 1  Rx        0027 -  8    8B BC 07 D3 00 00 40 2B 
  1364)      1250.400 1  Rx        0023 -  8    10 12 10 00 00 00 55 72 
  1365)      1250.613 1  Rx        002B -  8    F0 00 30 00 0F FF 00 FF 
  1366)      1250.869 1  Rx        00B3 -  8    00 00 00 00 00 00 70 53 
  1367)      1254.581 1  Rx        002F -  8    00 00 00 00 02 3C 80 00 
  1368)      1254.837 1  Rx        0071 -  8    07 F2 00 00 89 00 50 59 
  1369)      1255.051 1  Rx        0079 -  8    84 C4 04 C8 00 00 50 61 
  1370)      1255.307 1  Rx        007F -  8    45 2F 00 00 00 00 FF FF 
  1371)      1255.563 1  Rx        0083 -  8    85 04 00 00 00 00 50 44 
  1372)      1255.776 1  Rx        008D -  8    C6 C0 FF FF FF FF FF FF 
  1373)      1256.032 1  Rx        0035 -  8    07 D3 07 6F 00 00 57 9A 
  1374)      1256.288 1  Rx        0143 -  8    00 00 00 00 00 00 00 00 
  1375)      1256.544 1  Rx        0157 -  8    00 00 00 00 00 00 00 00 
  1376)      1256.757 1  Rx        0037 -  8    1F FE 00 00 0A 28 F0 FF 
  1377)      1256.971 1  Rx        007B -  7    C7 D3 00 07 6F 30 D9 
  1378)      1257.739 1  Rx        0085 -  8    20 FF 04 00 00 00 00 1C 
  1379)      1257.995 1  Rx        0025 -  8    00 00 07 6F 07 D3 50 A0 
  1380)      1258.763 1  Rx        0093 -  8    9C FF FF 00 00 00 71 0B 
  1381)      1259.061 1  Rx        009D -  8    00 00 00 00 00 00 30 40 
  1382)      1259.531 1  Rx        009B -  8    15 26 04 55 00 79 00 FF 
  1383)      1259.829 1  Rx        012B -  8    9A 18 90 5D 21 FF 7C FF 
  1384)      1260.000 1  Rx        0027 -  8    8C 37 07 D4 00 00 50 FC 
  1385)      1260.256 1  Rx        013F -  8    FF FF BF F8 01 32 00 00 
  1386)      1260.512 1  Rx        0023 -  8    10 12 10 00 00 00 66 1F 
  1387)      1260.725 1  Rx        002B -  8    F0 00 30 00 0F FF 00 FF 
  1388)      1260.981 1  Rx        0081 -  8    18 00 7D 64 08 00 00 00 
  1389)      1261.152 1  Rx        0129 -  4    36 00 00 00 
  1390)      1262.091 1  Rx        0328 -  8    00 00 00 00 00 00 00 00 
  1391)      1262.773 1  Rx        007D -  6    00 7A 00 00 03 1D 
  1392)      1263.285 1  Rx        00AD -  5    01 00 00 20 43 
  1393)      1264.693 1  Rx        002F -  8    00 00 00 00 02 3C 80 00 
  1394)      1264.949 1  Rx        0087 -  8    01 FF 00 00 00 52 50 46 
  1395)      1265.163 1  Rx        0089 -  8    80 00 80 6D 80 80 50 80 
  1396)      1265.419 1  Rx        008B -  8    C0 00 C0 00 C0 00 C0 00 
  1397)      1265.632 1  Rx        0091 -  8    01 FF 7F 00 00 00 80 B4 
  1398)      1265.888 1  Rx        00A7 -  8    00 00 01 25 41 22 50 25 
  1399)      1266.144 1  Rx        0035 -  8    07 D4 07 6F 00 00 67 1F 
