;$FILEVERSION=1.3
;$STARTTIME=44371.36329025
;
;   C:\Documents and Settings\jpaullus\My Documents\2018JL_A_OFF_PRESSED.trc
;   Start time: 6/24/2021 08:43:08.277.6
;-------------------------------------------------------------------------------
;   Bus  Name  Connection     Protocol
;   1    500k  500k@pcan_usb  CAN
;-------------------------------------------------------------------------------
;   Message Number
;   |         Time Offset (ms)
;   |         |       Bus
;   |         |       |    Type
;   |         |       |    |       ID (hex)
;   |         |       |    |       |    Reserved
;   |         |       |    |       |    |   Data Length Code
;   |         |       |    |       |    |   |    Data Bytes (hex) ...
;   |         |       |    |       |    |   |    |
;   |         |       |    |       |    |   |    |
;---+-- ------+------ +- --+-- ----+--- +- -+-- -+ -- -- -- -- -- -- --
     1)         0.484 1  Rx        01CE -  4    89 00 D0 4A 
     2)         1.081 1  Rx        0091 -  8    01 FF 7F 00 00 00 50 4C 
     3)         1.295 1  Rx        0037 -  8    1F FE 00 00 10 7C A0 45 
     4)         1.508 1  Rx        00AD -  5    01 00 00 60 50 
     5)         2.276 1  Rx        0095 -  7    00 00 00 00 00 50 28 
     6)         2.489 1  Rx        014E -  8    08 14 0A 21 DE 00 07 47 
     7)         3.215 1  Rx        002F -  8    00 00 00 00 00 D8 80 00 
     8)         3.428 1  Rx        0035 -  8    07 DB 07 C4 00 3C 53 0B 
     9)         3.684 1  Rx        0087 -  8    00 00 00 00 00 66 90 CB 
    10)         3.940 1  Rx        0089 -  8    80 3F 80 6D 83 7C 90 7F 
    11)         4.153 1  Rx        008B -  8    00 00 00 00 00 00 00 00 
    12)         4.409 1  Rx        007B -  7    C7 DB 00 08 16 30 15 
    13)         4.623 1  Rx        00A7 -  8    00 00 00 9E 40 9B 90 97 
    14)         4.751 1  Rx        0077 -  2    04 22 
    15)         5.007 1  Rx        00AB -  8    00 00 CD 0D 00 00 50 8F 
    16)         5.220 1  Rx        00B3 -  8    00 00 00 00 00 00 50 D4 
    17)         5.476 1  Rx        0025 -  8    03 02 07 C4 07 DB 50 C8 
    18)         5.732 1  Rx        0283 -  8    00 08 00 04 00 01 00 00 
    19)         5.945 1  Rx        035C -  6    00 00 00 00 00 00 
    20)         6.415 1  Rx        009D -  8    00 00 00 00 00 00 30 40 
    21)         7.396 1  Rx        0027 -  8    8A A6 07 DB 00 00 52 8F 
    22)         8.292 1  Rx        002B -  8    07 E4 07 FD 08 09 B0 A5 
    23)         8.591 1  Rx        0081 -  8    18 00 47 64 07 00 00 00 
    24)         8.761 1  Rx        0023 -  8    10 12 10 00 00 00 05 AC 
    25)         9.188 1  Rx        02A1 -  8    80 08 FC F3 A9 FE 7D FE 
    26)        10.340 1  Rx        007D -  6    00 79 00 00 02 F8 
    27)        11.065 1  Rx        008D -  8    C6 C0 FF FF FF FF FF FF 
    28)        11.364 1  Rx        0037 -  8    1F FE 00 00 10 7C B0 88 
    29)        12.303 1  Rx        0085 -  8    20 DD 04 00 00 02 E7 14 
    30)        13.284 1  Rx        002F -  8    00 00 00 00 00 D7 80 00 
    31)        13.540 1  Rx        0035 -  8    07 DB 07 C4 00 3C 63 41 
    32)        13.753 1  Rx        0071 -  8    07 DB 00 00 6D 00 A0 D4 
    33)        14.009 1  Rx        0079 -  8    80 00 00 00 00 00 A0 0A 
    34)        14.265 1  Rx        007F -  8    41 2C 00 00 00 00 FF FF 
    35)        14.478 1  Rx        0083 -  8    80 04 00 00 00 00 A0 0F 
    36)        14.734 1  Rx        0093 -  8    80 FC 50 00 00 00 51 DA 
    37)        14.948 1  Rx        009B -  8    2A 63 00 55 00 79 00 FF 
    38)        15.118 1  Rx        00B1 -  3    00 20 39 
    39)        15.289 1  Rx        03C9 -  4    71 3F 00 00 
    40)        15.502 1  Rx        0025 -  8    03 0A 07 C4 07 DB 60 88 
    41)        16.398 1  Rx        00B5 -  8    00 00 00 00 00 00 00 00 
    42)        17.380 1  Rx        0027 -  8    8A A8 07 DB 00 00 62 46 
    43)        18.361 1  Rx        002B -  8    07 E6 08 00 08 08 C0 C1 
    44)        18.660 1  Rx        0023 -  8    10 12 10 00 00 00 15 61 
    45)        19.214 1  Rx        027B -  8    01 E5 07 FF 00 00 00 00 
    46)        21.049 1  Rx        0091 -  8    01 FF 7F 00 00 00 60 06 
    47)        21.348 1  Rx        0037 -  8    1F FE 00 00 10 7C C0 D1 
    48)        21.476 1  Rx        00AD -  5    01 00 00 70 9D 
    49)        22.286 1  Rx        0095 -  7    00 00 00 00 00 60 62 
    50)        23.182 1  Rx        002F -  8    00 00 00 00 00 D7 80 00 
    51)        23.438 1  Rx        0035 -  8    07 DB 07 B5 00 3C 73 EA 
    52)        23.652 1  Rx        0087 -  8    00 00 00 00 00 66 A0 81 
    53)        23.908 1  Rx        0089 -  8    80 47 80 6D 83 7A A0 7F 
    54)        24.164 1  Rx        008B -  8    00 00 00 00 00 00 00 00 
    55)        24.420 1  Rx        00A7 -  8    00 00 00 9E 40 9C A0 24 
    56)        24.590 1  Rx        007B -  7    C7 DB 00 08 18 40 A3 
    57)        24.761 1  Rx        0077 -  2    04 22 
    58)        24.974 1  Rx        00AB -  8    00 00 CD 0D 00 00 60 C5 
    59)        25.230 1  Rx        00B3 -  8    00 00 00 00 00 00 60 9E 
    60)        25.444 1  Rx        0025 -  8    03 0A 07 B5 07 DB 70 23 
    61)        25.700 1  Rx        00DD -  8    00 00 00 00 00 80 00 00 
    62)        25.956 1  Rx        0291 -  8    40 00 06 00 27 01 00 00 
    63)        26.425 1  Rx        009D -  8    00 00 00 00 00 00 40 19 
    64)        27.364 1  Rx        0027 -  8    8A A8 07 DB 00 00 72 8B 
    65)        28.302 1  Rx        002B -  8    07 E7 08 00 08 08 D0 4A 
    66)        28.558 1  Rx        0081 -  8    18 00 47 64 07 00 00 00 
    67)        28.772 1  Rx        0023 -  8    10 12 10 00 00 00 25 2B 
    68)        29.198 1  Rx        03AB -  8    00 47 00 00 00 00 00 00 
    69)        30.350 1  Rx        007D -  6    00 79 00 00 02 F8 
    70)        31.076 1  Rx        008D -  8    C6 C0 FF FF FF FF FF FF 
    71)        31.332 1  Rx        0037 -  8    1F FE 00 00 10 7C D0 1C 
    72)        32.270 1  Rx        0085 -  8    20 DD 04 00 00 02 E7 18 
    73)        32.569 1  Rx        0137 -  8    00 00 00 00 00 00 00 19 
    74)        32.782 1  Rx        014D -  8    69 69 91 92 03 F3 09 00 
    75)        33.294 1  Rx        002F -  8    00 00 00 00 00 D8 80 00 
    76)        33.550 1  Rx        0035 -  8    07 DB 07 B5 00 3C 83 95 
    77)        33.764 1  Rx        0071 -  8    07 DB 00 00 6D 00 B0 19 
    78)        34.020 1  Rx        0079 -  8    80 00 00 00 00 00 B0 C7 
    79)        34.276 1  Rx        007F -  8    41 2C 00 00 00 00 FF FF 
    80)        34.489 1  Rx        0083 -  8    80 04 00 00 00 00 B0 C2 
    81)        34.745 1  Rx        0093 -  8    80 FC 50 00 00 00 61 90 
    82)        34.958 1  Rx        009B -  8    2A 63 00 55 00 79 00 FF 
    83)        35.129 1  Rx        00B1 -  3    00 30 F4 
    84)        35.385 1  Rx        0289 -  8    30 00 07 1E C0 15 80 00 
    85)        35.598 1  Rx        0025 -  8    03 0E 07 B5 07 DB 80 59 
    86)        36.409 1  Rx        00B5 -  8    00 00 00 00 00 00 00 00 
    87)        37.390 1  Rx        0027 -  8    8A A3 07 DB 00 00 82 34 
    88)        38.286 1  Rx        002B -  8    07 E9 07 FE 08 08 E0 C4 
    89)        38.627 1  Rx        0023 -  8    10 12 10 00 00 00 35 E6 
    90)        39.225 1  Rx        027A -  8    00 75 00 00 01 6B EB 07 
    91)        41.059 1  Rx        0091 -  8    01 FF 7F 00 00 00 70 CB 
    92)        41.358 1  Rx        0037 -  8    1F FE 00 00 10 7C E0 56 
    93)        41.486 1  Rx        00AD -  5    01 00 00 80 E2 
    94)        42.254 1  Rx        0095 -  7    00 00 00 00 00 70 AF 
    95)        42.467 1  Rx        0127 -  8    60 7C 64 00 E3 80 C8 00 
    96)        42.723 1  Rx        03E0 -  8    00 31 43 34 47 4A 58 41 
    97)        43.235 1  Rx        002F -  8    00 00 00 00 00 D8 80 00 
    98)        43.491 1  Rx        0035 -  8    07 DB 07 B7 00 3C 93 7F 
    99)        43.705 1  Rx        0087 -  8    00 00 00 00 00 66 B0 4C 
   100)        43.961 1  Rx        0089 -  8    80 3F 80 6D 83 7C B0 7F 
   101)        44.217 1  Rx        008B -  8    00 00 00 00 00 00 00 00 
   102)        44.430 1  Rx        007B -  7    C7 DB 00 08 1A 50 F6 
   103)        44.643 1  Rx        00A7 -  8    00 00 00 9E 40 9C B0 E9 
   104)        44.771 1  Rx        0077 -  2    04 22 
   105)        45.027 1  Rx        00AB -  8    00 00 CD 0D 00 00 70 08 
   106)        45.283 1  Rx        00B3 -  8    00 00 00 00 00 00 70 53 
   107)        45.497 1  Rx        0025 -  8    03 0E 07 B7 07 DB 90 B3 
   108)        45.753 1  Rx        026F -  8    00 C0 FF FF FF 7F 7F 7F 
   109)        46.393 1  Rx        009D -  8    00 00 00 00 00 00 50 D4 
   110)        47.374 1  Rx        0027 -  8    8A A3 07 DB 00 00 92 F9 
   111)        48.313 1  Rx        002B -  8    07 E6 08 00 08 09 F0 C7 
   112)        48.569 1  Rx        0081 -  8    18 00 47 64 07 00 00 00 
   113)        48.782 1  Rx        0023 -  8    10 12 10 00 00 00 45 BF 
   114)        50.361 1  Rx        007D -  6    00 79 00 00 02 F8 
   115)        50.531 1  Rx        01CE -  4    89 00 E0 00 
   116)        51.086 1  Rx        008D -  8    C6 C0 FF FF FF FF FF FF 
   117)        51.342 1  Rx        0037 -  8    1F FE 00 00 10 7C F0 9B 
   118)        52.281 1  Rx        0085 -  8    20 DD 04 00 00 02 EA 1C 
   119)        52.494 1  Rx        015B -  8    00 00 00 00 00 00 1B C7 
   120)        52.750 1  Rx        02A4 -  8    00 47 00 00 00 00 00 FF 
   121)        53.262 1  Rx        002F -  8    00 00 00 00 00 D7 80 00 
   122)        53.475 1  Rx        0035 -  8    07 DB 07 B7 00 3C A3 35 
   123)        53.731 1  Rx        0071 -  8    07 DB 00 00 6D 00 C0 40 
   124)        53.987 1  Rx        0079 -  8    80 00 00 00 00 00 C0 9E 
   125)        54.243 1  Rx        007F -  8    41 2C 00 00 00 00 FF FF 
   126)        54.457 1  Rx        0083 -  8    80 04 00 00 00 00 C0 9B 
   127)        54.713 1  Rx        0093 -  8    80 FC 50 00 00 00 71 5D 
   128)        54.926 1  Rx        009B -  8    2A 63 00 55 00 79 00 FF 
   129)        55.097 1  Rx        00B1 -  3    00 40 AD 
   130)        55.225 1  Rx        0125 -  3    00 72 00 
   131)        55.481 1  Rx        0025 -  8    03 0E 07 B7 07 DB A0 F9 
   132)        55.737 1  Rx        0265 -  8    00 00 00 00 00 00 06 00 
   133)        56.419 1  Rx        00B5 -  8    00 00 00 00 00 00 00 00 
   134)        57.400 1  Rx        0027 -  8    8A A3 07 DB 00 00 A2 B3 
   135)        58.296 1  Rx        002B -  8    07 E5 07 FD 08 09 00 8F 
   136)        58.595 1  Rx        0023 -  8    10 12 10 00 00 00 54 6F 
   137)        61.070 1  Rx        0091 -  8    01 FF 7F 00 00 00 80 B4 
   138)        61.326 1  Rx        0037 -  8    1F FE 00 00 10 7C 00 E4 
   139)        61.496 1  Rx        00AD -  5    01 00 00 90 2F 
   140)        62.222 1  Rx        0095 -  7    00 00 00 00 00 80 D0 
   141)        62.478 1  Rx        0143 -  8    00 00 00 00 00 00 00 00 
   142)        62.734 1  Rx        0157 -  8    00 00 00 00 50 00 00 00 
   143)        62.990 1  Rx        0128 -  8    00 27 34 6C 01 88 06 3E 
   144)        63.246 1  Rx        002F -  8    00 00 00 00 00 D7 80 00 
   145)        63.459 1  Rx        0035 -  8    07 DB 07 B7 00 3C B3 F8 
   146)        63.715 1  Rx        0087 -  8    00 00 00 00 00 66 C0 15 
   147)        63.928 1  Rx        0089 -  8    80 47 80 6D 83 7C C0 7F 
   148)        64.184 1  Rx        008B -  8    00 00 00 00 00 00 00 00 
   149)        64.440 1  Rx        007B -  7    C7 DB 00 08 1A 60 BC 
   150)        64.654 1  Rx        00A7 -  8    00 00 00 9E 40 9B C0 49 
   151)        64.782 1  Rx        0077 -  2    04 22 
   152)        65.038 1  Rx        00AB -  8    00 00 CD 0D 00 00 80 77 
   153)        65.251 1  Rx        00B3 -  8    00 00 00 00 00 00 80 2C 
   154)        65.507 1  Rx        0025 -  8    03 07 07 B7 07 DB B0 78 
   155)        66.403 1  Rx        009D -  8    00 00 00 00 00 00 60 9E 
   156)        67.384 1  Rx        0027 -  8    8A AE 07 DB 00 00 B2 37 
   157)        68.323 1  Rx        002B -  8    07 E7 07 FE 08 0A 10 A0 
   158)        68.579 1  Rx        0081 -  8    18 00 47 64 07 00 00 00 
   159)        68.792 1  Rx        0023 -  8    10 12 10 00 00 00 65 38 
   160)        69.048 1  Rx        0318 -  8    00 00 00 00 00 00 FF 00 
   161)        69.304 1  Rx        0402 -  8    FD 03 3F FF FF FF FF FF 
   162)        70.328 1  Rx        007D -  6    00 79 00 00 02 F8 
   163)        71.054 1  Rx        008D -  8    C6 C0 FF FF FF FF FF FF 
   164)        71.352 1  Rx        0037 -  8    1F FE 00 00 10 7C 10 29 
   165)        72.248 1  Rx        0085 -  8    20 DD 04 00 00 02 ED 20 
   166)        72.547 1  Rx        013D -  8    00 00 34 7C 01 73 28 04 
   167)        73.230 1  Rx        0093 -  8    80 FC 50 00 00 00 81 22 
   168)        73.486 1  Rx        002F -  8    00 00 00 00 00 D8 80 00 
   169)        73.742 1  Rx        0035 -  8    07 DB 07 BD 00 3C C3 1A 
   170)        73.955 1  Rx        0071 -  8    07 DB 00 00 6D 00 D0 8D 
   171)        74.211 1  Rx        0079 -  8    80 00 00 00 00 00 D0 53 
   172)        74.467 1  Rx        007F -  8    41 2C 00 00 00 00 FF FF 
   173)        74.723 1  Rx        0083 -  8    80 04 00 00 00 00 D0 56 
   174)        74.936 1  Rx        009B -  8    2A 63 00 55 00 79 00 FF 
   175)        75.107 1  Rx        00B1 -  3    00 50 60 
   176)        75.363 1  Rx        00DD -  8    00 00 00 00 00 80 00 00 
   177)        75.576 1  Rx        0025 -  8    03 07 07 BD 07 DB C0 9A 
   178)        75.832 1  Rx        0133 -  8    00 00 00 00 FF 03 0C FF 
   179)        76.430 1  Rx        00B5 -  8    00 00 00 00 00 00 00 00 
   180)        77.368 1  Rx        0027 -  8    8A AE 07 DB 00 00 C2 6E 
   181)        78.307 1  Rx        002B -  8    07 E6 08 01 08 09 20 A2 
   182)        78.605 1  Rx        0023 -  8    10 12 10 00 00 00 75 F5 
   183)        79.203 1  Rx        02F2 -  8    00 00 00 00 00 AD 00 00 
   184)        79.459 1  Rx        03AC -  8    00 00 00 01 19 00 01 C6 
   185)        81.080 1  Rx        0091 -  8    01 FF 7F 00 00 00 90 79 
   186)        81.293 1  Rx        0037 -  8    1F FE 00 00 10 7C 20 63 
   187)        81.507 1  Rx        00AD -  5    01 00 00 A0 65 
   188)        82.232 1  Rx        0095 -  7    00 00 00 00 00 90 1D 
   189)        82.445 1  Rx        0121 -  5    40 00 69 14 00 
   190)        83.171 1  Rx        002F -  8    00 00 00 00 00 D7 80 00 
   191)        83.427 1  Rx        0035 -  8    07 DB 07 BD 00 3C D3 D7 
   192)        83.683 1  Rx        0087 -  8    00 00 00 00 00 66 D0 D8 
   193)        83.896 1  Rx        0089 -  8    80 4F 80 6D 83 7C D0 7F 
   194)        84.152 1  Rx        008B -  8    00 00 00 00 00 00 00 00 
   195)        84.408 1  Rx        00A7 -  8    00 00 00 9E 40 9B D0 84 
   196)        84.621 1  Rx        007B -  7    C7 DB 00 08 17 70 4A 
   197)        84.835 1  Rx        00AB -  8    00 00 CD 0D 00 00 90 BA 
   198)        84.963 1  Rx        0077 -  2    04 22 
   199)        85.219 1  Rx        00B3 -  8    00 00 00 00 00 00 90 E1 
   200)        85.475 1  Rx        0025 -  8    02 FF 07 BD 07 DB D0 CC 
   201)        86.499 1  Rx        009D -  8    00 00 00 00 00 00 70 53 
   202)        87.395 1  Rx        0027 -  8    8A BA 07 DB 00 00 D2 B2 
   203)        88.291 1  Rx        002B -  8    07 E7 08 00 08 08 30 F8 
   204)        88.547 1  Rx        0081 -  8    18 00 47 64 07 00 00 00 
   205)        88.803 1  Rx        0023 -  8    10 12 10 00 00 00 85 8A 
   206)        90.339 1  Rx        007D -  6    00 79 00 00 02 F8 
   207)        91.064 1  Rx        008D -  8    C6 C0 FF FF FF FF FF FF 
   208)        91.363 1  Rx        0037 -  8    1F FE 00 00 10 7C 30 AE 
   209)        92.259 1  Rx        0085 -  8    20 DD 04 00 00 02 ED 24 
   210)        92.472 1  Rx        03E1 -  7    24 16 00 1C 00 FF FF 
   211)        93.240 1  Rx        0093 -  8    80 FC 50 00 00 00 91 EF 
   212)        93.496 1  Rx        002F -  8    00 00 00 00 00 D7 80 00 
   213)        93.752 1  Rx        0035 -  8    07 DB 07 BD 00 3C E3 9D 
   214)        93.965 1  Rx        0071 -  8    07 DB 00 00 6D 00 E0 C7 
   215)        94.221 1  Rx        0079 -  8    80 00 00 00 00 00 E0 19 
   216)        94.477 1  Rx        007F -  8    41 2C 00 00 00 00 FF FF 
   217)        94.733 1  Rx        0083 -  8    80 04 00 00 00 00 E0 1C 
   218)        94.947 1  Rx        009B -  8    2A 63 00 55 00 79 00 FF 
   219)        95.117 1  Rx        00B1 -  3    00 60 2A 
   220)        95.331 1  Rx        012B -  8    C2 18 90 36 21 FF 8D FF 
   221)        95.587 1  Rx        0025 -  8    02 FF 07 BD 07 DB E0 86 
   222)        95.800 1  Rx        013F -  8    5B 58 C7 55 01 73 00 00 
   223)        96.440 1  Rx        00B5 -  8    00 00 00 00 00 00 00 00 
   224)        97.251 1  Rx        0129 -  4    32 00 00 00 
   225)        97.507 1  Rx        0027 -  8    8A BA 07 DB 00 00 E2 F8 
   226)        98.317 1  Rx        002B -  8    07 E4 08 00 08 09 40 27 
   227)        98.616 1  Rx        0023 -  8    10 12 10 00 00 00 95 47 
   228)       100.493 1  Rx        01CE -  4    89 00 F0 CD 
   229)       101.090 1  Rx        0091 -  8    01 FF 7F 00 00 00 A0 33 
   230)       101.304 1  Rx        0037 -  8    1F FE 00 00 10 7C 40 F7 
   231)       101.517 1  Rx        00AD -  5    01 00 00 B0 A8 
   232)       102.242 1  Rx        0095 -  7    00 00 00 00 00 A0 57 
   233)       102.498 1  Rx        014E -  8    08 14 0A 21 DE 00 07 47 
   234)       103.224 1  Rx        002F -  8    00 00 00 00 00 D7 80 00 
   235)       103.437 1  Rx        0035 -  8    07 DB 07 C8 00 3C F3 78 
   236)       103.693 1  Rx        0087 -  8    00 00 00 00 00 66 E0 92 
   237)       103.906 1  Rx        0089 -  8    80 3F 80 6D 83 7C E0 7F 
   238)       104.162 1  Rx        008B -  8    00 00 00 00 00 00 00 00 
   239)       104.418 1  Rx        00A7 -  8    00 00 00 9E 40 9C E0 37 
   240)       104.632 1  Rx        007B -  7    C7 DB 00 08 15 80 AD 
   241)       104.760 1  Rx        0077 -  2    04 22 
   242)       105.016 1  Rx        00AB -  8    00 00 CD 0D 00 00 A0 F0 
   243)       105.229 1  Rx        00B3 -  8    00 00 00 00 00 00 A0 AB 
   244)       105.485 1  Rx        0025 -  8    02 FF 07 C8 07 DB F0 63 
   245)       105.741 1  Rx        0332 -  8    01 73 03 FF 00 73 01 F6 
   246)       106.424 1  Rx        009D -  8    00 00 00 00 00 00 80 2C 
   247)       107.362 1  Rx        01C0 -  6    00 00 00 00 00 00 
   248)       107.533 1  Rx        0027 -  8    8A BA 07 DB 00 00 F2 35 
   249)       108.344 1  Rx        002B -  8    07 E5 07 FF 08 08 50 3A 
   250)       108.557 1  Rx        0081 -  8    18 00 47 64 07 00 00 00 
   251)       108.770 1  Rx        0023 -  8    10 12 10 00 00 00 A5 0D 
   252)       110.349 1  Rx        007D -  6    00 79 00 00 02 F8 
   253)       111.074 1  Rx        008D -  8    C6 C0 FF FF FF FF FF FF 
   254)       111.373 1  Rx        0037 -  8    1F FE 00 00 10 7C 50 3A 
   255)       112.269 1  Rx        0085 -  8    20 DD 04 00 00 02 EE 28 
   256)       113.250 1  Rx        002F -  8    00 00 00 00 00 D8 80 00 
   257)       113.506 1  Rx        0035 -  8    07 DB 07 C8 00 3C 03 07 
   258)       113.720 1  Rx        0071 -  8    07 DB 00 00 6D 00 F0 0A 
   259)       113.976 1  Rx        0079 -  8    80 00 00 00 00 00 F0 D4 
   260)       114.232 1  Rx        007F -  8    41 2C 00 00 00 00 FF FF 
   261)       114.488 1  Rx        0083 -  8    80 04 00 00 00 00 F0 D1 
   262)       114.701 1  Rx        0093 -  8    80 FC 50 00 00 00 A1 A5 
   263)       114.957 1  Rx        009B -  8    2A 63 00 55 00 79 00 FF 
   264)       115.085 1  Rx        00B1 -  3    00 70 E7 
   265)       115.469 1  Rx        0025 -  8    02 F9 07 C8 07 DB 00 95 
   266)       116.408 1  Rx        00B5 -  8    00 00 00 00 00 00 00 00 
   267)       117.389 1  Rx        0027 -  8    8A B5 07 DB 00 00 02 8F 
   268)       118.370 1  Rx        002B -  8    07 E8 07 FD 08 08 60 1E 
   269)       118.669 1  Rx        0023 -  8    10 12 10 00 00 00 B5 C0 
   270)       121.058 1  Rx        0091 -  8    01 FF 7F 00 00 00 B0 FE 
   271)       121.314 1  Rx        0037 -  8    1F FE 00 00 10 7C 60 70 
   272)       121.485 1  Rx        00AD -  5    01 00 00 C0 F1 
   273)       122.253 1  Rx        0095 -  7    00 00 00 00 00 B0 9A 
   274)       123.191 1  Rx        002F -  8    00 00 00 00 00 D7 80 00 
   275)       123.490 1  Rx        0035 -  8    07 DB 07 CA 00 3C 13 ED 
   276)       123.661 1  Rx        0087 -  8    00 00 00 00 00 65 F0 8B 
   277)       123.917 1  Rx        0089 -  8    80 3F 80 6D 83 7A F0 7F 
   278)       124.173 1  Rx        008B -  8    00 00 00 00 00 00 00 00 
   279)       124.386 1  Rx        00A7 -  8    00 00 00 9E 40 9C F0 FA 
   280)       124.599 1  Rx        007B -  7    C7 DB 00 08 13 90 D5 
   281)       124.770 1  Rx        0077 -  2    04 22 
   282)       124.983 1  Rx        00AB -  8    00 00 CD 0D 00 00 B0 3D 
   283)       125.239 1  Rx        00B3 -  8    00 00 00 00 00 00 B0 66 
   284)       125.495 1  Rx        0025 -  8    02 F9 07 CA 07 DB 10 7F 
   285)       125.709 1  Rx        00DD -  8    00 00 00 00 00 80 00 00 
   286)       126.391 1  Rx        009D -  8    00 00 00 00 00 00 90 E1 
   287)       127.373 1  Rx        0027 -  8    8A B5 07 DB 00 00 12 42 
   288)       128.311 1  Rx        002B -  8    07 E8 08 00 08 09 70 62 
   289)       128.567 1  Rx        0081 -  8    18 00 47 64 07 00 00 00 
   290)       128.781 1  Rx        0023 -  8    10 12 10 00 00 00 C5 99 
   291)       129.207 1  Rx        03AD -  8    00 CA 00 00 00 00 00 00 
   292)       130.359 1  Rx        007D -  6    00 79 00 00 02 F8 
   293)       131.085 1  Rx        008D -  8    C6 C0 FF FF FF FF FF FF 
   294)       131.341 1  Rx        0037 -  8    1F FE 00 00 10 7C 70 BD 
   295)       132.279 1  Rx        0085 -  8    20 DD 04 00 00 02 E6 2C 
   296)       132.578 1  Rx        0137 -  8    00 00 00 00 00 00 00 19 
   297)       132.791 1  Rx        014D -  8    69 69 91 92 03 EF 09 00 
   298)       133.261 1  Rx        002F -  8    00 00 00 00 00 D8 80 00 
   299)       133.517 1  Rx        0035 -  8    07 DB 07 CA 00 3C 23 A7 
   300)       133.730 1  Rx        0071 -  8    07 DB 00 00 6D 00 00 75 
   301)       133.986 1  Rx        0079 -  8    80 00 00 00 00 00 00 AB 
   302)       134.242 1  Rx        007F -  8    41 2C 00 00 00 00 FF FF 
   303)       134.498 1  Rx        0083 -  8    80 04 00 00 00 00 00 AE 
   304)       134.711 1  Rx        0093 -  8    80 FC 50 00 00 00 B1 68 
   305)       134.967 1  Rx        009B -  8    2A 63 00 55 00 79 00 FF 
   306)       135.095 1  Rx        00B1 -  3    00 80 98 
   307)       135.437 1  Rx        0025 -  8    02 F9 07 CA 07 DB 20 35 
   308)       136.418 1  Rx        00B5 -  8    00 00 00 00 00 00 00 00 
   309)       137.399 1  Rx        0027 -  8    8A B5 07 DB 00 00 22 08 
   310)       138.295 1  Rx        002B -  8    07 EA 08 00 08 09 80 91 
   311)       138.637 1  Rx        0023 -  8    10 12 10 00 00 00 D5 54 
   312)       141.197 1  Rx        0091 -  8    01 FF 7F 00 00 00 C0 A7 
   313)       141.452 1  Rx        0037 -  8    1F FE 00 00 10 7C 80 C2 
   314)       141.623 1  Rx        00AD -  5    01 00 00 D0 3C 
   315)       142.220 1  Rx        0095 -  7    00 00 00 00 00 C0 C3 
   316)       142.476 1  Rx        0127 -  8    60 7C 64 00 E2 80 C8 00 
   317)       142.732 1  Rx        03E0 -  8    01 47 32 4A 57 32 39 34 
   318)       143.202 1  Rx        002F -  8    00 00 00 00 00 D7 80 00 
   319)       143.458 1  Rx        0035 -  8    07 DB 07 CA 00 3C 33 6A 
   320)       143.671 1  Rx        0087 -  8    00 00 00 00 00 65 00 F4 
   321)       143.927 1  Rx        0089 -  8    80 47 80 6D 83 7C 00 7F 
   322)       144.183 1  Rx        008B -  8    00 00 00 00 00 00 00 00 
   323)       144.439 1  Rx        00A7 -  8    00 00 00 9E 40 9C 00 85 
   324)       144.610 1  Rx        007B -  7    C7 DB 00 08 13 A0 9F 
   325)       144.780 1  Rx        0077 -  2    04 22 
   326)       144.994 1  Rx        00AB -  8    00 00 CD 0D 00 00 C0 64 
   327)       145.250 1  Rx        00B3 -  8    00 00 00 00 00 00 C0 3F 
   328)       145.506 1  Rx        0025 -  8    03 00 07 CA 07 DB 30 25 
   329)       146.402 1  Rx        009D -  8    00 00 00 00 00 00 A0 AB 
   330)       147.383 1  Rx        0027 -  8    8A AE 07 DB 00 00 32 11 
   331)       148.322 1  Rx        002B -  8    07 E7 08 00 08 09 90 15 
   332)       148.578 1  Rx        0081 -  8    18 00 47 64 07 00 00 00 
   333)       148.791 1  Rx        0023 -  8    10 12 10 00 00 00 E5 1E 
   334)       150.370 1  Rx        007D -  6    00 79 00 00 02 F8 
   335)       150.540 1  Rx        01CE -  4    89 00 00 B2 
   336)       151.095 1  Rx        008D -  8    C6 C0 FF FF FF FF FF FF 
   337)       151.351 1  Rx        0037 -  8    1F FE 00 00 10 7C 90 0F 
   338)       152.247 1  Rx        0085 -  8    20 DD 04 00 00 02 E7 30 
   339)       152.546 1  Rx        015B -  8    00 00 00 00 00 00 1B C7 
   340)       152.759 1  Rx        02A4 -  8    00 47 00 00 00 00 00 FF 
   341)       153.271 1  Rx        002F -  8    00 00 00 00 00 D8 80 00 
   342)       153.484 1  Rx        0035 -  8    07 DB 07 C1 00 3C 43 15 
   343)       153.740 1  Rx        0071 -  8    07 DB 00 00 6D 00 10 B8 
   344)       153.996 1  Rx        0079 -  8    80 00 00 00 00 00 10 66 
   345)       154.252 1  Rx        007F -  8    41 2C 00 00 00 00 FF FF 
   346)       154.466 1  Rx        0083 -  8    80 04 00 00 00 00 10 63 
   347)       154.722 1  Rx        0093 -  8    80 FC 50 00 00 00 C1 31 
   348)       154.935 1  Rx        009B -  8    2A 63 00 55 00 79 00 FF 
   349)       155.106 1  Rx        00B1 -  3    00 90 55 
   350)       155.234 1  Rx        0125 -  3    00 72 00 
   351)       155.490 1  Rx        0025 -  8    03 00 07 C1 07 DB 40 5A 
   352)       155.746 1  Rx        0332 -  8    01 73 03 FF 00 74 01 F6 
   353)       156.428 1  Rx        00B5 -  8    00 00 00 00 00 00 00 00 
   354)       157.410 1  Rx        0027 -  8    8A AE 07 DB 00 00 42 48 
   355)       158.306 1  Rx        002B -  8    07 E3 07 FE 08 09 A0 1D 
   356)       158.647 1  Rx        0023 -  8    10 12 10 00 00 00 F5 D3 
   357)       160.482 1  Rx        03C7 -  4    01 00 E0 CC 
   358)       161.079 1  Rx        0091 -  8    01 FF 7F 00 00 00 D0 6A 
   359)       161.335 1  Rx        0037 -  8    1F FE 00 00 10 7C A0 45 
   360)       161.506 1  Rx        00AD -  5    01 00 00 E0 76 
   361)       162.274 1  Rx        0095 -  7    00 00 00 00 00 D0 0E 
   362)       162.530 1  Rx        0143 -  8    00 00 00 00 00 00 00 00 
   363)       162.785 1  Rx        0157 -  8    00 00 00 00 50 00 00 00 
   364)       162.999 1  Rx        0128 -  8    00 27 34 6C 01 88 06 3C 
   365)       163.255 1  Rx        002F -  8    00 00 00 00 00 D8 80 00 
   366)       163.511 1  Rx        0035 -  8    07 DB 07 C1 00 3C 53 D8 
   367)       163.724 1  Rx        0087 -  8    00 00 00 00 00 65 10 39 
   368)       163.980 1  Rx        0089 -  8    80 47 80 6D 83 7C 10 7F 
   369)       164.236 1  Rx        008B -  8    00 00 00 00 00 00 00 00 
   370)       164.449 1  Rx        007B -  7    C7 DB 00 08 13 B0 52 
   371)       164.705 1  Rx        00A7 -  8    00 00 00 9E 40 9C 10 48 
   372)       164.833 1  Rx        0077 -  2    04 22 
   373)       165.047 1  Rx        00AB -  8    00 00 CD 0D 00 00 D0 A9 
   374)       165.303 1  Rx        00B3 -  8    00 00 00 00 00 00 D0 F2 
   375)       165.516 1  Rx        0025 -  8    03 0C 07 C1 07 DB 50 98 
   376)       165.772 1  Rx        0403 -  8    FD 07 3F FF FF FF FF FF 
   377)       166.412 1  Rx        009D -  8    00 00 00 00 00 00 B0 66 
   378)       167.393 1  Rx        0027 -  8    8A 9D 07 DB 00 00 52 73 
   379)       168.332 1  Rx        002B -  8    07 E6 07 FC 08 0A B0 60 
   380)       168.545 1  Rx        0081 -  8    18 00 47 64 07 00 00 00 
   381)       168.801 1  Rx        0023 -  8    10 12 10 00 00 00 05 AC 
   382)       169.057 1  Rx        0318 -  8    00 00 00 00 00 00 FF 00 
   383)       170.337 1  Rx        01A1 -  8    00 00 80 00 00 00 00 00 
   384)       170.551 1  Rx        007D -  6    00 79 00 00 02 F8 
   385)       171.063 1  Rx        008D -  8    C6 C0 FF FF FF FF FF FF 
   386)       171.361 1  Rx        0037 -  8    1F FE 00 00 10 7C B0 88 
   387)       172.257 1  Rx        0085 -  8    20 DD 04 00 00 02 E6 34 
   388)       172.471 1  Rx        013D -  8    00 00 34 7C 01 6C 28 04 
   389)       173.239 1  Rx        0093 -  8    80 FC 50 00 00 00 D1 FC 
   390)       173.495 1  Rx        002F -  8    00 00 00 00 00 D7 80 00 
   391)       173.751 1  Rx        0035 -  8    07 DB 07 B2 00 3C 63 D3 
   392)       173.964 1  Rx        0071 -  8    07 DB 00 00 6D 00 20 F2 
   393)       174.220 1  Rx        0079 -  8    80 00 00 00 00 00 20 2C 
   394)       174.476 1  Rx        007F -  8    41 2C 00 00 00 00 FF FF 
   395)       174.732 1  Rx        0083 -  8    80 04 00 00 00 00 20 29 
   396)       174.945 1  Rx        009B -  8    2A 63 00 55 00 79 00 FF 
   397)       175.116 1  Rx        00B1 -  3    00 A0 1F 
   398)       175.372 1  Rx        00DD -  8    00 00 00 00 00 80 00 00 
   399)       175.585 1  Rx        0025 -  8    03 0C 07 B2 07 DB 60 93 
   400)       175.841 1  Rx        0133 -  8    00 00 00 00 FF 03 0C FF 
   401)       176.439 1  Rx        00B5 -  8    00 00 00 00 00 00 00 00 
   402)       177.377 1  Rx        0027 -  8    8A 9D 07 DB 00 00 62 39 
   403)       178.316 1  Rx        002B -  8    07 E5 08 00 08 09 C0 47 
   404)       178.615 1  Rx        0023 -  8    10 12 10 00 00 00 15 61 
   405)       179.212 1  Rx        02F2 -  8    00 00 00 00 00 AD 00 00 
   406)       179.468 1  Rx        03AE -  8    00 56 00 00 00 00 00 00 
   407)       181.089 1  Rx        0091 -  8    01 FF 7F 00 00 00 E0 20 
   408)       181.345 1  Rx        0037 -  8    1F FE 00 00 10 7C C0 D1 
   409)       181.516 1  Rx        00AD -  5    01 00 00 F0 BB 
   410)       182.284 1  Rx        0095 -  7    00 00 00 00 00 E0 44 
   411)       182.455 1  Rx        0121 -  5    40 00 66 15 00 
   412)       183.180 1  Rx        002F -  8    00 00 00 00 00 D8 80 00 
   413)       183.436 1  Rx        0035 -  8    07 DB 07 B2 00 3C 73 1E 
   414)       183.692 1  Rx        0087 -  8    00 00 00 00 00 66 20 A7 
   415)       183.905 1  Rx        0089 -  8    80 4F 80 6D 83 7A 20 7F 
   416)       184.161 1  Rx        008B -  8    00 00 00 00 00 00 00 00 
   417)       184.417 1  Rx        00A7 -  8    00 00 00 9E 40 9C 20 02 
   418)       184.630 1  Rx        007B -  7    C7 DB 00 08 15 C0 BE 
   419)       184.844 1  Rx        00AB -  8    00 00 CD 0D 00 00 E0 E3 
   420)       184.972 1  Rx        0077 -  2    04 22 
   421)       185.228 1  Rx        00B3 -  8    00 00 00 00 00 00 E0 B8 
   422)       185.484 1  Rx        0025 -  8    03 0C 07 B2 07 DB 70 5E 
   423)       186.422 1  Rx        009D -  8    00 00 00 00 00 00 C0 3F 
   424)       187.404 1  Rx        0027 -  8    8A 9D 07 DB 00 00 72 F4 
   425)       188.300 1  Rx        002B -  8    07 E6 07 FF 08 09 D0 9A 
   426)       188.556 1  Rx        0081 -  8    18 00 47 64 07 00 00 00 
   427)       188.812 1  Rx        0023 -  8    10 12 10 00 00 00 25 2B 
   428)       190.348 1  Rx        007D -  6    00 79 00 00 02 F8 
   429)       191.073 1  Rx        008D -  8    C6 C0 FF FF FF FF FF FF 
   430)       191.329 1  Rx        0037 -  8    1F FE 00 00 10 7C D0 1C 
   431)       192.225 1  Rx        0085 -  8    20 DD 04 00 00 02 E9 38 
   432)       192.737 1  Rx        03E1 -  7    24 16 00 1C 00 FF FF 
   433)       193.249 1  Rx        0093 -  8    80 FC 50 00 00 00 E1 B6 
   434)       193.505 1  Rx        002F -  8    00 00 00 00 00 D7 80 00 
   435)       193.718 1  Rx        0035 -  8    07 DB 07 B2 00 3C 83 61 
   436)       193.974 1  Rx        0071 -  8    07 DB 00 00 6D 00 30 3F 
   437)       194.230 1  Rx        0079 -  8    80 00 00 00 00 00 30 E1 
   438)       194.444 1  Rx        007F -  8    41 2C 00 00 00 00 FF FF 
   439)       194.700 1  Rx        0083 -  8    80 04 00 00 00 00 30 E4 
   440)       194.956 1  Rx        009B -  8    2A 64 00 55 00 79 00 FF 
   441)       195.084 1  Rx        00B1 -  3    00 B0 D2 
   442)       195.340 1  Rx        012B -  8    C2 18 90 36 21 FF 8E FF 
   443)       195.553 1  Rx        0025 -  8    03 07 07 B2 07 DB 80 E1 
   444)       195.809 1  Rx        013F -  8    5B 58 C7 15 01 72 00 00 
   445)       196.406 1  Rx        00B5 -  8    00 00 00 00 00 00 00 00 
   446)       197.260 1  Rx        0129 -  4    32 00 00 00 
   447)       197.516 1  Rx        0027 -  8    8A A0 07 DB 00 00 82 FE 
   448)       198.369 1  Rx        002B -  8    07 E8 08 00 08 09 E0 89 
   449)       198.625 1  Rx        0023 -  8    10 12 10 00 00 00 35 E6 
   450)       200.502 1  Rx        01CE -  4    89 00 10 7F 
   451)       201.057 1  Rx        0091 -  8    01 FF 7F 00 00 00 F0 ED 
   452)       201.356 1  Rx        0037 -  8    1F FE 00 00 10 7C E0 56 
   453)       201.484 1  Rx        00AD -  5    01 00 00 00 C4 
   454)       202.252 1  Rx        0095 -  7    00 00 00 00 00 F0 89 
   455)       202.465 1  Rx        014E -  8    08 14 0A 21 DE 00 07 47 
   456)       203.190 1  Rx        002F -  8    00 00 00 00 00 D7 80 00 
   457)       203.446 1  Rx        0035 -  8    07 DB 07 BE 00 3C 93 7E 
   458)       203.702 1  Rx        0087 -  8    00 00 00 00 00 66 30 6A 
   459)       203.916 1  Rx        0089 -  8    80 47 80 6D 83 7A 30 7F 
   460)       204.172 1  Rx        008B -  8    00 00 00 00 00 00 00 00 
   461)       204.428 1  Rx        00A7 -  8    00 00 00 9E 40 9C 30 CF 
   462)       204.641 1  Rx        007B -  7    C7 DB 00 08 17 D0 EB 
   463)       204.769 1  Rx        0077 -  2    04 22 
   464)       204.982 1  Rx        00AB -  8    00 00 CD 0D 00 00 F0 2E 
   465)       205.238 1  Rx        00B3 -  8    00 00 00 00 00 00 F0 75 
   466)       205.665 1  Rx        0025 -  8    03 07 07 BE 07 DB 90 FE 
   467)       206.390 1  Rx        009D -  8    00 00 00 00 00 00 D0 F2 
   468)       207.414 1  Rx        0027 -  8    8A A0 07 DB 00 00 92 33 
   469)       208.310 1  Rx        002B -  8    07 E4 08 00 08 09 F0 4B 
   470)       208.566 1  Rx        0081 -  8    18 00 47 64 07 00 00 00 
   471)       208.779 1  Rx        0023 -  8    10 12 10 00 00 00 45 BF 
   472)       210.358 1  Rx        007D -  6    00 79 00 00 02 F8 
   473)       211.083 1  Rx        008D -  8    C6 C0 FF FF FF FF FF FF 
   474)       211.382 1  Rx        0037 -  8    1F FE 00 00 10 7C F0 9B 
   475)       212.278 1  Rx        0085 -  8    20 DD 04 00 00 02 E4 3C 
   476)       213.259 1  Rx        002F -  8    00 00 00 00 00 D7 80 00 
   477)       213.515 1  Rx        0035 -  8    07 DB 07 BE 00 3C A3 34 
   478)       213.729 1  Rx        0071 -  8    07 DB 00 00 6D 00 40 66 
   479)       213.985 1  Rx        0079 -  8    80 00 00 00 00 00 40 B8 
   480)       214.241 1  Rx        007F -  8    41 2C 00 00 00 00 FF FF 
   481)       214.497 1  Rx        0083 -  8    80 04 00 00 00 00 40 BD 
   482)       214.710 1  Rx        0093 -  8    80 FC 50 00 00 00 F1 7B 
   483)       214.966 1  Rx        009B -  8    2A 64 00 55 00 79 00 FF 
   484)       215.094 1  Rx        00B1 -  3    00 C0 8B 
   485)       215.435 1  Rx        0025 -  8    03 01 07 BE 07 DB A0 3D 
   486)       216.417 1  Rx        00B5 -  8    00 00 00 00 00 00 00 00 
   487)       217.441 1  Rx        0027 -  8    8A B9 07 DB 00 00 A2 21 
   488)       218.593 1  Rx        002B -  8    07 E4 07 FD 08 09 00 C9 
   489)       218.849 1  Rx        0023 -  8    10 12 10 00 00 00 55 72 
   490)       221.067 1  Rx        0091 -  8    01 FF 7F 00 00 00 00 92 
   491)       221.323 1  Rx        0037 -  8    1F FE 00 00 10 7C 00 E4 
   492)       221.494 1  Rx        00AD -  5    01 00 00 10 09 
   493)       222.262 1  Rx        0095 -  7    00 00 00 00 00 00 F6 
   494)       223.201 1  Rx        002F -  8    00 00 00 00 00 D8 80 00 
   495)       223.457 1  Rx        0035 -  8    07 DB 07 C4 00 3C B3 B9 
   496)       223.670 1  Rx        0087 -  8    00 00 00 00 00 66 40 33 
   497)       223.926 1  Rx        0089 -  8    80 47 80 6D 83 7A 40 7F 
   498)       224.139 1  Rx        008B -  8    00 00 00 00 00 00 00 00 
   499)       224.395 1  Rx        00A7 -  8    00 00 00 9E 40 9C 40 96 
   500)       224.609 1  Rx        007B -  7    C7 DB 00 08 16 E0 ED 
   501)       224.737 1  Rx        0077 -  2    04 22 
   502)       224.993 1  Rx        00AB -  8    00 00 CD 0D 00 00 00 51 
   503)       225.249 1  Rx        00B3 -  8    00 00 00 00 00 00 00 0A 
   504)       225.505 1  Rx        0025 -  8    03 01 07 C4 07 DB B0 B0 
   505)       225.718 1  Rx        00DD -  8    00 00 00 00 00 80 00 00 
   506)       226.401 1  Rx        009D -  8    00 00 00 00 00 00 E0 B8 
   507)       227.382 1  Rx        0027 -  8    8A B9 07 DB 00 00 B2 EC 
   508)       228.320 1  Rx        002B -  8    07 E7 07 FE 08 09 10 74 
   509)       228.576 1  Rx        0081 -  8    18 00 47 64 07 00 00 00 
   510)       228.790 1  Rx        0023 -  8    10 12 10 00 00 00 65 38 
   511)       229.216 1  Rx        03AF -  8    00 00 00 8C 46 00 E1 C2 
   512)       230.368 1  Rx        007D -  6    00 79 00 00 02 F8 
   513)       231.094 1  Rx        008D -  8    C6 C0 FF FF FF FF FF FF 
   514)       231.350 1  Rx        0037 -  8    1F FE 00 00 10 7C 10 29 
   515)       232.246 1  Rx        0085 -  8    20 DD 04 00 00 02 E8 00 
   516)       232.502 1  Rx        0137 -  8    00 00 00 00 00 00 00 19 
   517)       232.758 1  Rx        014D -  8    69 69 92 91 03 ED 09 00 
   518)       233.270 1  Rx        0093 -  8    80 FC 50 00 00 00 01 04 
   519)       233.526 1  Rx        002F -  8    00 00 00 00 00 D7 80 00 
   520)       233.739 1  Rx        0035 -  8    07 DB 07 C4 00 3C C3 E0 
   521)       233.995 1  Rx        0071 -  8    07 DB 00 00 6D 00 50 AB 
   522)       234.251 1  Rx        0079 -  8    80 00 00 00 00 00 50 75 
   523)       234.464 1  Rx        007F -  8    41 2C 00 00 00 00 FF FF 
   524)       234.720 1  Rx        0083 -  8    80 04 00 00 00 00 50 70 
   525)       234.976 1  Rx        009B -  8    2A 64 00 55 00 79 00 FF 
   526)       235.104 1  Rx        00B1 -  3    00 D0 46 
   527)       235.446 1  Rx        0025 -  8    03 01 07 C4 07 DB C0 E9 
   528)       236.384 1  Rx        00B5 -  8    00 00 00 00 00 00 00 00 
   529)       237.408 1  Rx        0027 -  8    8A B9 07 DB 00 00 C2 B5 
   530)       238.304 1  Rx        002B -  8    07 E8 08 00 08 09 20 BC 
   531)       238.646 1  Rx        0023 -  8    10 12 10 00 00 00 75 F5 
   532)       241.078 1  Rx        0091 -  8    01 FF 7F 00 00 00 10 5F 
   533)       241.376 1  Rx        0037 -  8    1F FE 00 00 10 7C 20 63 
   534)       241.504 1  Rx        00AD -  5    01 00 00 20 43 
   535)       242.272 1  Rx        0095 -  7    00 00 00 00 00 10 3B 
   536)       242.528 1  Rx        0127 -  8    60 7C 64 00 E3 80 C8 00 
   537)       242.784 1  Rx        03E0 -  8    02 37 34 33 00 00 00 00 
   538)       243.211 1  Rx        002F -  8    00 00 00 00 00 D7 80 00 
   539)       243.467 1  Rx        0035 -  8    07 DB 07 C4 00 3C D3 2D 
   540)       243.723 1  Rx        0087 -  8    00 00 00 00 00 66 50 FE 
   541)       243.936 1  Rx        0089 -  8    80 47 80 6D 83 7A 50 7F 
   542)       244.192 1  Rx        008B -  8    00 00 00 00 00 00 00 00 
   543)       244.406 1  Rx        00A7 -  8    00 00 00 9E 40 9C 50 5B 
   544)       244.619 1  Rx        007B -  7    C7 DB 00 08 16 F0 20 
   545)       244.747 1  Rx        0077 -  2    04 22 
   546)       245.003 1  Rx        00AB -  8    00 00 CD 0D 00 00 10 9C 
   547)       245.259 1  Rx        00B3 -  8    00 00 00 00 00 00 10 C7 
   548)       245.472 1  Rx        0025 -  8    03 01 07 C4 07 DB D0 24 
   549)       246.411 1  Rx        009D -  8    00 00 00 00 00 00 F0 75 
   550)       247.392 1  Rx        0027 -  8    8A B3 07 DB 00 00 D2 FE 
   551)       248.331 1  Rx        002B -  8    07 E8 07 FF 08 09 30 AB 
   552)       248.544 1  Rx        0081 -  8    18 00 47 64 07 00 00 00 
   553)       248.800 1  Rx        0023 -  8    10 12 10 00 00 00 85 8A 
   554)       250.379 1  Rx        007D -  6    00 79 00 00 02 F8 
   555)       250.549 1  Rx        01CE -  4    8A 00 20 B9 
   556)       251.104 1  Rx        008D -  8    C6 C0 FF FF FF FF FF FF 
   557)       251.317 1  Rx        0037 -  8    1F FE 00 00 10 7C 30 AE 
   558)       252.299 1  Rx        0085 -  8    20 DD 04 00 00 02 E6 04 
   559)       252.555 1  Rx        015B -  8    00 00 00 00 00 00 1B C7 
   560)       252.768 1  Rx        02A4 -  8    00 47 00 00 00 00 00 FF 
   561)       253.280 1  Rx        002F -  8    00 00 00 00 00 D7 80 00 
   562)       253.493 1  Rx        0035 -  8    07 DB 07 C4 00 3C E3 67 
   563)       253.749 1  Rx        0071 -  8    07 DB 00 00 6D 00 60 E1 
   564)       254.005 1  Rx        0079 -  8    80 00 00 00 00 00 60 3F 
   565)       254.261 1  Rx        007F -  8    41 2C 00 00 00 00 FF FF 
   566)       254.475 1  Rx        0083 -  8    80 04 00 00 00 00 60 3A 
   567)       254.731 1  Rx        0093 -  8    80 FC 50 00 00 00 11 C9 
   568)       254.987 1  Rx        009B -  8    2A 64 00 55 00 79 00 FF 
   569)       255.115 1  Rx        00B1 -  3    00 E0 0C 
   570)       255.285 1  Rx        0125 -  3    00 72 00 
   571)       255.499 1  Rx        0025 -  8    03 01 07 C4 07 DB E0 6E 
   572)       255.755 1  Rx        0332 -  8    01 73 03 FF 00 73 01 F6 
   573)       256.011 1  Rx        0407 -  8    FD 09 04 0F E0 FF FF 00 
   574)       256.437 1  Rx        00B5 -  8    00 00 00 00 00 00 00 00 
   575)       257.419 1  Rx        0027 -  8    8A B3 07 DB 00 00 E2 B4 
   576)       258.315 1  Rx        002B -  8    07 E6 08 00 08 09 40 AB 
   577)       258.784 1  Rx        0023 -  8    10 12 10 00 00 00 95 47 
   578)       261.088 1  Rx        0091 -  8    01 FF 7F 00 00 00 20 15 
   579)       261.387 1  Rx        0037 -  8    1F FE 00 00 10 7C 40 F7 
   580)       261.515 1  Rx        00AD -  5    01 00 00 30 8E 
   581)       262.240 1  Rx        0095 -  7    00 00 00 00 00 20 71 
   582)       262.496 1  Rx        0143 -  8    00 00 00 00 00 00 00 00 
   583)       262.752 1  Rx        0157 -  8    00 00 00 00 50 00 00 00 
   584)       263.093 1  Rx        0128 -  8    00 27 34 6C 01 88 06 43 
   585)       263.349 1  Rx        002F -  8    00 00 00 00 00 D7 80 00 
   586)       263.605 1  Rx        0035 -  8    07 DB 07 C4 00 3C F3 AA 
   587)       263.819 1  Rx        0087 -  8    00 00 00 00 00 66 60 B4 
   588)       264.075 1  Rx        0089 -  8    80 47 80 6D 83 7C 60 7F 
   589)       264.373 1  Rx        008B -  8    00 00 00 00 00 00 00 00 
   590)       264.544 1  Rx        007B -  7    C7 DB 00 08 15 00 8B 
   591)       264.800 1  Rx        00A7 -  8    00 00 00 9E 40 9B 60 E8 
   592)       264.928 1  Rx        0077 -  2    04 22 
   593)       265.141 1  Rx        00AB -  8    00 00 CD 0D 00 00 20 D6 
   594)       265.397 1  Rx        00B3 -  8    00 00 00 00 00 00 20 8D 
   595)       265.611 1  Rx        0025 -  8    03 01 07 C4 07 DB F0 A3 
   596)       266.421 1  Rx        009D -  8    00 00 00 00 00 00 00 0A 
   597)       267.403 1  Rx        0027 -  8    8A B3 07 DB 00 00 F2 79 
   598)       268.341 1  Rx        002B -  8    07 E5 07 FE 08 0A 50 3F 
   599)       268.597 1  Rx        0023 -  8    10 12 10 00 00 00 A4 10 
   600)       268.853 1  Rx        0081 -  8    18 00 47 64 07 00 00 00 
   601)       269.109 1  Rx        0318 -  8    00 00 00 00 00 00 FF 00 
   602)       269.323 1  Rx        0328 -  8    40 41 00 53 00 58 00 4D 
   603)       270.346 1  Rx        007D -  6    00 79 00 00 02 F8 
   604)       271.072 1  Rx        008D -  8    C6 C0 FF FF FF FF FF FF 
   605)       271.370 1  Rx        0037 -  8    1F FE 00 00 10 7C 50 3A 
   606)       272.224 1  Rx        0085 -  8    20 DD 04 00 00 02 E9 08 
   607)       272.522 1  Rx        013D -  8    00 00 34 7C 01 60 28 04 
   608)       273.248 1  Rx        0093 -  8    80 FC 50 00 00 00 21 83 
   609)       273.504 1  Rx        002F -  8    00 00 00 00 00 D7 80 00 
   610)       273.717 1  Rx        0035 -  8    07 DB 07 C4 00 3C 03 D5 
   611)       273.973 1  Rx        0071 -  8    07 DB 00 00 6D 00 70 2C 
   612)       274.229 1  Rx        0079 -  8    80 00 00 00 00 00 70 F2 
   613)       274.485 1  Rx        007F -  8    41 2C 00 00 00 00 FF FF 
   614)       274.741 1  Rx        0083 -  8    80 04 00 00 00 00 70 F7 
   615)       274.954 1  Rx        009B -  8    2A 64 00 55 00 79 00 FF 
   616)       275.082 1  Rx        00B1 -  3    00 F0 C1 
   617)       275.338 1  Rx        00DD -  8    00 00 00 00 00 80 00 00 
   618)       275.594 1  Rx        0025 -  8    02 FD 07 C4 07 DB 00 42 
   619)       275.808 1  Rx        0133 -  8    00 00 00 00 FF 03 0C FF 
   620)       276.405 1  Rx        00B5 -  8    00 00 00 00 00 00 00 00 
   621)       277.386 1  Rx        0027 -  8    8A A9 07 DB 00 00 02 94 
   622)       278.325 1  Rx        002B -  8    07 E5 07 FF 08 09 60 3C 
   623)       278.624 1  Rx        0023 -  8    10 12 10 00 00 00 B5 C0 
   624)       279.221 1  Rx        02F2 -  8    00 00 00 00 00 AD 00 00 
   625)       281.098 1  Rx        0091 -  8    01 FF 7F 00 00 00 30 D8 
   626)       281.312 1  Rx        0037 -  8    1F FE 00 00 10 7C 60 70 
   627)       281.525 1  Rx        00AD -  5    01 00 00 40 D7 
   628)       282.208 1  Rx        0095 -  7    00 00 00 00 00 30 BC 
   629)       282.421 1  Rx        0121 -  5    40 00 69 14 00 
   630)       283.189 1  Rx        002F -  8    00 00 00 00 00 D8 80 00 
   631)       283.445 1  Rx        0035 -  8    07 DB 07 C7 00 3C 13 A2 
   632)       283.658 1  Rx        0087 -  8    00 00 00 00 00 66 70 79 
   633)       283.914 1  Rx        0089 -  8    80 4F 80 6D 83 7A 70 7F 
   634)       284.170 1  Rx        008B -  8    00 00 00 00 00 00 00 00 
   635)       284.426 1  Rx        00A7 -  8    00 00 00 9E 40 9C 70 DC 
   636)       284.640 1  Rx        007B -  7    C7 DB 00 08 14 10 0A 
   637)       284.853 1  Rx        00AB -  8    00 00 CD 0D 00 00 30 1B 
   638)       284.981 1  Rx        0077 -  2    04 22 
   639)       285.237 1  Rx        00B3 -  8    00 00 00 00 00 00 30 40 
   640)       285.493 1  Rx        0025 -  8    02 FD 07 C7 07 DB 10 35 
   641)       285.706 1  Rx        0332 -  8    01 6F 03 FF 00 73 01 F6 
   642)       286.432 1  Rx        009D -  8    00 00 00 00 00 00 10 C7 
   643)       287.413 1  Rx        0027 -  8    8A A9 07 DB 00 00 12 59 
   644)       288.309 1  Rx        002B -  8    07 E6 08 00 08 09 70 E1 
   645)       288.608 1  Rx        0081 -  8    18 00 47 64 07 00 00 00 
   646)       288.778 1  Rx        0023 -  8    10 12 10 00 00 00 C5 99 
   647)       290.357 1  Rx        007D -  6    00 79 00 00 02 F8 
   648)       291.082 1  Rx        008D -  8    C6 C0 FF FF FF FF FF FF 
   649)       291.338 1  Rx        0037 -  8    1F FE 00 00 10 7C 70 BD 
   650)       292.277 1  Rx        0085 -  8    20 DD 04 00 00 02 DE 0C 
   651)       292.490 1  Rx        03E1 -  7    24 16 00 1C 00 FF FF 
   652)       293.258 1  Rx        0093 -  8    80 FC 50 00 00 00 31 4E 
   653)       293.514 1  Rx        002F -  8    00 00 00 00 00 D7 80 00 
   654)       293.770 1  Rx        0035 -  8    07 DB 07 C7 00 3C 23 E8 
   655)       293.983 1  Rx        0071 -  8    07 DB 00 00 6D 00 80 53 
   656)       294.239 1  Rx        0079 -  8    80 00 00 00 00 00 80 8D 
   657)       294.495 1  Rx        007F -  8    41 2C 00 00 00 00 FF FF 
   658)       294.709 1  Rx        0083 -  8    80 04 00 00 00 00 80 88 
   659)       294.965 1  Rx        009B -  8    2A 64 00 55 00 79 00 FF 
   660)       295.135 1  Rx        00B1 -  3    00 00 BE 
   661)       295.349 1  Rx        012B -  8    C2 18 90 36 21 FF 8D FF 
   662)       295.605 1  Rx        0025 -  8    02 F8 07 C7 07 DB 20 3C 
   663)       295.818 1  Rx        013F -  8    5B 58 C7 55 01 73 00 00 
   664)       296.415 1  Rx        00B5 -  8    00 00 00 00 00 00 00 00 
   665)       297.269 1  Rx        0129 -  4    32 00 00 00 
   666)       297.482 1  Rx        0027 -  8    8A AE 07 DB 00 00 22 DC 
   667)       297.738 1  Rx        0328 -  8    30 01 00 20 00 48 00 61 
   668)       298.335 1  Rx        002B -  8    07 E7 07 FF 08 09 80 02 
   669)       298.634 1  Rx        0023 -  8    10 12 10 00 00 00 D5 54 
   670)       300.469 1  Rx        01CE -  4    8A 00 30 74 
   671)       301.109 1  Rx        0091 -  8    01 FF 7F 00 00 00 40 81 
   672)       301.365 1  Rx        0037 -  8    1F FE 00 00 10 7C 80 C2 
   673)       301.535 1  Rx        00AD -  5    01 00 00 50 1A 
   674)       302.303 1  Rx        0095 -  7    00 00 00 00 00 40 E5 
   675)       302.517 1  Rx        014E -  8    08 14 0A 21 DE 00 07 47 
   676)       303.199 1  Rx        002F -  8    00 00 00 00 00 D7 80 00 
   677)       303.455 1  Rx        0035 -  8    07 DB 07 CB 00 3C 33 F7 
   678)       303.711 1  Rx        0087 -  8    00 00 00 00 00 66 80 06 
   679)       303.925 1  Rx        0089 -  8    80 47 80 6D 83 7A 80 7F 
   680)       304.181 1  Rx        008B -  8    00 00 00 00 00 00 00 00 
   681)       304.437 1  Rx        00A7 -  8    00 00 00 9E 40 9C 80 A3 
   682)       304.650 1  Rx        007B -  7    C7 DB 00 08 14 20 40 
   683)       304.778 1  Rx        0077 -  2    04 22 
   684)       304.991 1  Rx        00AB -  8    00 00 CD 0D 00 00 40 42 
   685)       305.247 1  Rx        00B3 -  8    00 00 00 00 00 00 40 19 
   686)       305.503 1  Rx        0025 -  8    02 F8 07 CB 07 DB 30 23 
   687)       305.717 1  Rx        0332 -  8    01 6F 03 FF 00 74 01 F6 
   688)       306.399 1  Rx        009D -  8    00 00 00 00 00 00 20 8D 
   689)       307.338 1  Rx        01C0 -  6    00 00 00 00 00 00 
   690)       307.551 1  Rx        0027 -  8    8A AE 07 DB 00 00 32 11 
   691)       308.362 1  Rx        002B -  8    07 E5 08 00 08 08 90 D5 
   692)       308.575 1  Rx        0081 -  8    18 00 47 64 07 00 00 00 
   693)       308.789 1  Rx        0023 -  8    10 12 10 00 00 00 E5 1E 
   694)       310.410 1  Rx        007D -  6    00 79 00 00 02 F8 
   695)       311.093 1  Rx        008D -  8    C6 C0 FF FF FF FF FF FF 
   696)       311.349 1  Rx        0037 -  8    1F FE 00 00 10 7C 90 0F 
   697)       312.287 1  Rx        0085 -  8    20 DD 04 00 00 02 E0 10 
   698)       313.268 1  Rx        002F -  8    00 00 00 00 00 D8 80 00 
   699)       313.567 1  Rx        0035 -  8    07 DB 07 CB 00 3C 43 AE 
   700)       313.738 1  Rx        0071 -  8    07 DB 00 00 6D 00 90 9E 
   701)       313.994 1  Rx        0079 -  8    80 00 00 00 00 00 90 40 
   702)       314.250 1  Rx        007F -  8    41 2C 00 00 00 00 FF FF 
   703)       314.463 1  Rx        0083 -  8    80 04 00 00 00 00 90 45 
   704)       314.719 1  Rx        0093 -  8    80 FC 50 00 00 00 41 17 
   705)       314.975 1  Rx        009B -  8    2A 64 00 55 00 79 00 FF 
   706)       315.103 1  Rx        00B1 -  3    00 10 73 
   707)       315.444 1  Rx        0025 -  8    02 F8 07 CB 07 DB 40 7A 
   708)       316.426 1  Rx        00B5 -  8    00 00 00 00 00 00 00 00 
   709)       317.407 1  Rx        0027 -  8    8A AE 07 DB 00 00 42 48 
   710)       318.602 1  Rx        002B -  8    07 E6 07 FE 08 0A A0 8A 
   711)       318.900 1  Rx        0023 -  8    10 12 10 00 00 00 F5 D3 
   712)       321.076 1  Rx        0091 -  8    01 FF 7F 00 00 00 50 4C 
   713)       321.332 1  Rx        0037 -  8    1F FE 00 00 10 7C A0 45 
   714)       321.503 1  Rx        00AD -  5    01 00 00 60 50 
   715)       322.271 1  Rx        0095 -  7    00 00 00 00 00 50 28 
   716)       323.210 1  Rx        002F -  8    00 00 00 00 00 D8 80 00 
   717)       323.466 1  Rx        0035 -  8    07 DB 07 CB 00 3C 53 63 
   718)       323.679 1  Rx        0087 -  8    00 00 00 00 00 66 90 CB 
   719)       323.892 1  Rx        0089 -  8    80 3F 80 6D 83 7A 90 7F 
   720)       324.148 1  Rx        008B -  8    00 00 00 00 00 00 00 00 
   721)       324.404 1  Rx        00A7 -  8    00 00 00 9E 40 9C 90 6E 
   722)       324.618 1  Rx        007B -  7    C7 DB 00 08 14 30 8D 
   723)       324.746 1  Rx        0077 -  2    04 22 
   724)       324.959 1  Rx        00AB -  8    00 00 CD 0D 00 00 50 8F 
   725)       325.215 1  Rx        00B3 -  8    00 00 00 00 00 00 50 D4 
   726)       325.471 1  Rx        0025 -  8    02 F7 07 CB 07 DB 50 72 
   727)       325.684 1  Rx        00DD -  8    00 00 00 00 00 80 00 00 
   728)       326.154 1  Rx        0328 -  8    20 01 00 69 00 72 00 4E 
   729)       326.410 1  Rx        009D -  8    00 00 00 00 00 00 30 40 
   730)       327.391 1  Rx        0027 -  8    8A AD 07 DB 00 00 52 4F 
   731)       328.330 1  Rx        002B -  8    07 E9 07 FE 08 08 B0 1A 
   732)       328.586 1  Rx        0081 -  8    18 00 47 64 07 00 00 00 
   733)       328.799 1  Rx        0023 -  8    10 12 10 00 00 00 05 AC 
   734)       330.378 1  Rx        007D -  6    00 79 00 00 02 F8 
   735)       331.103 1  Rx        008D -  8    C6 C0 FF FF FF FF FF FF 
   736)       331.316 1  Rx        0037 -  8    1F FE 00 00 10 7C B0 88 
   737)       332.255 1  Rx        0085 -  8    20 DD 04 00 00 02 DF 14 
   738)       332.554 1  Rx        0137 -  8    00 00 00 00 00 00 00 19 
   739)       332.767 1  Rx        014D -  8    69 69 91 91 03 F2 09 00 
   740)       333.279 1  Rx        002F -  8    00 00 00 00 00 D7 80 00 
   741)       333.492 1  Rx        0035 -  8    07 DB 07 CA 00 3C 63 B4 
   742)       333.748 1  Rx        0071 -  8    07 DB 00 00 6D 00 A0 D4 
   743)       334.004 1  Rx        0079 -  8    80 00 00 00 00 00 A0 0A 
   744)       334.260 1  Rx        007F -  8    41 2C 00 00 00 00 FF FF 
   745)       334.473 1  Rx        0083 -  8    80 04 00 00 00 00 A0 0F 
   746)       334.729 1  Rx        0093 -  8    80 FC 50 00 00 00 51 DA 
   747)       334.943 1  Rx        009B -  8    2A 64 00 55 00 79 00 FF 
   748)       335.113 1  Rx        00B1 -  3    00 20 39 
   749)       335.455 1  Rx        0025 -  8    02 F7 07 CA 07 DB 60 A5 
   750)       336.436 1  Rx        00B5 -  8    00 00 00 00 00 00 00 00 
   751)       337.417 1  Rx        0027 -  8    8A AD 07 DB 00 00 62 05 
   752)       338.313 1  Rx        002B -  8    07 E7 08 01 08 09 C0 56 
   753)       338.655 1  Rx        0023 -  8    10 12 10 00 00 00 15 61 
   754)       341.087 1  Rx        0091 -  8    01 FF 7F 00 00 00 60 06 
   755)       341.343 1  Rx        0037 -  8    1F FE 00 00 10 7C C0 D1 
   756)       341.513 1  Rx        00AD -  5    01 00 00 70 9D 
   757)       342.239 1  Rx        0095 -  7    00 00 00 00 00 60 62 
   758)       342.495 1  Rx        0127 -  8    60 7C 64 00 E3 80 C6 00 
   759)       342.708 1  Rx        03E0 -  8    00 31 43 34 47 4A 58 41 
   760)       343.220 1  Rx        002F -  8    00 00 00 00 00 D8 80 00 
   761)       343.433 1  Rx        0035 -  8    07 DB 07 CA 00 3C 73 79 
   762)       343.689 1  Rx        0087 -  8    00 00 00 00 00 66 A0 81 
   763)       343.945 1  Rx        0089 -  8    80 3F 80 6D 83 7C A0 7F 
   764)       344.201 1  Rx        008B -  8    00 00 00 00 00 00 00 00 
   765)       344.415 1  Rx        00A7 -  8    00 00 00 9E 40 9C A0 24 
   766)       344.628 1  Rx        007B -  7    C7 DB 00 08 14 40 D4 
   767)       344.756 1  Rx        0077 -  2    04 22 
   768)       345.012 1  Rx        00AB -  8    00 00 CD 0D 00 00 60 C5 
   769)       345.268 1  Rx        00B3 -  8    00 00 00 00 00 00 60 9E 
   770)       345.481 1  Rx        0025 -  8    02 F7 07 CA 07 DB 70 68 
   771)       346.420 1  Rx        009D -  8    00 00 00 00 00 00 40 19 
   772)       346.676 1  Rx        0409 -  8    FD 23 BF FF FF FF FF FF 
   773)       347.487 1  Rx        0027 -  8    8A A3 07 DB 00 00 72 4B 
   774)       348.340 1  Rx        002B -  8    07 E9 08 00 08 09 D0 85 
   775)       348.553 1  Rx        0081 -  8    18 00 47 64 07 00 00 00 
   776)       348.809 1  Rx        0023 -  8    10 12 10 00 00 00 25 2B 
   777)       350.388 1  Rx        007D -  6    00 79 00 00 02 F8 
   778)       350.559 1  Rx        01CE -  4    89 00 40 A1 
   779)       351.113 1  Rx        008D -  8    C6 C0 FF FF FF FF FF FF 
   780)       351.369 1  Rx        0037 -  8    1F FE 00 00 10 7C D0 1C 
   781)       352.265 1  Rx        0085 -  8    20 DD 04 00 00 02 DE 18 
   782)       352.521 1  Rx        015B -  8    00 00 00 00 00 00 1B C7 
   783)       352.777 1  Rx        02A4 -  8    00 48 00 00 00 00 00 FF 
   784)       353.289 1  Rx        002F -  8    00 00 00 00 00 D7 80 00 
   785)       353.503 1  Rx        0035 -  8    07 DB 07 CA 00 3C 83 06 
   786)       353.759 1  Rx        0071 -  8    07 DB 00 00 6D 00 B0 19 
   787)       353.972 1  Rx        0079 -  8    80 00 00 00 00 00 B0 C7 
   788)       354.228 1  Rx        007F -  8    41 2C 00 00 00 00 FF FF 
   789)       354.484 1  Rx        0083 -  8    80 04 00 00 00 00 B0 C2 
   790)       354.740 1  Rx        0093 -  8    80 FC 50 00 00 00 61 90 
   791)       354.953 1  Rx        009B -  8    2A 64 00 55 00 79 00 FF 
   792)       355.124 1  Rx        00B1 -  3    00 30 F4 
   793)       355.252 1  Rx        0125 -  3    00 72 00 
   794)       355.508 1  Rx        0025 -  8    02 F9 07 CA 07 DB 80 94 
   795)       356.148 1  Rx        0328 -  8    10 01 00 61 00 74 00 6E 
   796)       356.446 1  Rx        00B5 -  8    00 00 00 00 00 00 00 00 
   797)       357.428 1  Rx        0027 -  8    8A A3 07 DB 00 00 82 34 
   798)       358.324 1  Rx        002B -  8    07 E5 08 00 08 09 E0 C0 
   799)       358.665 1  Rx        0023 -  8    10 12 10 00 00 00 35 E6 
   800)       360.500 1  Rx        03C7 -  4    01 00 F0 01 
   801)       361.097 1  Rx        0091 -  8    01 FF 7F 00 00 00 70 CB 
   802)       361.310 1  Rx        0037 -  8    1F FE 00 00 10 7C E0 56 
   803)       361.524 1  Rx        00AD -  5    01 00 00 80 E2 
   804)       362.249 1  Rx        0095 -  7    00 00 00 00 00 70 AF 
   805)       362.462 1  Rx        0143 -  8    00 00 00 00 00 00 00 00 
   806)       362.718 1  Rx        0157 -  8    00 00 00 00 50 00 00 00 
   807)       363.188 1  Rx        002F -  8    00 00 00 00 00 D8 80 00 
   808)       363.444 1  Rx        0035 -  8    07 DB 07 C8 00 3C 93 EC 
   809)       363.657 1  Rx        0087 -  8    00 00 00 00 00 65 B0 98 
   810)       363.913 1  Rx        0089 -  8    80 47 80 6D 83 7C B0 7F 
   811)       364.169 1  Rx        008B -  8    00 00 00 00 00 00 00 00 
   812)       364.425 1  Rx        00A7 -  8    00 00 00 9E 40 9C B0 E9 
   813)       364.596 1  Rx        007B -  7    C7 DB 00 08 11 50 78 
   814)       364.766 1  Rx        0077 -  2    04 22 
   815)       364.980 1  Rx        00AB -  8    00 00 CD 0D 00 00 70 08 
   816)       365.236 1  Rx        00B3 -  8    00 00 00 00 00 00 70 53 
   817)       365.449 1  Rx        0025 -  8    02 F9 07 C8 07 DB 90 7E 
   818)       365.705 1  Rx        0128 -  8    00 27 34 6C 01 88 06 40 
   819)       366.430 1  Rx        009D -  8    00 00 00 00 00 00 50 D4 
   820)       367.412 1  Rx        0027 -  8    8A A3 07 DB 00 00 92 F9 
   821)       368.350 1  Rx        002B -  8    07 E2 07 FE 08 09 F0 85 
   822)       368.606 1  Rx        0081 -  8    18 00 48 64 07 00 00 00 
   823)       368.820 1  Rx        0023 -  8    10 12 10 00 00 00 45 BF 
   824)       369.076 1  Rx        0318 -  8    00 00 00 00 00 00 FF 00 
   825)       370.356 1  Rx        007D -  6    00 79 00 00 02 F8 
   826)       371.124 1  Rx        008D -  8    C6 C0 FF FF FF FF FF FF 
   827)       371.380 1  Rx        0037 -  8    1F FE 00 00 10 7C F0 9B 
   828)       372.276 1  Rx        0085 -  8    20 DD 04 00 00 02 D7 1C 
   829)       372.489 1  Rx        013D -  8    00 00 34 7C 01 55 28 04 
   830)       373.257 1  Rx        002F -  8    00 00 00 00 00 D7 80 00 
   831)       373.513 1  Rx        0035 -  8    07 DB 07 C8 00 3C A3 A6 
   832)       373.726 1  Rx        0071 -  8    07 DB 00 00 6D 00 C0 40 
   833)       373.982 1  Rx        0079 -  8    80 00 00 00 00 00 C0 9E 
   834)       374.238 1  Rx        007F -  8    41 2C 00 00 00 00 FF FF 
   835)       374.494 1  Rx        0083 -  8    80 04 00 00 00 00 C0 9B 
   836)       374.708 1  Rx        0093 -  8    80 FC 50 00 00 00 71 5D 
   837)       374.964 1  Rx        009B -  8    2A 64 00 55 00 79 00 FF 
   838)       375.092 1  Rx        00B1 -  3    00 40 AD 
   839)       375.348 1  Rx        00DD -  8    00 00 00 00 00 80 00 00 
   840)       375.604 1  Rx        0025 -  8    02 F9 07 C8 07 DB A0 34 
   841)       375.817 1  Rx        0133 -  8    00 00 00 00 FF 03 0C FF 
   842)       376.457 1  Rx        00B5 -  8    00 00 00 00 00 00 00 00 
   843)       377.395 1  Rx        0027 -  8    8A 9F 07 DB 00 00 A2 80 
   844)       378.334 1  Rx        002B -  8    07 E6 07 FD 08 09 00 45 
   845)       378.675 1  Rx        0023 -  8    10 12 10 00 00 00 55 72 
   846)       379.230 1  Rx        02F2 -  8    00 00 00 00 00 AD 00 00 
   847)       381.107 1  Rx        0091 -  8    01 FF 7F 00 00 00 80 B4 
   848)       381.363 1  Rx        0037 -  8    1F FE 00 00 10 7C 00 E4 
   849)       381.534 1  Rx        00AD -  5    01 00 00 90 2F 
   850)       382.259 1  Rx        0095 -  7    00 00 00 00 00 80 D0 
   851)       382.473 1  Rx        0121 -  5    40 00 69 14 00 
   852)       383.198 1  Rx        002F -  8    00 00 00 00 00 D8 80 00 
   853)       383.454 1  Rx        0035 -  8    07 DB 07 CA 00 3C B3 4C 
   854)       383.667 1  Rx        0087 -  8    00 00 00 00 00 66 C0 15 
   855)       383.923 1  Rx        0089 -  8    80 47 80 6D 83 7A C0 7F 
   856)       384.137 1  Rx        008B -  8    00 00 00 00 00 00 00 00 
   857)       384.435 1  Rx        00A7 -  8    00 00 00 9E 40 9C C0 B0 
   858)       384.606 1  Rx        007B -  7    C7 DB 00 08 14 60 53 
   859)       384.862 1  Rx        00AB -  8    00 00 CD 0D 00 00 80 77 
   860)       384.990 1  Rx        0077 -  2    04 22 
   861)       385.246 1  Rx        00B3 -  8    00 00 00 00 00 00 80 2C 
   862)       385.459 1  Rx        0025 -  8    02 F9 07 CA 07 DB B0 DE 
   863)       385.715 1  Rx        0230 -  8    03 4C 33 09 00 00 00 00 
   864)       386.057 1  Rx        0332 -  8    01 6D 03 FF 00 74 01 F6 
   865)       386.270 1  Rx        03E8 -  8    49 31 A2 43 00 0E 50 5C 
   866)       386.526 1  Rx        009D -  8    00 00 00 00 00 00 60 9E 
   867)       387.081 1  Rx        0328 -  8    00 01 00 00 00 00 00 00 
   868)       387.422 1  Rx        0027 -  8    8A 9F 07 DB 00 00 B2 4D 
   869)       388.361 1  Rx        002B -  8    07 E6 08 00 08 09 10 75 
   870)       388.574 1  Rx        0081 -  8    18 00 48 64 07 00 00 00 
   871)       388.830 1  Rx        0023 -  8    10 12 10 00 00 00 65 38 
   872)       390.366 1  Rx        007D -  6    00 79 00 00 02 F8 
   873)       391.091 1  Rx        008D -  8    C6 C0 FF FF FF FF FF FF 
   874)       391.390 1  Rx        0037 -  8    1F FE 00 00 10 7C 10 29 
   875)       392.243 1  Rx        0085 -  8    20 DD 04 00 00 02 D9 20 
   876)       392.499 1  Rx        03E1 -  7    24 16 00 1C 00 FF FF 
   877)       393.267 1  Rx        0093 -  8    80 FC 50 00 00 00 81 22 
   878)       393.481 1  Rx        002F -  8    00 00 00 00 00 D7 80 00 
   879)       393.737 1  Rx        0035 -  8    07 DB 07 CA 00 3C C3 15 
   880)       393.993 1  Rx        0071 -  8    07 DB 00 00 6D 00 D0 8D 
   881)       394.206 1  Rx        0079 -  8    80 00 00 00 00 00 D0 53 
   882)       394.462 1  Rx        007F -  8    41 2C 00 00 00 00 FF FF 
   883)       394.718 1  Rx        0083 -  8    80 04 00 00 00 00 D0 56 
   884)       394.931 1  Rx        009B -  8    2A 62 00 55 00 79 00 FF 
   885)       395.102 1  Rx        00B1 -  3    00 50 60 
   886)       395.358 1  Rx        012B -  8    C2 18 90 36 21 FF 8D FF 
   887)       395.571 1  Rx        0025 -  8    02 F9 07 CA 07 DB C0 87 
   888)       395.785 1  Rx        013F -  8    5B 58 C7 24 01 72 00 00 
   889)       395.998 1  Rx        01C8 -  4    00 00 00 00 
   890)       396.425 1  Rx        00B5 -  8    00 00 00 00 00 00 00 00 
   891)       397.278 1  Rx        0129 -  4    32 00 00 00 
   892)       397.491 1  Rx        0027 -  8    8A 9F 07 DB 00 00 C2 14 
   893)       398.344 1  Rx        002B -  8    07 E7 08 00 08 0A 20 AD 
   894)       398.643 1  Rx        0023 -  8    10 12 10 00 00 00 75 F5 
   895)       400.478 1  Rx        01CE -  4    89 00 50 6C 
   896)       401.118 1  Rx        0091 -  8    01 FF 7F 00 00 00 90 79 
   897)       401.374 1  Rx        0037 -  8    1F FE 00 00 10 7C 20 63 
   898)       401.544 1  Rx        00AD -  5    01 00 00 A0 65 
   899)       402.270 1  Rx        0095 -  7    00 00 00 00 00 90 1D 
   900)       402.739 1  Rx        014E -  8    08 14 0A 21 DE 00 07 48 
   901)       403.208 1  Rx        002F -  8    00 00 00 00 00 D7 80 00 
   902)       403.464 1  Rx        0035 -  8    07 DB 07 CA 00 3C D3 D8 
   903)       403.678 1  Rx        0087 -  8    00 00 00 00 00 66 D0 D8 
   904)       403.934 1  Rx        0089 -  8    80 47 80 6D 83 7A D0 7F 
   905)       404.147 1  Rx        008B -  8    00 00 00 00 00 00 00 00 
   906)       404.403 1  Rx        00A7 -  8    00 00 00 9E 40 9B D0 84 
   907)       404.616 1  Rx        007B -  7    C7 DB 00 08 14 70 9E 
   908)       404.744 1  Rx        0077 -  2    04 22 
   909)       405.000 1  Rx        00AB -  8    00 00 CD 0D 00 00 90 BA 
   910)       405.214 1  Rx        00B3 -  8    00 00 00 00 00 00 90 E1 
   911)       405.470 1  Rx        0025 -  8    02 F8 07 CA 07 DB D0 0C 
   912)       406.408 1  Rx        009D -  8    00 00 00 00 00 00 70 53 
   913)       407.432 1  Rx        0027 -  8    8A A4 07 DB 00 00 D2 25 
   914)       408.328 1  Rx        002B -  8    07 E7 08 00 08 08 30 F8 
   915)       408.584 1  Rx        0081 -  8    18 00 48 64 07 00 00 00 
   916)       408.798 1  Rx        0023 -  8    10 12 10 00 00 00 85 8A 
   917)       410.376 1  Rx        007D -  6    00 79 00 00 02 F8 
   918)       411.102 1  Rx        008D -  8    C6 C0 FF FF FF FF FF FF 
   919)       411.400 1  Rx        0037 -  8    1F FE 00 00 10 7C 30 AE 
   920)       412.296 1  Rx        0085 -  8    20 DD 04 00 00 02 DB 24 
   921)       413.278 1  Rx        002F -  8    00 00 00 00 00 D7 80 00 
   922)       413.534 1  Rx        0035 -  8    07 DB 07 CB 00 3C E3 0F 
   923)       413.747 1  Rx        0071 -  8    07 DB 00 00 6D 00 E0 C7 
   924)       414.003 1  Rx        0079 -  8    80 00 00 00 00 00 E0 19 
   925)       414.259 1  Rx        007F -  8    41 2C 00 00 00 00 FF FF 
   926)       414.472 1  Rx        0083 -  8    80 04 00 00 00 00 E0 1C 
   927)       414.728 1  Rx        0093 -  8    80 FC 50 00 00 00 91 EF 
   928)       414.942 1  Rx        009B -  8    2A 62 00 55 00 79 00 FF 
   929)       415.112 1  Rx        00B1 -  3    00 60 2A 
   930)       415.454 1  Rx        0025 -  8    02 F8 07 CB 07 DB E0 DB 
   931)       416.435 1  Rx        00B5 -  8    00 00 00 00 00 00 00 00 
   932)       416.947 1  Rx        0328 -  8    00 00 00 00 00 00 00 00 
   933)       417.416 1  Rx        0027 -  8    8A A4 07 DB 00 00 E2 6F 
   934)       418.355 1  Rx        002B -  8    07 E4 07 FF 08 09 40 FD 
   935)       418.654 1  Rx        0023 -  8    10 12 10 00 00 00 95 47 
   936)       420.360 1  Rx        01A1 -  8    00 00 80 00 00 00 00 00 
   937)       421.085 1  Rx        0091 -  8    01 FF 7F 00 00 00 A0 33 
   938)       421.341 1  Rx        0037 -  8    1F FE 00 00 10 7C 40 F7 
   939)       421.512 1  Rx        00AD -  5    01 00 00 B0 A8 
   940)       422.280 1  Rx        0095 -  7    00 00 00 00 00 A0 57 
   941)       423.176 1  Rx        002F -  8    00 00 00 00 00 D8 80 00 
   942)       423.432 1  Rx        0035 -  8    07 DB 07 CB 00 3C F3 C2 
   943)       423.688 1  Rx        0087 -  8    00 00 00 00 00 66 E0 92 
   944)       423.901 1  Rx        0089 -  8    80 3F 80 6D 83 7C E0 7F 
   945)       424.157 1  Rx        008B -  8    00 00 00 00 00 00 00 00 
   946)       424.413 1  Rx        00A7 -  8    00 00 00 9E 40 9B E0 CE 
   947)       424.627 1  Rx        007B -  7    C7 DB 00 08 14 80 E1 
   948)       424.755 1  Rx        0077 -  2    04 22 
   949)       425.011 1  Rx        00AB -  8    00 00 CD 0D 00 00 A0 F0 
   950)       425.224 1  Rx        00B3 -  8    00 00 00 00 00 00 A0 AB 
   951)       425.480 1  Rx        0025 -  8    02 F8 07 CB 07 DB F0 16 
   952)       425.736 1  Rx        00DD -  8    00 00 00 00 00 80 00 00 
   953)       425.992 1  Rx        0230 -  8    03 4C 33 09 00 00 00 00 
   954)       426.675 1  Rx        009D -  8    00 00 00 00 00 00 80 2C 
   955)       427.400 1  Rx        0027 -  8    8A A5 07 DB 00 00 F2 E4 
   956)       428.339 1  Rx        002B -  8    07 E6 07 FB 08 09 50 F2 
   957)       428.595 1  Rx        0081 -  8    18 00 48 64 07 00 00 00 
   958)       428.808 1  Rx        0023 -  8    10 12 10 00 00 00 A5 0D 
   959)       430.387 1  Rx        007D -  6    00 79 00 00 02 F8 
   960)       431.112 1  Rx        008D -  8    C6 C0 FF FF FF FF FF FF 
   961)       431.368 1  Rx        0037 -  8    1F FE 00 00 10 7C 50 3A 
   962)       432.264 1  Rx        0085 -  8    20 DD 04 00 00 02 D9 28 
   963)       432.520 1  Rx        0137 -  8    00 00 00 00 00 00 00 19 
   964)       432.776 1  Rx        014D -  8    69 69 91 91 03 F1 09 00 
   965)       433.288 1  Rx        002F -  8    00 00 00 00 00 D8 80 00 
   966)       433.501 1  Rx        0035 -  8    07 DB 07 CB 00 3C 03 BD 
   967)       433.757 1  Rx        0071 -  8    07 DB 00 00 6D 00 F0 0A 
   968)       434.013 1  Rx        0079 -  8    80 00 00 00 00 00 F0 D4 
   969)       434.269 1  Rx        007F -  8    41 2C 00 00 00 00 FF FF 
   970)       434.483 1  Rx        0083 -  8    80 04 00 00 00 00 F0 D1 
   971)       434.739 1  Rx        0093 -  8    80 FC 50 00 00 00 A1 A5 
   972)       434.952 1  Rx        009B -  8    2A 62 00 55 00 79 00 FF 
   973)       435.123 1  Rx        00B1 -  3    00 70 E7 
   974)       435.379 1  Rx        0248 -  8    00 00 FF FF FF 03 FF FF 
   975)       435.592 1  Rx        0025 -  8    02 F5 07 CB 07 DB 00 20 
   976)       436.403 1  Rx        00B5 -  8    00 00 00 00 00 00 00 00 
   977)       437.427 1  Rx        0027 -  8    8A A5 07 DB 00 00 02 9B 
   978)       438.323 1  Rx        002B -  8    07 E8 07 FF 08 09 60 75 
   979)       438.664 1  Rx        0023 -  8    10 12 10 00 00 00 B5 C0 
   980)       441.352 1  Rx        0037 -  8    1F FE 00 00 10 7C 60 70 
   981)       441.608 1  Rx        0091 -  8    01 FF 7F 00 00 00 B0 FE 
   982)       441.778 1  Rx        00AD -  5    01 00 00 C0 F1 
   983)       442.248 1  Rx        0095 -  7    00 00 00 00 00 B0 9A 
   984)       442.461 1  Rx        0127 -  8    60 7C 64 00 E3 80 C6 00 
   985)       442.717 1  Rx        03E0 -  8    01 47 32 4A 57 32 39 34 
   986)       443.229 1  Rx        002F -  8    00 00 00 00 00 D7 7F 00 
   987)       443.442 1  Rx        0035 -  8    07 DB 07 CA 00 3C 13 ED 
   988)       443.698 1  Rx        0087 -  8    00 00 00 00 00 65 F0 8B 
   989)       443.954 1  Rx        0089 -  8    80 47 80 6D 83 7A F0 7F 
   990)       444.168 1  Rx        008B -  8    00 00 00 00 00 00 00 00 
   991)       444.424 1  Rx        00A7 -  8    00 00 00 9E 40 9B F0 03 
   992)       444.637 1  Rx        007B -  7    C7 DB 00 08 14 90 2C 
   993)       444.765 1  Rx        0077 -  2    04 22 
   994)       445.021 1  Rx        00AB -  8    00 00 CD 0D 00 00 B0 3D 
   995)       445.277 1  Rx        00B3 -  8    00 00 00 00 00 00 B0 66 
   996)       445.490 1  Rx        0025 -  8    02 F5 07 CA 07 DB 10 70 
   997)       445.746 1  Rx        0423 -  8    FD 00 04 0F 08 00 00 00 
   998)       446.429 1  Rx        009D -  8    00 00 00 00 00 00 90 E1 
   999)       446.898 1  Rx        0328 -  8    40 42 00 00 00 00 00 00 
  1000)       447.410 1  Rx        0027 -  8    8A A5 07 DB 00 00 12 56 
  1001)       448.349 1  Rx        002B -  8    07 E9 08 00 08 08 70 68 
  1002)       448.562 1  Rx        0081 -  8    18 00 48 64 07 00 00 00 
  1003)       448.818 1  Rx        0023 -  8    10 12 10 00 00 00 C5 99 
  1004)       450.397 1  Rx        007D -  6    00 79 00 00 02 F8 
  1005)       450.525 1  Rx        01CE -  4    89 00 60 26 
  1006)       451.122 1  Rx        008D -  8    C6 C0 FF FF FF FF FF FF 
  1007)       451.336 1  Rx        0037 -  8    1F FE 00 00 10 7C 70 BD 
  1008)       452.274 1  Rx        0085 -  8    20 DD 04 00 00 02 D4 2C 
  1009)       452.530 1  Rx        015B -  8    00 00 00 00 00 00 1B C7 
  1010)       452.786 1  Rx        02A4 -  8    00 48 00 00 00 00 00 FF 
  1011)       453.256 1  Rx        002F -  8    00 00 00 00 00 D7 80 00 
  1012)       453.512 1  Rx        0035 -  8    07 DB 07 CA 00 3C 23 A7 
  1013)       453.768 1  Rx        0071 -  8    07 DB 00 00 6D 00 00 75 
  1014)       453.981 1  Rx        0079 -  8    80 00 00 00 00 00 00 AB 
  1015)       454.237 1  Rx        007F -  8    41 2C 00 00 00 00 FF FF 
  1016)       454.493 1  Rx        0083 -  8    80 04 00 00 00 00 00 AE 
  1017)       454.706 1  Rx        0093 -  8    80 FC 50 00 00 00 B1 68 
  1018)       454.962 1  Rx        009B -  8    2A 62 00 55 00 79 00 FF 
  1019)       455.090 1  Rx        00B1 -  3    00 80 98 
  1020)       455.261 1  Rx        0125 -  3    00 72 00 
  1021)       455.645 1  Rx        0025 -  8    02 F4 07 CA 07 DB 20 7C 
  1022)       456.413 1  Rx        00B5 -  8    00 00 00 00 00 00 00 00 
  1023)       457.437 1  Rx        0027 -  8    8A A5 07 DB 00 00 22 1C 
  1024)       458.333 1  Rx        002B -  8    07 E7 08 00 08 09 80 D8 
  1025)       458.674 1  Rx        0023 -  8    10 12 10 00 00 00 D5 54 
  1026)       461.106 1  Rx        0091 -  8    01 FF 7F 00 00 00 C0 A7 
  1027)       461.362 1  Rx        0037 -  8    1F FE 00 00 10 7C 80 C2 
  1028)       461.533 1  Rx        00AD -  5    01 00 00 D0 3C 
  1029)       462.215 1  Rx        0095 -  7    00 00 00 00 00 C0 C3 
  1030)       462.471 1  Rx        0143 -  8    00 00 00 00 00 00 00 00 
  1031)       462.727 1  Rx        0157 -  8    00 00 00 00 50 00 00 00 
  1032)       463.197 1  Rx        002F -  8    00 00 00 00 00 D7 80 00 
  1033)       463.453 1  Rx        0035 -  8    07 DB 07 C9 00 3C 33 D0 
  1034)       463.709 1  Rx        0087 -  8    00 00 00 00 00 66 00 20 
  1035)       463.922 1  Rx        0089 -  8    80 3F 80 6D 83 7C 00 7F 
  1036)       464.178 1  Rx        008B -  8    00 00 00 00 00 00 00 00 
  1037)       464.391 1  Rx        00A7 -  8    00 00 00 9E 40 9B 00 7C 
  1038)       464.647 1  Rx        007B -  7    C7 DB 00 08 12 A0 D3 
  1039)       464.775 1  Rx        0077 -  2    04 22 
  1040)       464.989 1  Rx        00AB -  8    00 00 CD 0D 00 00 C0 64 
  1041)       465.245 1  Rx        00B3 -  8    00 00 00 00 00 00 C0 3F 
  1042)       465.501 1  Rx        0025 -  8    02 F4 07 C9 07 DB 30 0B 
  1043)       465.714 1  Rx        0128 -  8    00 27 34 6C 01 88 06 3D 
  1044)       466.439 1  Rx        009D -  8    00 00 00 00 00 00 A0 AB 
  1045)       467.421 1  Rx        0027 -  8    8A A5 07 DB 00 00 32 D1 
  1046)       468.317 1  Rx        002B -  8    07 E5 07 FF 08 09 90 43 
  1047)       468.615 1  Rx        0081 -  8    18 00 48 64 07 00 00 00 
  1048)       468.829 1  Rx        0023 -  8    10 12 10 00 00 00 E5 1E 
  1049)       469.085 1  Rx        0318 -  8    00 00 00 00 00 00 FF 00 
  1050)       470.365 1  Rx        007D -  6    00 79 00 00 02 F8 
  1051)       471.090 1  Rx        008D -  8    C6 C0 FF FF FF FF FF FF 
  1052)       471.389 1  Rx        0037 -  8    1F FE 00 00 10 7C 90 0F 
  1053)       472.285 1  Rx        0085 -  8    20 DD 04 00 00 02 D9 30 
  1054)       472.498 1  Rx        013D -  8    00 00 34 7C 00 FF 28 04 
  1055)       473.266 1  Rx        002F -  8    00 00 00 00 00 D8 80 00 
  1056)       473.522 1  Rx        0035 -  8    07 DB 07 C9 00 3C 43 89 
  1057)       473.735 1  Rx        0071 -  8    07 DB 00 00 6D 00 10 B8 
  1058)       473.991 1  Rx        0079 -  8    80 00 00 00 00 00 10 66 
  1059)       474.247 1  Rx        007F -  8    41 2C 00 00 00 00 FF FF 
  1060)       474.503 1  Rx        0083 -  8    80 04 00 00 00 00 10 63 
  1061)       474.759 1  Rx        0093 -  8    80 FC 50 00 00 00 C1 31 
  1062)       474.887 1  Rx        00B1 -  3    00 90 55 
  1063)       475.101 1  Rx        009B -  8    2A 62 00 55 00 79 00 FF 
  1064)       475.357 1  Rx        00DD -  8    00 00 00 00 00 80 00 00 
  1065)       475.613 1  Rx        0025 -  8    02 F4 07 C9 07 DB 40 52 
  1066)       475.826 1  Rx        0133 -  8    00 00 00 00 FF 03 0C FF 
  1067)       476.423 1  Rx        00B5 -  8    00 00 00 00 00 00 00 00 
  1068)       477.149 1  Rx        0328 -  8    30 02 00 00 00 00 00 00 
  1069)       477.405 1  Rx        0027 -  8    8A A5 07 DB 00 00 42 88 
  1070)       478.386 1  Rx        002B -  8    07 E4 07 FE 08 09 A0 D2 
  1071)       478.685 1  Rx        0023 -  8    10 12 10 00 00 00 F5 D3 
  1072)       479.239 1  Rx        02F2 -  8    00 00 00 00 00 AD 00 00 
  1073)       481.117 1  Rx        0091 -  8    01 FF 7F 00 00 00 D0 6A 
  1074)       481.373 1  Rx        0037 -  8    1F FE 00 00 10 7C A0 45 
  1075)       481.543 1  Rx        00AD -  5    01 00 00 E0 76 
  1076)       482.269 1  Rx        0095 -  7    00 00 00 00 00 D0 0E 
  1077)       482.482 1  Rx        0121 -  5    40 00 68 14 00 
  1078)       483.207 1  Rx        002F -  8    00 00 00 00 00 D7 80 00 
  1079)       483.420 1  Rx        0035 -  8    07 DB 07 C9 00 3C 53 44 
  1080)       483.676 1  Rx        0087 -  8    00 00 00 00 00 65 10 39 
  1081)       483.932 1  Rx        0089 -  8    80 47 80 6D 83 7C 10 7F 
  1082)       484.146 1  Rx        008B -  8    00 00 00 00 00 00 00 00 
  1083)       484.402 1  Rx        00A7 -  8    00 00 00 9E 40 9C 10 48 
  1084)       484.615 1  Rx        007B -  7    C7 DB 00 08 12 B0 1E 
  1085)       484.871 1  Rx        00AB -  8    00 00 CD 0D 00 00 D0 A9 
  1086)       484.999 1  Rx        0077 -  2    04 22 
  1087)       485.255 1  Rx        00B3 -  8    00 00 00 00 00 00 D0 F2 
  1088)       485.468 1  Rx        0025 -  8    02 F1 07 C9 07 DB 50 DC 
  1089)       485.724 1  Rx        0332 -  8    01 6C 03 FF 00 74 01 F6 
  1090)       486.450 1  Rx        009D -  8    00 00 00 00 00 00 B0 66 
  1091)       487.431 1  Rx        0027 -  8    8A A1 07 DB 00 00 52 40 
  1092)       488.327 1  Rx        002B -  8    07 E6 07 FD 08 08 B0 65 
  1093)       488.583 1  Rx        0081 -  8    18 00 48 64 07 00 00 00 
  1094)       488.796 1  Rx        0023 -  8    10 12 10 00 00 00 05 AC 
  1095)       489.223 1  Rx        01F7 -  8    FF FF 0F FF 00 80 00 00 
  1096)       490.375 1  Rx        007D -  6    00 79 00 00 02 F8 
  1097)       491.100 1  Rx        008D -  8    C6 C0 FF FF FF FF FF FF 
  1098)       491.399 1  Rx        0037 -  8    1F FE 00 00 10 7C B0 88 
  1099)       492.252 1  Rx        0085 -  8    20 DD 04 00 00 02 D6 34 
  1100)       492.466 1  Rx        03E1 -  7    24 16 00 1C 00 FF FF 
  1101)       493.234 1  Rx        0093 -  8    80 FC 50 00 00 00 D1 FC 
  1102)       493.490 1  Rx        002F -  8    00 00 00 00 00 D7 80 00 
  1103)       493.746 1  Rx        0035 -  8    07 DB 07 CE 00 3C 63 FA 
  1104)       494.002 1  Rx        0071 -  8    07 DB 00 00 6D 00 20 F2 
  1105)       494.215 1  Rx        0079 -  8    80 00 00 00 00 00 20 2C 
  1106)       494.471 1  Rx        007F -  8    41 2C 00 00 00 00 FF FF 
  1107)       494.727 1  Rx        0083 -  8    80 04 00 00 00 00 20 29 
  1108)       494.940 1  Rx        009B -  8    2A 64 00 55 00 79 00 FF 
  1109)       495.111 1  Rx        00B1 -  3    00 A0 1F 
  1110)       495.324 1  Rx        012B -  8    C2 18 90 36 21 FF 8D FF 
  1111)       495.580 1  Rx        013F -  8    5B 58 C7 3E 01 73 00 00 
  1112)       495.836 1  Rx        0025 -  8    02 F1 07 CE 07 DB 60 62 
  1113)       496.434 1  Rx        00B5 -  8    00 00 00 00 00 00 00 00 
  1114)       497.287 1  Rx        0129 -  4    32 00 00 00 
  1115)       497.500 1  Rx        0027 -  8    8A A1 07 DB 00 00 62 0A 
  1116)       498.354 1  Rx        002B -  8    07 E7 08 00 08 09 C0 CB 
  1117)       498.652 1  Rx        0023 -  8    10 12 10 00 00 00 15 61 
  1118)       500.487 1  Rx        01CE -  4    89 00 70 EB 
  1119)       501.127 1  Rx        0091 -  8    01 FF 7F 00 00 00 E0 20 
  1120)       501.383 1  Rx        0037 -  8    1F FE 00 00 10 7C C0 D1 
  1121)       501.554 1  Rx        00AD -  5    01 00 00 F0 BB 
  1122)       502.279 1  Rx        0095 -  7    00 00 00 00 00 E0 44 
  1123)       502.492 1  Rx        014E -  8    08 14 0A 21 DE 00 07 48 
  1124)       503.218 1  Rx        002F -  8    00 00 00 00 00 D8 80 00 
  1125)       503.474 1  Rx        0035 -  8    07 DB 07 CE 00 3C 73 37 
  1126)       503.687 1  Rx        0087 -  8    00 00 00 00 00 66 20 A7 
  1127)       503.943 1  Rx        0089 -  8    80 3F 80 6D 83 7A 20 7F 
  1128)       504.199 1  Rx        008B -  8    00 00 00 00 00 00 00 00 
  1129)       504.412 1  Rx        00A7 -  8    00 00 00 9E 40 9C 20 02 
  1130)       504.625 1  Rx        007B -  7    C7 DB 00 08 14 C0 F2 
  1131)       504.753 1  Rx        0077 -  2    04 22 
  1132)       505.009 1  Rx        00AB -  8    00 00 CD 0D 00 00 E0 E3 
  1133)       505.265 1  Rx        00B3 -  8    00 00 00 00 00 00 E0 B8 
  1134)       505.479 1  Rx        0025 -  8    02 E8 07 CE 07 DB 70 F7 
  1135)       505.735 1  Rx        0332 -  8    01 6C 03 FF 00 73 01 F6 
  1136)       506.716 1  Rx        009D -  8    00 00 00 00 00 00 C0 3F 
  1137)       507.313 1  Rx        01C0 -  6    00 00 00 00 00 00 
  1138)       507.569 1  Rx        0027 -  8    8A A2 07 DB 00 00 72 0D 
  1139)       508.039 1  Rx        0328 -  8    20 02 00 00 00 00 00 00 
  1140)       508.380 1  Rx        002B -  8    07 E9 07 FF 08 09 D0 5F 
  1141)       508.593 1  Rx        0081 -  8    18 00 48 64 07 00 00 00 
  1142)       508.807 1  Rx        0023 -  8    10 12 10 00 00 00 25 2B 
  1143)       510.385 1  Rx        007D -  6    00 79 00 00 02 F8 
  1144)       511.111 1  Rx        008D -  8    C6 C0 FF FF FF FF FF FF 
  1145)       511.409 1  Rx        0037 -  8    1F FE 00 00 10 7C D0 1C 
  1146)       512.263 1  Rx        0085 -  8    20 DD 04 00 00 02 D7 38 
  1147)       513.287 1  Rx        002F -  8    00 00 00 00 00 D7 80 00 
  1148)       513.500 1  Rx        0035 -  8    07 DB 07 CE 00 3C 83 48 
  1149)       513.756 1  Rx        0071 -  8    07 DB 00 00 6D 00 30 3F 
  1150)       514.012 1  Rx        0079 -  8    80 00 00 00 00 00 30 E1 
  1151)       514.225 1  Rx        007F -  8    41 2C 00 00 00 00 FF FF 
  1152)       514.481 1  Rx        0083 -  8    80 04 00 00 00 00 30 E4 
  1153)       514.737 1  Rx        0093 -  8    80 FC 50 00 00 00 E1 B6 
  1154)       514.951 1  Rx        009B -  8    2A 64 00 55 00 79 00 FF 
  1155)       515.121 1  Rx        00B1 -  3    00 B0 D2 
  1156)       515.463 1  Rx        0025 -  8    02 E8 07 CE 07 DB 80 88 
  1157)       516.444 1  Rx        00B5 -  8    00 00 00 00 00 00 00 00 
  1158)       517.425 1  Rx        0027 -  8    8A A2 07 DB 00 00 82 72 
  1159)       518.407 1  Rx        002B -  8    07 E6 08 00 08 09 E0 0A 
  1160)       518.663 1  Rx        0023 -  8    10 12 10 00 00 00 35 E6 
  1161)       521.095 1  Rx        0091 -  8    01 FF 7F 00 00 00 F0 ED 
  1162)       521.351 1  Rx        0037 -  8    1F FE 00 00 10 7C E0 56 
  1163)       521.521 1  Rx        00AD -  5    01 00 00 00 C4 
  1164)       522.247 1  Rx        0095 -  7    00 00 00 00 00 F0 89 
  1165)       523.185 1  Rx        002F -  8    00 00 00 00 00 D8 80 00 
  1166)       523.441 1  Rx        0035 -  8    07 DB 07 D7 00 3C 93 A1 
  1167)       523.697 1  Rx        0087 -  8    00 00 00 00 00 66 30 6A 
  1168)       523.911 1  Rx        0089 -  8    80 47 80 6D 83 7C 30 7F 
  1169)       524.167 1  Rx        008B -  8    00 00 00 00 00 00 00 00 
  1170)       524.423 1  Rx        00A7 -  8    00 00 00 9E 40 9C 30 CF 
  1171)       524.636 1  Rx        007B -  7    C7 DB 00 08 12 D0 8A 
  1172)       524.764 1  Rx        0077 -  2    04 22 
  1173)       524.977 1  Rx        00AB -  8    00 00 CD 0D 00 00 F0 2E 
  1174)       525.233 1  Rx        00B3 -  8    00 00 00 00 00 00 F0 75 
  1175)       525.489 1  Rx        0025 -  8    02 E8 07 D7 07 DB 90 61 
  1176)       525.745 1  Rx        00DD -  8    00 00 00 00 00 80 00 00 
  1177)       526.428 1  Rx        009D -  8    00 00 00 00 00 00 D0 F2 
  1178)       527.409 1  Rx        0027 -  8    8A A2 07 DB 00 00 92 BF 
  1179)       528.348 1  Rx        002B -  8    07 E5 08 00 08 09 F0 0D 
  1180)       528.604 1  Rx        0081 -  8    18 00 48 64 07 00 00 00 
  1181)       528.817 1  Rx        0023 -  8    10 12 10 00 00 00 45 BF 
  1182)       530.396 1  Rx        007D -  6    00 79 00 00 02 F8 
  1183)       531.121 1  Rx        008D -  8    C6 C0 FF FF FF FF FF FF 
  1184)       531.377 1  Rx        0037 -  8    1F FE 00 00 10 7C F0 9B 
  1185)       532.273 1  Rx        0085 -  8    20 DD 04 00 00 02 CE 3C 
  1186)       532.529 1  Rx        0137 -  8    00 00 00 00 00 00 00 19 
  1187)       532.742 1  Rx        014D -  8    69 69 91 91 03 F1 09 00 
  1188)       533.297 1  Rx        002F -  8    00 00 00 00 00 D8 80 00 
  1189)       533.510 1  Rx        0035 -  8    07 DB 07 D7 00 3C A3 EB 
  1190)       533.766 1  Rx        0071 -  8    07 DB 00 00 6D 00 40 66 
  1191)       534.022 1  Rx        0079 -  8    80 00 00 00 00 00 40 B8 
  1192)       534.236 1  Rx        007F -  8    41 2C 00 00 00 00 FF FF 
  1193)       534.492 1  Rx        0083 -  8    80 04 00 00 00 00 40 BD 
  1194)       534.748 1  Rx        0093 -  8    80 FC 50 00 00 00 F1 7B 
  1195)       534.961 1  Rx        009B -  8    2A 64 00 55 00 79 00 FF 
  1196)       535.132 1  Rx        00B1 -  3    00 C0 8B 
  1197)       535.473 1  Rx        0025 -  8    02 DF 07 D7 07 DB A0 D8 
  1198)       536.668 1  Rx        00B5 -  8    00 00 00 00 00 00 00 00 
  1199)       537.094 1  Rx        0328 -  8    10 02 00 00 00 00 00 00 
  1200)       537.436 1  Rx        0027 -  8    8A A6 07 DB 00 00 A2 F0 
  1201)       538.332 1  Rx        002B -  8    07 E7 07 FD 08 09 00 03 
  1202)       538.673 1  Rx        0023 -  8    10 12 10 00 00 00 55 72 
  1203)       541.105 1  Rx        0091 -  8    01 FF 7F 00 00 00 00 92 
  1204)       541.404 1  Rx        0037 -  8    1F FE 00 00 10 7C 00 E4 
  1205)       541.532 1  Rx        00AD -  5    01 00 00 10 09 
  1206)       542.214 1  Rx        0095 -  7    00 00 00 00 00 00 F6 
  1207)       542.470 1  Rx        0127 -  8    60 7C 64 00 E2 80 C6 00 
  1208)       542.726 1  Rx        03E0 -  8    02 37 34 33 00 00 00 00 
  1209)       542.982 1  Rx        0400 -  8    FD 01 3F FF FF FF FF FF 
  1210)       543.238 1  Rx        002F -  8    00 00 00 00 00 D7 80 00 
  1211)       543.452 1  Rx        0035 -  8    07 DB 07 DE 00 3C B3 27 
  1212)       543.708 1  Rx        0087 -  8    00 00 00 00 00 66 40 33 
  1213)       543.921 1  Rx        0089 -  8    80 47 80 6D 83 7A 40 7F 
  1214)       544.177 1  Rx        008B -  8    00 00 00 00 00 00 00 00 
  1215)       544.433 1  Rx        00A7 -  8    00 00 00 9E 40 9B 40 6F 
  1216)       544.689 1  Rx        007B -  7    C7 DB 00 08 11 E0 14 
  1217)       544.774 1  Rx        0077 -  2    04 22 
  1218)       545.030 1  Rx        00AB -  8    00 00 CD 0D 00 00 00 51 
  1219)       545.286 1  Rx        00B3 -  8    00 00 00 00 00 00 00 0A 
  1220)       545.500 1  Rx        0025 -  8    02 DF 07 DE 07 DB B0 14 
  1221)       546.438 1  Rx        009D -  8    00 00 00 00 00 00 E0 B8 
  1222)       547.419 1  Rx        0027 -  8    8A A6 07 DB 00 00 B2 3D 
  1223)       548.358 1  Rx        002B -  8    07 E6 08 00 08 09 10 75 
  1224)       548.614 1  Rx        0081 -  8    18 00 48 64 07 00 00 00 
  1225)       548.827 1  Rx        0023 -  8    10 12 10 00 00 00 65 38 
  1226)       550.406 1  Rx        007D -  6    00 79 00 00 02 F8 
  1227)       550.534 1  Rx        01CE -  4    8A 00 80 18 
  1228)       551.131 1  Rx        008D -  8    C6 C0 FF FF FF FF FF FF 
  1229)       551.387 1  Rx        0037 -  8    1F FE 00 00 10 7C 10 29 
  1230)       552.283 1  Rx        0085 -  8    20 DD 04 00 00 02 CC 00 
  1231)       552.539 1  Rx        015B -  8    00 00 00 00 00 00 1B C7 
  1232)       552.795 1  Rx        02A4 -  8    00 48 00 00 00 00 00 FF 
  1233)       553.265 1  Rx        002F -  8    00 00 00 00 00 D7 80 00 
  1234)       553.521 1  Rx        0035 -  8    07 DB 07 DE 00 3C C3 7E 
  1235)       553.734 1  Rx        0071 -  8    07 DB 00 00 6D 00 50 AB 
  1236)       553.990 1  Rx        0079 -  8    80 00 00 00 00 00 50 75 
  1237)       554.246 1  Rx        007F -  8    41 2C 00 00 00 00 FF FF 
  1238)       554.502 1  Rx        0083 -  8    80 04 00 00 00 00 50 70 
  1239)       554.715 1  Rx        0093 -  8    80 FC 50 00 00 00 01 04 
  1240)       554.971 1  Rx        009B -  8    2A 64 00 55 00 79 00 FF 
  1241)       555.142 1  Rx        00B1 -  3    00 D0 46 
  1242)       555.270 1  Rx        0125 -  3    00 72 00 
  1243)       555.526 1  Rx        0025 -  8    02 DF 07 DE 07 DB C0 4D 
  1244)       556.422 1  Rx        00B5 -  8    00 00 00 00 00 00 00 00 
  1245)       557.403 1  Rx        0027 -  8    8A A6 07 DB 00 00 C2 64 
  1246)       558.342 1  Rx        002B -  8    07 E8 07 FE 08 08 20 B7 
  1247)       558.683 1  Rx        0023 -  8    10 12 10 00 00 00 75 F5 
  1248)       560.475 1  Rx        03C7 -  4    01 00 00 7E 
  1249)       561.115 1  Rx        0091 -  8    01 FF 7F 00 00 00 10 5F 
  1250)       561.414 1  Rx        0037 -  8    1F FE 00 00 10 7C 20 63 
  1251)       561.542 1  Rx        00AD -  5    01 00 00 20 43 
  1252)       562.267 1  Rx        0095 -  7    00 00 00 00 00 10 3B 
  1253)       562.481 1  Rx        0143 -  8    00 00 00 00 00 00 00 00 
  1254)       562.737 1  Rx        0157 -  8    00 00 00 00 50 00 00 00 
  1255)       563.206 1  Rx        002F -  8    00 00 00 00 00 D7 80 00 
  1256)       563.462 1  Rx        0087 -  8    00 00 00 00 00 66 50 FE 
  1257)       563.675 1  Rx        0035 -  8    07 DB 07 DE 00 3C D3 B3 
  1258)       563.931 1  Rx        0089 -  8    80 47 80 6D 83 7A 50 7F 
  1259)       564.145 1  Rx        008B -  8    00 00 00 00 00 00 00 00 
  1260)       564.401 1  Rx        00A7 -  8    00 00 00 9E 40 9B 50 A2 
  1261)       564.614 1  Rx        007B -  7    C7 DB 00 08 11 F0 D9 
  1262)       564.742 1  Rx        0077 -  2    04 22 
  1263)       564.998 1  Rx        00AB -  8    00 00 CD 0D 00 00 10 9C 
  1264)       565.211 1  Rx        00B3 -  8    00 00 00 00 00 00 10 C7 
  1265)       565.467 1  Rx        0025 -  8    02 E5 07 DE 07 DB D0 3A 
  1266)       565.723 1  Rx        0128 -  8    00 27 34 6C 01 88 06 3B 
  1267)       566.449 1  Rx        009D -  8    00 00 00 00 00 00 F0 75 
  1268)       566.918 1  Rx        0328 -  8    00 02 00 00 00 00 00 00 
  1269)       567.430 1  Rx        0027 -  8    8A 9D 07 DB 00 00 D2 55 
  1270)       568.326 1  Rx        002B -  8    07 E6 08 00 08 09 30 F2 
  1271)       568.624 1  Rx        0081 -  8    18 00 48 64 07 00 00 00 
  1272)       568.838 1  Rx        0023 -  8    10 12 10 00 00 00 85 8A 
  1273)       569.094 1  Rx        0318 -  8    00 00 00 00 00 00 FF 00 
  1274)       570.374 1  Rx        007D -  6    00 79 00 00 02 F8 
  1275)       571.099 1  Rx        008D -  8    C6 C0 FF FF FF FF FF FF 
  1276)       571.355 1  Rx        0037 -  8    1F FE 00 00 10 7C 30 AE 
  1277)       572.294 1  Rx        0085 -  8    20 DD 04 00 00 02 C8 04 
  1278)       572.550 1  Rx        013D -  8    00 00 34 7C 01 56 28 04 
  1279)       573.275 1  Rx        002F -  8    00 00 00 00 00 D8 80 00 
  1280)       573.531 1  Rx        0035 -  8    07 DB 07 D2 00 3C E3 2B 
  1281)       573.744 1  Rx        0071 -  8    07 DB 00 00 6D 00 60 E1 
  1282)       574.000 1  Rx        0079 -  8    80 00 00 00 00 00 60 3F 
  1283)       574.256 1  Rx        007F -  8    41 2C 00 00 00 00 FF FF 
  1284)       574.512 1  Rx        0083 -  8    80 04 00 00 00 00 60 3A 
  1285)       574.726 1  Rx        0093 -  8    80 FC 50 00 00 00 11 C9 
  1286)       574.982 1  Rx        009B -  8    2A 64 00 55 00 79 00 FF 
  1287)       575.110 1  Rx        00B1 -  3    00 E0 0C 
  1288)       575.366 1  Rx        00DD -  8    00 00 00 00 00 80 00 00 
  1289)       575.622 1  Rx        0025 -  8    02 E5 07 D2 07 DB E0 A2 
  1290)       575.835 1  Rx        0133 -  8    00 00 00 00 FF 03 0C FF 
  1291)       576.432 1  Rx        00B5 -  8    00 00 00 00 00 00 00 00 
  1292)       577.414 1  Rx        0027 -  8    8A 9D 07 DB 00 00 E2 1F 
  1293)       578.352 1  Rx        002B -  8    07 E4 07 FE 08 0A 40 B4 
  1294)       578.694 1  Rx        0023 -  8    10 12 10 00 00 00 95 47 
  1295)       579.248 1  Rx        02F2 -  8    00 00 00 00 00 AD 00 00 
  1296)       581.126 1  Rx        0091 -  8    01 FF 7F 00 00 00 20 15 
  1297)       581.382 1  Rx        0037 -  8    1F FE 00 00 10 7C 40 F7 
  1298)       581.552 1  Rx        00AD -  5    01 00 00 30 8E 
  1299)       582.235 1  Rx        0095 -  7    00 00 00 00 00 20 71 
  1300)       582.406 1  Rx        0121 -  5    40 00 66 14 00 
  1301)       583.216 1  Rx        002F -  8    00 00 00 00 00 D7 80 00 
  1302)       583.430 1  Rx        0087 -  8    00 00 00 00 00 66 60 B4 
  1303)       583.686 1  Rx        0035 -  8    07 DB 07 D2 00 3C F3 E6 
  1304)       583.899 1  Rx        0089 -  8    80 47 80 6D 83 7C 60 7F 
  1305)       584.155 1  Rx        008B -  8    00 00 00 00 00 00 00 00 
  1306)       584.411 1  Rx        00A7 -  8    00 00 00 9E 40 9C 60 11 
  1307)       584.667 1  Rx        007B -  7    C7 DB 00 08 0D 00 65 
  1308)       584.838 1  Rx        00AB -  8    00 00 CD 0D 00 00 20 D6 
  1309)       585.008 1  Rx        0077 -  2    04 22 
  1310)       585.222 1  Rx        00B3 -  8    00 00 00 00 00 00 20 8D 
  1311)       585.478 1  Rx        0025 -  8    02 E5 07 D2 07 DB F0 6F 
  1312)       586.416 1  Rx        009D -  8    00 00 00 00 00 00 00 0A 
  1313)       587.440 1  Rx        0027 -  8    8A 9D 07 DB 00 00 F2 D2 
  1314)       588.336 1  Rx        002B -  8    07 E7 07 FD 08 0A 50 09 
  1315)       588.592 1  Rx        0081 -  8    18 00 48 64 07 00 00 00 
  1316)       588.848 1  Rx        0023 -  8    10 12 10 00 00 00 A5 0D 
  1317)       590.555 1  Rx        007D -  6    00 79 00 00 02 F8 
  1318)       591.109 1  Rx        008D -  8    C6 C0 FF FF FF FF FF FF 
  1319)       591.408 1  Rx        0037 -  8    1F FE 00 00 10 7C 50 3A 
  1320)       592.261 1  Rx        0085 -  8    20 DD 04 00 00 02 C5 08 
  1321)       592.475 1  Rx        03E1 -  7    24 16 00 1C 00 FF FF 
  1322)       593.243 1  Rx        0093 -  8    80 FC 50 00 00 00 21 83 
  1323)       593.499 1  Rx        002F -  8    00 00 00 00 00 D8 80 00 
  1324)       593.755 1  Rx        0035 -  8    07 DB 07 D2 00 3C 03 99 
  1325)       593.968 1  Rx        0071 -  8    07 DB 00 00 6D 00 70 2C 
  1326)       594.224 1  Rx        0079 -  8    80 00 00 00 00 00 70 F2 
  1327)       594.480 1  Rx        007F -  8    41 2C 00 00 00 00 FF FF 
  1328)       594.736 1  Rx        0083 -  8    80 04 00 00 00 00 70 F7 
  1329)       594.949 1  Rx        009B -  8    2A 64 00 55 00 79 00 FF 
  1330)       595.120 1  Rx        00B1 -  3    00 F0 C1 
  1331)       595.333 1  Rx        012B -  8    C2 18 90 36 21 FF 8D FF 
  1332)       595.589 1  Rx        0025 -  8    02 E5 07 D2 07 DB 00 10 
  1333)       595.803 1  Rx        013F -  8    5B 58 C7 0F 01 72 00 00 
  1334)       596.229 1  Rx        0328 -  8    00 00 00 00 00 00 00 00 
  1335)       596.485 1  Rx        00B5 -  8    00 00 00 00 00 00 00 00 
  1336)       597.253 1  Rx        0129 -  4    32 00 00 00 
  1337)       597.509 1  Rx        0027 -  8    8A 87 07 DB 00 00 02 3F 
  1338)       598.363 1  Rx        002B -  8    07 E7 08 00 08 09 60 6A 
  1339)       598.704 1  Rx        0023 -  8    10 12 10 00 00 00 B5 C0 
  1340)       600.496 1  Rx        01CE -  4    8A 00 90 D5 
  1341)       601.136 1  Rx        0091 -  8    01 FF 7F 00 00 00 30 D8 
  1342)       601.392 1  Rx        0037 -  8    1F FE 00 00 10 7C 60 70 
  1343)       601.563 1  Rx        00AD -  5    01 00 00 40 D7 
  1344)       602.288 1  Rx        0095 -  7    00 00 00 00 00 30 BC 
  1345)       602.501 1  Rx        014E -  8    08 14 0A 21 DE 00 07 48 
  1346)       603.227 1  Rx        002F -  8    00 00 00 00 00 D8 80 00 
  1347)       603.440 1  Rx        0035 -  8    07 DB 07 D5 00 3C 13 A0 
  1348)       603.696 1  Rx        0087 -  8    00 00 00 00 00 66 70 79 
  1349)       603.952 1  Rx        0089 -  8    80 4F 80 6D 83 7C 70 7F 
  1350)       604.208 1  Rx        008B -  8    00 00 00 00 00 00 00 00 
  1351)       604.421 1  Rx        00A7 -  8    00 00 00 9E 40 9C 70 DC 
  1352)       604.677 1  Rx        007B -  7    C7 DB 00 08 10 10 27 
  1353)       604.763 1  Rx        0077 -  2    04 22 
  1354)       605.019 1  Rx        00AB -  8    00 00 CD 0D 00 00 30 1B 
  1355)       605.275 1  Rx        00B3 -  8    00 00 00 00 00 00 30 40 
  1356)       605.488 1  Rx        0025 -  8    02 E5 07 D5 07 DB 10 29 
  1357)       606.427 1  Rx        009D -  8    00 00 00 00 00 00 10 C7 
  1358)       607.408 1  Rx        0027 -  8    8A 87 07 DB 00 00 12 F2 
  1359)       608.347 1  Rx        002B -  8    07 E5 08 00 08 09 70 2B 
  1360)       608.603 1  Rx        0081 -  8    18 00 48 64 07 00 00 00 
  1361)       608.816 1  Rx        0023 -  8    10 12 10 00 00 00 C5 99 
  1362)       610.395 1  Rx        007D -  6    00 79 00 00 02 F8 
  1363)       611.120 1  Rx        008D -  8    C6 C0 FF FF FF FF FF FF 
  1364)       611.376 1  Rx        0037 -  8    1F FE 00 00 10 7C 70 BD 
  1365)       612.272 1  Rx        0085 -  8    20 DD 04 00 00 02 C5 0C 
  1366)       613.253 1  Rx        002F -  8    00 00 00 00 00 D7 80 00 
  1367)       613.552 1  Rx        0035 -  8    07 DB 07 D5 00 3C 23 EA 
  1368)       613.765 1  Rx        0071 -  8    07 DB 00 00 6D 00 80 53 
  1369)       613.978 1  Rx        0079 -  8    80 00 00 00 00 00 80 8D 
  1370)       614.234 1  Rx        007F -  8    41 2C 00 00 00 00 FF FF 
  1371)       614.490 1  Rx        0083 -  8    80 04 00 00 00 00 80 88 
  1372)       614.704 1  Rx        0093 -  8    80 FC 50 00 00 00 31 4E 
  1373)       614.960 1  Rx        009B -  8    2A 64 00 55 00 79 00 FF 
  1374)       615.130 1  Rx        00B1 -  3    00 00 BE 
  1375)       615.472 1  Rx        0025 -  8    02 E7 07 D5 07 DB 20 EF 
  1376)       616.453 1  Rx        00B5 -  8    00 00 00 00 00 00 00 00 
  1377)       617.434 1  Rx        0027 -  8    8A 92 07 DB 00 00 22 EF 
  1378)       618.629 1  Rx        002B -  8    07 E5 08 00 08 0A 80 80 
  1379)       618.928 1  Rx        0023 -  8    10 12 10 00 00 00 D5 54 
  1380)       621.104 1  Rx        0091 -  8    01 FF 7F 00 00 00 40 81 
  1381)       621.360 1  Rx        0037 -  8    1F FE 00 00 10 7C 80 C2 
  1382)       621.530 1  Rx        00AD -  5    01 00 00 50 1A 
  1383)       622.256 1  Rx        0095 -  7    00 00 00 00 00 40 E5 
  1384)       623.194 1  Rx        002F -  8    00 00 00 00 00 D7 80 00 
  1385)       623.450 1  Rx        0035 -  8    07 DB 07 D2 00 3C 33 D3 
  1386)       623.664 1  Rx        0087 -  8    00 00 00 00 00 66 80 06 
  1387)       623.920 1  Rx        0089 -  8    80 47 80 6D 83 7A 80 7F 
