;$FILEVERSION=1.3
;$STARTTIME=44371.3640151391
;
;   C:\Documents and Settings\jpaullus\My Documents\2018JL_A_OFF_DEPRESSED.trc
;   Start time: 6/24/2021 08:44:10.908.0
;-------------------------------------------------------------------------------
;   Bus  Name  Connection     Protocol
;   1    500k  500k@pcan_usb  CAN
;-------------------------------------------------------------------------------
;   Message Number
;   |         Time Offset (ms)
;   |         |       Bus
;   |         |       |    Type
;   |         |       |    |       ID (hex)
;   |         |       |    |       |    Reserved
;   |         |       |    |       |    |   Data Length Code
;   |         |       |    |       |    |   |    Data Bytes (hex) ...
;   |         |       |    |       |    |   |    |
;   |         |       |    |       |    |   |    |
;---+-- ------+------ +- --+-- ----+--- +- -+-- -+ -- -- -- -- -- -- --
     1)         0.409 1  Rx        009D -  8    00 00 00 00 00 00 E0 B8 
     2)         0.921 1  Rx        0037 -  8    1F FE 00 00 10 7C 10 29 
     3)         1.390 1  Rx        0027 -  8    8A 70 07 DB 00 00 B2 50 
     4)         1.902 1  Rx        0085 -  8    20 DD 04 00 00 02 79 00 
     5)         2.414 1  Rx        0081 -  8    18 00 39 64 05 00 00 00 
     6)         2.926 1  Rx        0093 -  8    80 FC 50 00 00 00 01 04 
     7)         3.225 1  Rx        002B -  8    07 E8 08 01 08 08 10 27 
     8)         3.481 1  Rx        002F -  8    00 00 00 00 00 D8 80 00 
     9)         3.694 1  Rx        0071 -  8    07 DB 00 00 6D 00 50 AB 
    10)         3.950 1  Rx        0079 -  8    80 00 00 00 00 00 50 75 
    11)         4.206 1  Rx        007F -  8    43 2F 00 00 00 00 FF FF 
    12)         4.419 1  Rx        007D -  6    00 7A 00 00 02 A0 
    13)         4.675 1  Rx        0083 -  8    80 04 00 00 00 00 50 70 
    14)         5.059 1  Rx        0023 -  8    10 12 10 00 00 00 65 38 
    15)         5.699 1  Rx        008D -  8    C6 C0 FF FF FF FF FF FF 
    16)         6.425 1  Rx        0137 -  8    00 00 00 00 00 00 01 0D 
    17)         6.638 1  Rx        014D -  8    7A 7A 91 91 03 19 05 00 
    18)         6.894 1  Rx        009B -  8    2A 63 00 55 00 79 00 FF 
    19)         7.406 1  Rx        0035 -  8    07 DB 07 D6 00 3C C3 E2 
    20)         9.411 1  Rx        0025 -  8    02 9D 07 D6 07 DB C0 0D 
    21)         9.966 1  Rx        00B1 -  3    00 D0 46 
    22)        10.435 1  Rx        00B5 -  8    00 00 00 00 00 00 00 00 
    23)        10.947 1  Rx        0037 -  8    1F FE 00 00 10 7C 20 63 
    24)        11.417 1  Rx        0027 -  8    8A 70 07 DB 00 00 C2 09 
    25)        11.587 1  Rx        00AD -  5    01 00 00 20 43 
    26)        11.929 1  Rx        0095 -  7    00 00 00 00 00 10 3B 
    27)        12.953 1  Rx        00AB -  8    00 00 CD 0D 00 00 10 9C 
    28)        13.209 1  Rx        002B -  8    07 E5 07 FF 08 0A 20 FB 
    29)        13.422 1  Rx        002F -  8    00 00 00 00 00 D8 80 00 
    30)        13.678 1  Rx        0087 -  8    00 00 00 00 00 66 50 FE 
    31)        13.934 1  Rx        0089 -  8    80 3F 80 6D 83 7A 50 7F 
    32)        14.147 1  Rx        008B -  8    00 00 00 00 00 00 00 00 
    33)        14.403 1  Rx        00A7 -  8    00 00 00 9E 40 9C 50 5B 
    34)        14.659 1  Rx        00B3 -  8    00 00 00 00 00 00 10 C7 
    35)        15.086 1  Rx        0023 -  8    10 12 10 00 00 00 75 F5 
    36)        15.641 1  Rx        0091 -  8    01 FF 7F 00 00 00 10 5F 
    37)        16.408 1  Rx        0127 -  8    5A 81 64 00 E4 80 90 00 
    38)        16.536 1  Rx        0077 -  2    04 22 
    39)        16.792 1  Rx        03E0 -  8    02 37 34 33 00 00 00 00 
    40)        17.432 1  Rx        0035 -  8    07 DB 07 D6 00 3C D3 2F 
    41)        18.371 1  Rx        007B -  7    C7 DB 00 07 FD F0 7E 
    42)        19.395 1  Rx        0025 -  8    02 9D 07 D6 07 DB D0 C0 
    43)        20.419 1  Rx        009D -  8    00 00 00 00 00 00 F0 75 
    44)        20.931 1  Rx        0037 -  8    1F FE 00 00 10 7C 30 AE 
    45)        21.400 1  Rx        0027 -  8    8A 70 07 DB 00 00 D2 C4 
    46)        21.955 1  Rx        0085 -  8    20 DD 04 00 00 02 7F 04 
    47)        22.126 1  Rx        01CE -  4    AF 00 20 00 
    48)        22.424 1  Rx        0081 -  8    18 00 39 64 05 00 00 00 
    49)        22.936 1  Rx        0093 -  8    80 FC 50 00 00 00 11 C9 
    50)        23.192 1  Rx        002B -  8    07 E7 08 01 08 08 30 65 
    51)        23.448 1  Rx        002F -  8    00 00 00 00 00 D7 80 00 
    52)        23.662 1  Rx        0071 -  8    07 DB 00 00 6D 00 60 E1 
    53)        23.918 1  Rx        0079 -  8    80 00 00 00 00 00 60 3F 
    54)        24.174 1  Rx        007F -  8    43 2F 00 00 00 00 FF FF 
    55)        24.430 1  Rx        0083 -  8    80 04 00 00 00 00 60 3A 
    56)        24.643 1  Rx        007D -  6    00 7A 00 00 02 A0 
    57)        24.771 1  Rx        0125 -  3    00 78 00 
    58)        25.027 1  Rx        0023 -  8    10 12 10 00 00 00 85 8A 
    59)        25.710 1  Rx        008D -  8    C6 C0 FF FF FF FF FF FF 
    60)        26.392 1  Rx        015B -  8    00 00 00 00 00 00 1B C8 
    61)        26.648 1  Rx        02A4 -  8    00 39 00 00 00 00 00 FF 
    62)        26.904 1  Rx        009B -  8    2A 63 00 55 00 79 00 FF 
    63)        27.416 1  Rx        0035 -  8    07 DB 07 D6 00 3C E3 65 
    64)        29.379 1  Rx        0025 -  8    02 A1 07 D6 07 DB E0 B9 
    65)        29.976 1  Rx        00B1 -  3    00 E0 0C 
    66)        30.403 1  Rx        00B5 -  8    00 00 00 00 00 00 00 00 
    67)        30.958 1  Rx        0037 -  8    1F FE 00 00 10 7C 40 F7 
    68)        31.427 1  Rx        0027 -  8    8A 75 07 DB 00 00 E2 CD 
    69)        31.598 1  Rx        00AD -  5    01 00 00 30 8E 
    70)        31.939 1  Rx        0095 -  7    00 00 00 00 00 20 71 
    71)        32.920 1  Rx        00AB -  8    00 00 CD 0D 00 00 20 D6 
    72)        33.219 1  Rx        002B -  8    07 E2 08 00 08 0A 40 7A 
    73)        33.432 1  Rx        002F -  8    00 00 00 00 00 D7 80 00 
    74)        33.688 1  Rx        0087 -  8    00 00 00 00 00 66 60 B4 
    75)        33.902 1  Rx        0089 -  8    80 4F 80 6D 83 7A 60 7F 
    76)        34.158 1  Rx        008B -  8    00 00 00 00 00 00 00 00 
    77)        34.414 1  Rx        00A7 -  8    00 00 00 9E 40 9C 60 11 
    78)        34.627 1  Rx        00B3 -  8    00 00 00 00 00 00 20 8D 
    79)        35.054 1  Rx        0023 -  8    10 12 10 00 00 00 95 47 
    80)        35.651 1  Rx        0091 -  8    01 FF 7F 00 00 00 20 15 
    81)        35.907 1  Rx        0277 -  8    00 00 4C 00 00 00 C0 00 
    82)        36.419 1  Rx        0157 -  8    00 00 00 00 50 00 00 00 
    83)        36.547 1  Rx        0077 -  2    04 22 
    84)        36.803 1  Rx        0143 -  8    00 00 00 00 00 00 00 00 
    85)        37.059 1  Rx        0409 -  8    FD 23 BF FF FF FF FF FF 
    86)        37.443 1  Rx        0035 -  8    07 DB 07 D9 00 3C F3 C0 
    87)        38.381 1  Rx        007B -  7    C7 DB 00 08 00 00 5E 
    88)        39.405 1  Rx        0025 -  8    02 A1 07 D9 07 DB F0 1C 
    89)        40.429 1  Rx        009D -  8    00 00 00 00 00 00 00 0A 
    90)        40.899 1  Rx        0037 -  8    1F FE 00 00 10 7C 50 3A 
    91)        41.411 1  Rx        0027 -  8    8A 75 07 DB 00 00 F2 00 
    92)        41.923 1  Rx        0085 -  8    20 DD 04 00 00 02 7D 08 
    93)        42.435 1  Rx        0081 -  8    18 00 39 64 05 00 00 00 
    94)        42.648 1  Rx        01D0 -  8    40 23 75 03 00 07 00 00 
    95)        42.904 1  Rx        0093 -  8    80 FC 50 00 00 00 21 83 
    96)        43.245 1  Rx        002B -  8    07 E1 07 FD 08 08 50 18 
    97)        43.501 1  Rx        002F -  8    00 00 00 00 00 D8 80 00 
    98)        43.715 1  Rx        0071 -  8    07 DB 00 00 6D 00 70 2C 
    99)        43.971 1  Rx        0079 -  8    80 00 00 00 00 00 70 F2 
   100)        44.227 1  Rx        007F -  8    43 2F 00 00 00 00 FF FF 
   101)        44.440 1  Rx        007D -  6    00 7A 00 00 02 A0 
   102)        44.653 1  Rx        0083 -  8    80 04 00 00 00 00 70 F7 
   103)        44.909 1  Rx        00DD -  8    00 00 00 00 00 80 00 00 
   104)        45.165 1  Rx        0023 -  8    10 12 10 00 00 00 A5 0D 
   105)        45.421 1  Rx        01A1 -  8    00 00 80 00 00 00 00 00 
   106)        45.635 1  Rx        0318 -  8    00 00 00 00 00 00 FF 00 
   107)        45.891 1  Rx        008D -  8    C6 C0 FF FF FF FF FF FF 
   108)        46.403 1  Rx        013D -  8    00 00 33 7C 01 2C 28 04 
   109)        46.659 1  Rx        0257 -  8    FF 0F 00 36 36 36 00 00 
   110)        46.872 1  Rx        009B -  8    2A 63 00 55 00 79 00 FF 
   111)        47.171 1  Rx        0133 -  8    00 00 00 00 FF 03 0C FF 
   112)        47.427 1  Rx        0035 -  8    07 DB 07 D9 00 3C 03 BF 
   113)        49.389 1  Rx        0025 -  8    02 A1 07 D9 07 DB 00 63 
   114)        49.987 1  Rx        00B1 -  3    00 F0 C1 
   115)        50.413 1  Rx        00B5 -  8    00 00 00 00 00 00 00 00 
   116)        50.883 1  Rx        0037 -  8    1F FE 00 00 10 7C 60 70 
   117)        51.437 1  Rx        0027 -  8    8A 75 07 DB 00 00 02 7F 
   118)        51.608 1  Rx        00AD -  5    01 00 00 40 D7 
   119)        51.907 1  Rx        0095 -  7    00 00 00 00 00 30 BC 
   120)        52.120 1  Rx        02F2 -  8    00 00 00 00 00 AD 00 00 
   121)        52.888 1  Rx        00AB -  8    00 00 CD 0D 00 00 30 1B 
   122)        53.229 1  Rx        002F -  8    00 00 00 00 00 D7 80 00 
   123)        53.485 1  Rx        0087 -  8    00 00 00 00 00 66 70 79 
   124)        53.699 1  Rx        002B -  8    07 E9 08 00 08 08 60 A5 
   125)        53.955 1  Rx        0089 -  8    80 4F 80 6D 83 7A 70 7F 
   126)        54.211 1  Rx        008B -  8    00 00 00 00 00 00 00 00 
   127)        54.424 1  Rx        00A7 -  8    00 00 00 9E 40 9B 70 25 
   128)        54.680 1  Rx        00B3 -  8    00 00 00 00 00 00 30 40 
   129)        55.064 1  Rx        0023 -  8    10 12 10 00 00 00 B5 C0 
   130)        55.661 1  Rx        0091 -  8    01 FF 7F 00 00 00 30 D8 
   131)        56.344 1  Rx        0121 -  5    40 00 51 14 00 
   132)        56.600 1  Rx        0077 -  2    04 22 
   133)        57.411 1  Rx        0035 -  8    07 DB 07 D9 00 3C 13 72 
   134)        58.392 1  Rx        007B -  7    C7 DB 00 08 00 10 93 
   135)        59.416 1  Rx        0025 -  8    02 A3 07 D9 07 DB 10 22 
   136)        60.397 1  Rx        009D -  8    00 00 00 00 00 00 10 C7 
   137)        60.909 1  Rx        0037 -  8    1F FE 00 00 10 7C 70 BD 
   138)        61.421 1  Rx        0027 -  8    8A 6E 07 DB 00 00 12 66 
   139)        61.890 1  Rx        0085 -  8    20 DD 04 00 00 02 83 0C 
   140)        62.402 1  Rx        0081 -  8    18 00 39 64 05 00 00 00 
   141)        62.658 1  Rx        01D0 -  8    40 23 75 03 00 07 00 00 
   142)        62.914 1  Rx        0093 -  8    80 FC 50 00 00 00 31 4E 
   143)        63.170 1  Rx        002B -  8    07 E8 08 02 08 08 70 09 
   144)        63.426 1  Rx        002F -  8    00 00 00 00 00 D7 80 00 
   145)        63.682 1  Rx        0071 -  8    07 DB 00 00 6D 00 80 53 
   146)        63.938 1  Rx        0079 -  8    80 00 00 00 00 00 80 8D 
   147)        64.152 1  Rx        007F -  8    43 2F 00 00 00 00 FF FF 
   148)        64.408 1  Rx        0083 -  8    80 04 00 00 00 00 80 88 
   149)        64.621 1  Rx        007D -  6    00 7A 00 00 02 A0 
   150)        65.090 1  Rx        0023 -  8    10 12 10 00 00 00 C5 99 
   151)        65.688 1  Rx        008D -  8    C6 C0 FF FF FF FF FF FF 
   152)        66.413 1  Rx        03E1 -  7    24 16 00 1C 00 FF FF 
   153)        66.754 1  Rx        009B -  8    2A 65 00 55 00 79 00 FF 
   154)        66.968 1  Rx        012B -  8    9E 18 90 59 21 FF 8E FF 
   155)        67.224 1  Rx        013F -  8    5B 58 C4 32 01 74 00 00 
   156)        67.480 1  Rx        0035 -  8    07 DB 07 D6 00 3C 23 50 
   157)        68.077 1  Rx        0129 -  4    32 00 00 00 
   158)        69.400 1  Rx        0025 -  8    02 A3 07 D6 07 DB 20 00 
   159)        69.997 1  Rx        00B1 -  3    00 00 BE 
   160)        70.424 1  Rx        00B5 -  8    00 00 00 00 00 00 00 00 
   161)        70.936 1  Rx        0037 -  8    1F FE 00 00 10 7C 80 C2 
   162)        71.405 1  Rx        0027 -  8    8A 6E 07 DB 00 00 22 2C 
   163)        71.618 1  Rx        00AD -  5    01 00 00 50 1A 
   164)        71.917 1  Rx        0095 -  7    00 00 00 00 00 40 E5 
   165)        72.088 1  Rx        01CE -  4    AF 00 30 CD 
   166)        72.941 1  Rx        00AB -  8    00 00 CD 0D 00 00 40 42 
   167)        73.197 1  Rx        002B -  8    07 E4 08 00 08 09 80 12 
   168)        73.453 1  Rx        002F -  8    00 00 00 00 00 D7 80 00 
   169)        73.666 1  Rx        0087 -  8    00 00 00 00 00 66 80 06 
   170)        73.922 1  Rx        0089 -  8    80 3F 80 6D 83 7A 80 7F 
   171)        74.178 1  Rx        008B -  8    00 00 00 00 00 00 00 00 
   172)        74.392 1  Rx        00A7 -  8    00 00 00 9E 40 9B 80 5A 
   173)        74.648 1  Rx        00B3 -  8    00 00 00 00 00 00 40 19 
   174)        75.032 1  Rx        0023 -  8    10 12 10 00 00 00 D5 54 
   175)        75.672 1  Rx        0091 -  8    01 FF 7F 00 00 00 40 81 
   176)        76.397 1  Rx        014E -  8    08 14 0A 1E E1 00 05 39 
   177)        76.610 1  Rx        0077 -  2    04 22 
   178)        77.421 1  Rx        0035 -  8    07 DB 07 D6 00 3C 33 9D 
   179)        78.146 1  Rx        01C0 -  6    00 00 00 00 00 00 
   180)        78.402 1  Rx        007B -  7    C7 DB 00 08 00 20 D9 
   181)        79.426 1  Rx        0025 -  8    02 A1 07 D6 07 DB 30 41 
   182)        80.407 1  Rx        009D -  8    00 00 00 00 00 00 20 8D 
   183)        80.919 1  Rx        0037 -  8    1F FE 00 00 10 7C 90 0F 
   184)        81.431 1  Rx        0027 -  8    8A 6E 07 DB 00 00 32 E1 
   185)        81.901 1  Rx        0085 -  8    20 DD 04 00 00 02 7F 10 
   186)        82.413 1  Rx        0081 -  8    18 00 39 64 05 00 00 00 
   187)        82.925 1  Rx        0093 -  8    80 FC 50 00 00 00 41 17 
   188)        83.266 1  Rx        002F -  8    00 00 00 00 00 D7 80 00 
   189)        83.479 1  Rx        002B -  8    07 E6 08 00 08 08 90 1F 
   190)        83.735 1  Rx        0071 -  8    07 DB 00 00 6D 00 90 9E 
   191)        83.991 1  Rx        0079 -  8    80 00 00 00 00 00 90 40 
   192)        84.205 1  Rx        007F -  8    43 2F 00 00 00 00 FF FF 
   193)        84.418 1  Rx        007D -  6    00 7A 00 00 02 A0 
   194)        84.674 1  Rx        0083 -  8    80 04 00 00 00 00 90 45 
   195)        85.058 1  Rx        0023 -  8    10 12 10 00 00 00 E5 1E 
   196)        85.698 1  Rx        008D -  8    C6 C0 FF FF FF FF FF FF 
   197)        86.679 1  Rx        009B -  8    2A 65 00 55 00 79 00 FF 
   198)        87.405 1  Rx        0035 -  8    07 DB 07 D6 00 3C 43 C4 
   199)        87.661 1  Rx        0128 -  8    00 28 34 6C 01 84 06 41 
   200)        89.410 1  Rx        0025 -  8    02 A1 07 D6 07 DB 40 18 
   201)        89.965 1  Rx        00B1 -  3    00 10 73 
   202)        90.434 1  Rx        00B5 -  8    00 00 00 00 00 00 00 00 
   203)        90.946 1  Rx        0037 -  8    1F FE 00 00 10 7C A0 45 
   204)        91.415 1  Rx        0027 -  8    8A 6B 07 DB 00 00 42 FB 
   205)        91.629 1  Rx        00AD -  5    01 00 00 60 50 
   206)        91.927 1  Rx        0095 -  7    00 00 00 00 00 50 28 
   207)        92.951 1  Rx        00AB -  8    00 00 CD 0D 00 00 50 8F 
   208)        93.207 1  Rx        002F -  8    00 00 00 00 00 D7 80 00 
   209)        93.463 1  Rx        002B -  8    07 E1 08 00 08 07 A0 39 
   210)        93.719 1  Rx        0087 -  8    00 00 00 00 00 66 90 CB 
   211)        93.933 1  Rx        0089 -  8    80 47 80 6D 83 7A 90 7F 
   212)        94.189 1  Rx        008B -  8    00 00 00 00 00 00 00 00 
   213)        94.402 1  Rx        00A7 -  8    00 00 00 9E 40 9C 90 6E 
   214)        94.658 1  Rx        00B3 -  8    00 00 00 00 00 00 50 D4 
   215)        94.914 1  Rx        00DD -  8    00 00 00 00 00 80 00 00 
   216)        95.170 1  Rx        0023 -  8    10 12 10 00 00 00 F5 D3 
   217)        95.682 1  Rx        0091 -  8    01 FF 7F 00 00 00 50 4C 
   218)        96.578 1  Rx        0077 -  2    04 22 
   219)        97.431 1  Rx        0035 -  8    07 DB 07 DB 00 3C 53 46 
   220)        98.413 1  Rx        007B -  7    C7 DB 00 08 02 30 8C 
   221)        99.394 1  Rx        0025 -  8    02 A1 07 DB 07 DB 50 9A 
   222)       100.418 1  Rx        009D -  8    00 00 00 00 00 00 30 40 
   223)       100.930 1  Rx        0037 -  8    1F FE 00 00 10 7C B0 88 
   224)       101.442 1  Rx        0027 -  8    8A 6B 07 DB 00 00 52 36 
   225)       101.911 1  Rx        0085 -  8    20 DD 04 00 00 02 81 14 
   226)       102.423 1  Rx        0081 -  8    18 00 39 64 05 00 00 00 
   227)       102.935 1  Rx        0093 -  8    80 FC 50 00 00 00 51 DA 
   228)       103.191 1  Rx        002B -  8    07 E2 07 FE 08 08 B0 DA 
   229)       103.447 1  Rx        002F -  8    00 00 00 00 00 D7 80 00 
   230)       103.703 1  Rx        0071 -  8    07 DB 00 00 6D 00 A0 D4 
   231)       103.916 1  Rx        0079 -  8    80 00 00 00 00 00 A0 0A 
   232)       104.172 1  Rx        007F -  8    43 2F 00 00 00 00 FF FF 
   233)       104.428 1  Rx        0083 -  8    80 04 00 00 00 00 A0 0F 
   234)       104.642 1  Rx        007D -  6    00 7A 00 00 02 A0 
   235)       105.068 1  Rx        0023 -  8    10 12 10 00 00 00 05 AC 
   236)       105.708 1  Rx        008D -  8    C6 C0 FF FF FF FF FF FF 
   237)       106.434 1  Rx        0137 -  8    00 00 00 00 00 00 01 0D 
   238)       106.647 1  Rx        014D -  8    7A 7A 91 92 03 1C 05 00 
   239)       106.903 1  Rx        009B -  8    2A 65 00 55 00 79 00 FF 
   240)       107.415 1  Rx        0035 -  8    07 DB 07 DB 00 3C 63 0C 
   241)       109.420 1  Rx        0025 -  8    02 A1 07 DB 07 DB 60 D0 
   242)       109.975 1  Rx        00B1 -  3    00 20 39 
   243)       110.444 1  Rx        00B5 -  8    00 00 00 00 00 00 00 00 
   244)       110.914 1  Rx        0037 -  8    1F FE 00 00 10 7C C0 D1 
   245)       111.426 1  Rx        0027 -  8    8A 6B 07 DB 00 00 62 7C 
   246)       111.596 1  Rx        00AD -  5    01 00 00 70 9D 
   247)       111.895 1  Rx        0095 -  7    00 00 00 00 00 60 62 
   248)       112.919 1  Rx        00AB -  8    00 00 CD 0D 00 00 60 C5 
   249)       113.218 1  Rx        002B -  8    07 EA 08 00 08 07 C0 6D 
   250)       113.431 1  Rx        002F -  8    00 00 00 00 00 D7 80 00 
   251)       113.687 1  Rx        0087 -  8    00 00 00 00 00 66 A0 81 
   252)       113.900 1  Rx        0089 -  8    80 37 80 6D 84 7A A0 7F 
   253)       114.156 1  Rx        008B -  8    00 00 00 00 00 00 00 00 
   254)       114.412 1  Rx        00A7 -  8    00 00 00 9E 40 9C A0 24 
   255)       114.668 1  Rx        00B3 -  8    00 00 00 00 00 00 60 9E 
   256)       115.052 1  Rx        0023 -  8    10 12 10 00 00 00 15 61 
   257)       115.650 1  Rx        0091 -  8    01 FF 7F 00 00 00 60 06 
   258)       116.418 1  Rx        0127 -  8    5A 81 64 00 E4 80 90 00 
   259)       116.546 1  Rx        0077 -  2    04 22 
   260)       116.802 1  Rx        03E0 -  8    00 31 43 34 47 4A 58 41 
   261)       117.442 1  Rx        0035 -  8    07 DB 07 DB 00 3C 73 C1 
   262)       118.380 1  Rx        007B -  7    C7 DB 00 08 02 40 D5 
   263)       119.404 1  Rx        0025 -  8    02 9E 07 DB 07 DB 70 E4 
   264)       120.172 1  Rx        0423 -  8    FD 00 04 0F 08 00 00 00 
   265)       120.428 1  Rx        009D -  8    00 00 00 00 00 00 40 19 
   266)       120.940 1  Rx        0037 -  8    1F FE 00 00 10 7C D0 1C 
   267)       121.410 1  Rx        0027 -  8    8A 71 07 DB 00 00 72 23 
   268)       121.922 1  Rx        0085 -  8    20 DD 04 00 00 02 7E 18 
   269)       122.092 1  Rx        01CE -  4    AF 00 40 94 
   270)       122.434 1  Rx        0081 -  8    18 00 39 64 05 00 00 00 
   271)       122.903 1  Rx        0093 -  8    80 FC 50 00 00 00 61 90 
   272)       123.201 1  Rx        002B -  8    07 E8 08 00 08 08 D0 8F 
   273)       123.457 1  Rx        002F -  8    00 00 00 00 00 D7 80 00 
   274)       123.671 1  Rx        0071 -  8    07 DB 00 00 6D 00 B0 19 
   275)       123.927 1  Rx        0079 -  8    80 00 00 00 00 00 B0 C7 
   276)       124.183 1  Rx        007F -  8    43 2F 00 00 00 00 FF FF 
   277)       124.396 1  Rx        0083 -  8    80 04 00 00 00 00 B0 C2 
   278)       124.609 1  Rx        007D -  6    00 7A 00 00 02 A0 
   279)       124.780 1  Rx        0125 -  3    00 78 00 
   280)       125.079 1  Rx        0023 -  8    10 12 10 00 00 00 25 2B 
   281)       125.719 1  Rx        008D -  8    C6 C0 FF FF FF FF FF FF 
   282)       126.401 1  Rx        015B -  8    00 00 00 00 00 00 1B C8 
   283)       126.657 1  Rx        02A4 -  8    00 39 00 00 00 00 00 FF 
   284)       126.913 1  Rx        009B -  8    2A 65 00 55 00 79 00 FF 
   285)       127.425 1  Rx        0035 -  8    07 DB 07 D8 00 3C 83 04 
   286)       129.473 1  Rx        0025 -  8    02 9E 07 D8 07 DB 80 21 
   287)       129.985 1  Rx        00B1 -  3    00 30 F4 
   288)       130.412 1  Rx        00B5 -  8    00 00 00 00 00 00 00 00 
   289)       130.924 1  Rx        0037 -  8    1F FE 00 00 10 7C E0 56 
   290)       131.436 1  Rx        0027 -  8    8A 71 07 DB 00 00 82 5C 
   291)       131.607 1  Rx        00AD -  5    01 00 00 80 E2 
   292)       131.905 1  Rx        0095 -  7    00 00 00 00 00 70 AF 
   293)       132.119 1  Rx        03C7 -  4    01 00 70 27 
   294)       132.716 1  Rx        0259 -  8    03 00 00 00 00 00 20 6A 
   295)       132.972 1  Rx        00AB -  8    00 00 CD 0D 00 00 70 08 
   296)       133.228 1  Rx        002B -  8    07 E5 07 FE 08 0A E0 53 
   297)       133.441 1  Rx        002F -  8    00 00 00 00 00 D7 80 00 
   298)       133.697 1  Rx        0087 -  8    00 00 00 00 00 65 B0 98 
   299)       133.953 1  Rx        0089 -  8    80 37 80 6D 83 7A B0 7F 
   300)       134.167 1  Rx        008B -  8    00 00 00 00 00 00 00 00 
   301)       134.423 1  Rx        00A7 -  8    00 00 00 9E 40 9B B0 10 
   302)       134.679 1  Rx        00B3 -  8    00 00 00 00 00 00 70 53 
   303)       135.063 1  Rx        0023 -  8    10 12 10 00 00 00 35 E6 
   304)       135.660 1  Rx        0091 -  8    01 FF 7F 00 00 00 70 CB 
   305)       136.428 1  Rx        0157 -  8    00 00 00 00 50 00 00 00 
   306)       136.556 1  Rx        0077 -  2    04 22 
   307)       136.812 1  Rx        0143 -  8    00 00 00 00 00 00 00 00 
   308)       137.409 1  Rx        0035 -  8    07 DB 07 D8 00 3C 93 C9 
   309)       138.391 1  Rx        007B -  7    C7 DB 00 07 FF 50 47 
   310)       139.415 1  Rx        0025 -  8    02 A3 07 D8 07 DB 90 99 
   311)       140.396 1  Rx        009D -  8    00 00 00 00 00 00 50 D4 
   312)       140.951 1  Rx        0037 -  8    1F FE 00 00 10 7C F0 9B 
   313)       141.761 1  Rx        0027 -  8    8A 70 07 DB 00 00 92 D7 
   314)       142.017 1  Rx        0085 -  8    20 DD 04 00 00 02 80 1C 
   315)       142.444 1  Rx        0081 -  8    18 00 39 64 05 00 00 00 
   316)       142.956 1  Rx        0093 -  8    80 FC 50 00 00 00 71 5D 
   317)       143.212 1  Rx        002B -  8    07 E6 08 00 08 09 F0 C7 
   318)       143.468 1  Rx        002F -  8    00 00 00 00 00 D7 80 00 
   319)       143.681 1  Rx        0071 -  8    07 DB 00 00 6D 00 C0 40 
   320)       143.937 1  Rx        0079 -  8    80 00 00 00 00 00 C0 9E 
   321)       144.193 1  Rx        007F -  8    43 2F 00 00 00 00 FF FF 
   322)       144.406 1  Rx        0083 -  8    80 04 00 00 00 00 C0 9B 
   323)       144.662 1  Rx        00DD -  8    00 00 00 00 00 80 00 00 
   324)       144.876 1  Rx        007D -  6    00 7A 00 00 02 A0 
   325)       145.132 1  Rx        0023 -  8    10 12 10 00 00 00 45 BF 
   326)       145.516 1  Rx        0318 -  8    00 00 00 00 00 00 FF 00 
   327)       145.814 1  Rx        008D -  8    C6 C0 FF FF FF FF FF FF 
   328)       146.412 1  Rx        013D -  8    00 00 33 7C 00 DC 28 04 
   329)       146.796 1  Rx        009B -  8    2A 65 00 55 00 79 00 FF 
   330)       147.094 1  Rx        0133 -  8    00 00 00 00 FF 03 0C FF 
   331)       147.436 1  Rx        0035 -  8    07 DB 07 D8 00 3C A3 83 
   332)       149.398 1  Rx        0025 -  8    02 A3 07 D8 07 DB A0 D3 
   333)       149.996 1  Rx        00B1 -  3    00 40 AD 
   334)       150.422 1  Rx        00B5 -  8    00 00 00 00 00 00 00 00 
   335)       150.934 1  Rx        0037 -  8    1F FE 00 00 10 7C 00 E4 
   336)       151.404 1  Rx        0027 -  8    8A 70 07 DB 00 00 A2 9D 
   337)       151.617 1  Rx        00AD -  5    01 00 00 90 2F 
   338)       151.916 1  Rx        0095 -  7    00 00 00 00 00 80 D0 
   339)       152.172 1  Rx        02F2 -  8    00 00 00 00 00 AD 00 00 
   340)       152.940 1  Rx        00AB -  8    00 00 CD 0D 00 00 80 77 
   341)       153.196 1  Rx        002B -  8    07 E1 08 00 08 07 00 98 
   342)       153.452 1  Rx        002F -  8    00 00 00 00 00 D8 80 00 
   343)       153.708 1  Rx        0087 -  8    00 00 00 00 00 65 C0 C1 
   344)       153.921 1  Rx        0089 -  8    80 4F 80 6D 83 7A C0 7F 
   345)       154.177 1  Rx        008B -  8    00 00 00 00 00 00 00 00 
   346)       154.433 1  Rx        00A7 -  8    00 00 00 9E 40 9B C0 49 
   347)       154.646 1  Rx        00B3 -  8    00 00 00 00 00 00 80 2C 
   348)       155.116 1  Rx        0023 -  8    10 12 10 00 00 00 55 72 
   349)       155.670 1  Rx        0091 -  8    01 FF 7F 00 00 00 80 B4 
   350)       156.353 1  Rx        0121 -  5    40 00 51 14 00 
   351)       156.566 1  Rx        0077 -  2    04 22 
   352)       157.420 1  Rx        0035 -  8    07 DB 07 D3 00 3C B3 68 
   353)       158.401 1  Rx        007B -  7    C7 DB 00 07 FC 60 D9 
   354)       159.425 1  Rx        0025 -  8    02 A3 07 D3 07 DB B0 38 
   355)       160.406 1  Rx        009D -  8    00 00 00 00 00 00 60 9E 
   356)       160.961 1  Rx        0037 -  8    1F FE 00 00 10 7C 10 29 
   357)       161.430 1  Rx        0027 -  8    8A 70 07 DB 00 00 B2 50 
   358)       161.985 1  Rx        0085 -  8    20 DD 04 00 00 02 82 20 
   359)       162.412 1  Rx        0081 -  8    18 00 39 64 05 00 00 00 
   360)       162.966 1  Rx        0093 -  8    80 FC 50 00 00 00 81 22 
   361)       163.222 1  Rx        002B -  8    07 E2 07 FD 08 08 10 C1 
   362)       163.436 1  Rx        002F -  8    00 00 00 00 00 D8 80 00 
   363)       163.692 1  Rx        0071 -  8    07 DB 00 00 6D 00 D0 8D 
   364)       163.948 1  Rx        0079 -  8    80 00 00 00 00 00 D0 53 
   365)       164.204 1  Rx        007F -  8    43 2F 00 00 00 00 FF FF 
   366)       164.417 1  Rx        0083 -  8    80 04 00 00 00 00 D0 56 
   367)       164.630 1  Rx        007D -  6    00 7A 00 00 02 A0 
   368)       165.057 1  Rx        0023 -  8    10 12 10 00 00 00 65 38 
   369)       165.697 1  Rx        008D -  8    C6 C0 FF FF FF FF FF FF 
   370)       166.422 1  Rx        03E1 -  7    24 16 00 1C 00 FF FF 
   371)       166.806 1  Rx        009B -  8    2A 62 00 55 00 79 00 FF 
   372)       166.977 1  Rx        012B -  8    9E 18 90 5A 21 FF 8E FF 
   373)       167.233 1  Rx        013F -  8    5B 58 C4 3B 01 75 00 00 
   374)       167.489 1  Rx        0035 -  8    07 DB 07 D3 00 3C C3 31 
   375)       167.830 1  Rx        0328 -  8    40 41 00 53 00 58 00 4D 
   376)       168.086 1  Rx        0129 -  4    32 00 00 00 
   377)       169.409 1  Rx        0025 -  8    02 9E 07 D3 07 DB C0 14 
   378)       170.006 1  Rx        00B1 -  3    00 50 60 
   379)       170.433 1  Rx        00B5 -  8    00 00 00 00 00 00 00 00 
   380)       170.945 1  Rx        0037 -  8    1F FE 00 00 10 7C 20 63 
   381)       171.499 1  Rx        00AD -  5    01 00 00 A0 65 
   382)       171.755 1  Rx        0027 -  8    8A 6F 07 DB 00 00 C2 D8 
   383)       171.969 1  Rx        0095 -  7    00 00 00 00 00 90 1D 
   384)       172.139 1  Rx        01CE -  4    AF 00 50 59 
   385)       172.950 1  Rx        00AB -  8    00 00 CD 0D 00 00 90 BA 
   386)       173.249 1  Rx        002F -  8    00 00 00 00 00 D7 80 00 
   387)       173.505 1  Rx        002B -  8    07 EA 08 00 08 08 20 7C 
   388)       173.718 1  Rx        0087 -  8    00 00 00 00 00 65 D0 0C 
   389)       173.974 1  Rx        0089 -  8    80 37 80 6D 83 7A D0 7F 
   390)       174.230 1  Rx        008B -  8    00 00 00 00 00 00 00 00 
   391)       174.443 1  Rx        00A7 -  8    00 00 00 9E 40 9B D0 84 
   392)       174.699 1  Rx        00B3 -  8    00 00 00 00 00 00 90 E1 
   393)       175.126 1  Rx        0023 -  8    10 12 10 00 00 00 75 F5 
   394)       175.681 1  Rx        0091 -  8    01 FF 7F 00 00 00 90 79 
   395)       176.406 1  Rx        014E -  8    08 14 0A 1E E1 00 05 39 
   396)       176.534 1  Rx        0077 -  2    04 22 
   397)       177.430 1  Rx        0035 -  8    07 DB 07 D3 00 3C D3 FC 
   398)       178.411 1  Rx        007B -  7    C7 DB 00 07 FC 70 14 
   399)       179.393 1  Rx        0025 -  8    02 9E 07 D3 07 DB D0 D9 
   400)       180.417 1  Rx        009D -  8    00 00 00 00 00 00 70 53 
   401)       180.929 1  Rx        0037 -  8    1F FE 00 00 10 7C 30 AE 
   402)       181.441 1  Rx        0027 -  8    8A 6F 07 DB 00 00 D2 15 
   403)       181.953 1  Rx        0085 -  8    20 DD 04 00 00 02 7E 24 
   404)       182.422 1  Rx        0081 -  8    18 00 39 64 05 00 00 00 
   405)       182.934 1  Rx        0093 -  8    80 FC 50 00 00 00 91 EF 
   406)       183.190 1  Rx        002B -  8    07 E7 08 01 08 08 30 65 
   407)       183.446 1  Rx        002F -  8    00 00 00 00 00 D7 80 00 
   408)       183.702 1  Rx        0071 -  8    07 DB 00 00 6D 00 E0 C7 
   409)       183.915 1  Rx        0079 -  8    80 00 00 00 00 00 E0 19 
   410)       184.171 1  Rx        007F -  8    43 2F 00 00 00 00 FF FF 
   411)       184.427 1  Rx        0083 -  8    80 04 00 00 00 00 E0 1C 
   412)       184.641 1  Rx        007D -  6    00 7A 00 00 02 A0 
   413)       185.067 1  Rx        0023 -  8    10 12 10 00 00 00 85 8A 
   414)       185.707 1  Rx        008D -  8    C6 C0 FF FF FF FF FF FF 
   415)       186.774 1  Rx        009B -  8    2A 62 00 55 00 79 00 FF 
   416)       187.414 1  Rx        0035 -  8    07 DB 07 D6 00 3C E3 65 
   417)       187.670 1  Rx        0128 -  8    00 28 34 6C 01 84 06 3D 
   418)       189.419 1  Rx        0025 -  8    02 9E 07 D6 07 DB E0 40 
   419)       189.974 1  Rx        00B1 -  3    00 60 2A 
   420)       190.443 1  Rx        00B5 -  8    00 00 00 00 00 00 00 00 
   421)       190.912 1  Rx        0037 -  8    1F FE 00 00 10 7C 40 F7 
   422)       191.424 1  Rx        0027 -  8    8A 6F 07 DB 00 00 E2 5F 
   423)       191.595 1  Rx        00AD -  5    01 00 00 B0 A8 
   424)       191.894 1  Rx        0095 -  7    00 00 00 00 00 A0 57 
   425)       192.918 1  Rx        00AB -  8    00 00 CD 0D 00 00 A0 F0 
   426)       193.216 1  Rx        002F -  8    00 00 00 00 00 D8 80 00 
   427)       193.472 1  Rx        002B -  8    07 E6 07 FF 08 08 40 3D 
   428)       193.686 1  Rx        0087 -  8    00 00 00 00 00 65 E0 46 
   429)       193.942 1  Rx        0089 -  8    80 3F 80 6D 83 7A E0 7F 
   430)       194.198 1  Rx        008B -  8    00 00 00 00 00 00 00 00 
   431)       194.411 1  Rx        00A7 -  8    00 00 00 9E 40 9C E0 37 
   432)       194.667 1  Rx        00B3 -  8    00 00 00 00 00 00 A0 AB 
   433)       194.923 1  Rx        00DD -  8    00 00 00 00 00 80 00 00 
   434)       195.179 1  Rx        0023 -  8    10 12 10 00 00 00 95 47 
   435)       195.691 1  Rx        0091 -  8    01 FF 7F 00 00 00 A0 33 
   436)       196.416 1  Rx        0279 -  8    0C C2 4D 00 46 00 00 00 
   437)       196.587 1  Rx        0077 -  2    04 22 
   438)       197.440 1  Rx        0035 -  8    07 DB 07 D6 00 3C F3 A8 
   439)       197.867 1  Rx        0328 -  8    30 01 00 20 00 48 00 61 
   440)       198.379 1  Rx        007B -  7    C7 DB 00 07 FD 80 27 
   441)       199.403 1  Rx        0025 -  8    02 A3 07 D6 07 DB F0 F8 
   442)       200.427 1  Rx        009D -  8    00 00 00 00 00 00 80 2C 
   443)       200.939 1  Rx        0037 -  8    1F FE 00 00 10 7C 50 3A 
   444)       201.408 1  Rx        0027 -  8    8A 74 07 DB 00 00 F2 46 
   445)       201.963 1  Rx        0085 -  8    20 DD 04 00 00 02 81 28 
   446)       202.432 1  Rx        0081 -  8    18 00 39 64 05 00 00 00 
   447)       202.944 1  Rx        0093 -  8    80 FC 50 00 00 00 A1 A5 
   448)       203.243 1  Rx        002B -  8    07 E6 08 01 08 09 50 FB 
   449)       203.456 1  Rx        002F -  8    00 00 00 00 00 D8 80 00 
   450)       203.712 1  Rx        0071 -  8    07 DB 00 00 6D 00 F0 0A 
   451)       203.926 1  Rx        0079 -  8    80 00 00 00 00 00 F0 D4 
   452)       204.182 1  Rx        007F -  8    43 2F 00 00 00 00 FF FF 
   453)       204.438 1  Rx        0083 -  8    80 04 00 00 00 00 F0 D1 
   454)       204.651 1  Rx        007D -  6    00 7A 00 00 02 A0 
   455)       205.078 1  Rx        0023 -  8    10 12 10 00 00 00 A5 0D 
   456)       205.718 1  Rx        008D -  8    C6 C0 FF FF FF FF FF FF 
   457)       206.443 1  Rx        0137 -  8    00 00 00 00 00 00 01 0D 
   458)       206.656 1  Rx        014D -  8    7A 7A 91 92 03 1B 05 00 
   459)       206.912 1  Rx        009B -  8    2A 62 00 55 00 79 00 FF 
   460)       207.424 1  Rx        0035 -  8    07 DB 07 D6 00 3C 03 D7 
   461)       209.429 1  Rx        0025 -  8    02 A3 07 D6 07 DB 00 87 
   462)       209.984 1  Rx        00B1 -  3    00 70 E7 
   463)       210.453 1  Rx        00B5 -  8    00 00 00 00 00 00 00 00 
   464)       210.923 1  Rx        0037 -  8    1F FE 00 00 10 7C 60 70 
   465)       211.435 1  Rx        0027 -  8    8A 74 07 DB 00 00 02 39 
   466)       211.605 1  Rx        00AD -  5    01 00 00 C0 F1 
   467)       211.947 1  Rx        0095 -  7    00 00 00 00 00 B0 9A 
   468)       212.928 1  Rx        00AB -  8    00 00 CD 0D 00 00 B0 3D 
   469)       213.227 1  Rx        002B -  8    07 E2 07 FF 08 09 60 F3 
   470)       213.440 1  Rx        002F -  8    00 00 00 00 00 D8 80 00 
   471)       213.696 1  Rx        0087 -  8    00 00 00 00 00 65 F0 8B 
   472)       213.952 1  Rx        0089 -  8    80 3F 80 6D 83 7A F0 7F 
   473)       214.165 1  Rx        008B -  8    00 00 00 00 00 00 00 00 
   474)       214.421 1  Rx        00A7 -  8    00 00 00 9E 40 9B F0 03 
   475)       214.677 1  Rx        00B3 -  8    00 00 00 00 00 00 B0 66 
   476)       214.933 1  Rx        0400 -  8    FD 01 3F FF FF FF FF FF 
   477)       215.147 1  Rx        0023 -  8    10 12 10 00 00 00 B5 C0 
   478)       215.659 1  Rx        0091 -  8    01 FF 7F 00 00 00 B0 FE 
   479)       216.427 1  Rx        0127 -  8    5A 81 64 00 E4 80 90 00 
   480)       216.555 1  Rx        0077 -  2    04 22 
   481)       216.768 1  Rx        03E0 -  8    01 47 32 4A 57 32 39 34 
   482)       217.451 1  Rx        0035 -  8    07 DB 07 D5 00 3C 13 A0 
   483)       218.389 1  Rx        007B -  7    C7 DB 00 07 FF 90 72 
   484)       219.413 1  Rx        0025 -  8    02 A3 07 D5 07 DB 10 F0 
   485)       220.437 1  Rx        009D -  8    00 00 00 00 00 00 90 E1 
   486)       220.949 1  Rx        0037 -  8    1F FE 00 00 10 7C 70 BD 
   487)       221.419 1  Rx        0027 -  8    8A 74 07 DB 00 00 12 F4 
   488)       221.973 1  Rx        0085 -  8    20 DD 04 00 00 02 7F 2C 
   489)       222.101 1  Rx        01CE -  4    AF 00 60 13 
   490)       222.443 1  Rx        0081 -  8    18 00 39 64 05 00 00 00 
   491)       222.955 1  Rx        0093 -  8    80 FC 50 00 00 00 B1 68 
   492)       223.211 1  Rx        002B -  8    07 E3 07 FD 08 08 70 13 
   493)       223.467 1  Rx        002F -  8    00 00 00 00 00 D7 80 00 
   494)       223.680 1  Rx        0071 -  8    07 DB 00 00 6D 00 00 75 
   495)       223.936 1  Rx        0079 -  8    80 00 00 00 00 00 00 AB 
   496)       224.192 1  Rx        007F -  8    43 2F 00 00 00 00 FF FF 
   497)       224.448 1  Rx        0083 -  8    80 04 00 00 00 00 00 AE 
   498)       224.661 1  Rx        007D -  6    00 7A 00 00 02 A0 
   499)       224.789 1  Rx        0125 -  3    00 78 00 
   500)       225.045 1  Rx        0023 -  8    10 12 10 00 00 00 C5 99 
   501)       225.728 1  Rx        008D -  8    C6 C0 FF FF FF FF FF FF 
   502)       226.411 1  Rx        015B -  8    00 00 00 00 00 00 1B C8 
   503)       226.667 1  Rx        02A4 -  8    00 39 00 00 00 00 00 FF 
   504)       226.923 1  Rx        009B -  8    2A 62 00 55 00 79 00 FF 
   505)       227.435 1  Rx        0035 -  8    07 DB 07 D5 00 3C 23 EA 
   506)       227.861 1  Rx        0328 -  8    20 01 00 69 00 72 00 4E 
   507)       229.397 1  Rx        0025 -  8    02 9D 07 D5 07 DB 20 05 
   508)       229.994 1  Rx        00B1 -  3    00 80 98 
   509)       230.421 1  Rx        00B5 -  8    00 00 00 00 00 00 00 00 
   510)       230.890 1  Rx        0037 -  8    1F FE 00 00 10 7C 80 C2 
   511)       231.445 1  Rx        0027 -  8    8A 6F 07 DB 00 00 22 6A 
   512)       231.616 1  Rx        00AD -  5    01 00 00 D0 3C 
   513)       231.872 1  Rx        0095 -  7    00 00 00 00 00 C0 C3 
   514)       232.896 1  Rx        00AB -  8    00 00 CD 0D 00 00 C0 64 
   515)       233.194 1  Rx        002B -  8    07 EB 08 00 08 08 80 9B 
   516)       233.450 1  Rx        002F -  8    00 00 00 00 00 D7 80 00 
   517)       233.706 1  Rx        0087 -  8    00 00 00 00 00 65 00 F4 
   518)       233.920 1  Rx        0089 -  8    80 47 80 6D 83 7A 00 7F 
   519)       234.176 1  Rx        008B -  8    00 00 00 00 00 00 00 00 
   520)       234.432 1  Rx        00A7 -  8    00 00 00 9E 40 9C 00 85 
   521)       234.645 1  Rx        00B3 -  8    00 00 00 00 00 00 C0 3F 
   522)       235.114 1  Rx        0023 -  8    10 12 10 00 00 00 D5 54 
   523)       235.669 1  Rx        0091 -  8    01 FF 7F 00 00 00 C0 A7 
   524)       236.437 1  Rx        0157 -  8    00 00 00 00 50 00 00 00 
   525)       236.565 1  Rx        0077 -  2    04 22 
   526)       236.821 1  Rx        0143 -  8    00 00 00 00 00 00 00 00 
   527)       237.120 1  Rx        025D -  8    03 FC 00 00 7F 7F 7F 7F 
   528)       237.333 1  Rx        028B -  8    00 00 00 00 00 1E 00 00 
   529)       237.546 1  Rx        0035 -  8    07 DB 07 D5 00 3C 33 27 
   530)       237.802 1  Rx        038A -  8    01 00 00 00 00 00 00 00 
   531)       238.442 1  Rx        007B -  7    C7 DB 00 07 FF A0 38 
   532)       239.424 1  Rx        0025 -  8    02 9D 07 D5 07 DB 30 C8 
   533)       240.405 1  Rx        009D -  8    00 00 00 00 00 00 A0 AB 
   534)       240.917 1  Rx        0037 -  8    1F FE 00 00 10 7C 90 0F 
   535)       241.429 1  Rx        0027 -  8    8A 6F 07 DB 00 00 32 A7 
   536)       241.898 1  Rx        0085 -  8    20 DD 04 00 00 02 81 30 
   537)       242.453 1  Rx        0081 -  8    18 00 39 64 05 00 00 00 
   538)       242.922 1  Rx        0093 -  8    80 FC 50 00 00 00 C1 31 
   539)       243.221 1  Rx        002B -  8    07 E7 08 01 08 09 90 88 
   540)       243.434 1  Rx        002F -  8    00 00 00 00 00 D8 80 00 
   541)       243.690 1  Rx        0071 -  8    07 DB 00 00 6D 00 10 B8 
   542)       243.946 1  Rx        0079 -  8    80 00 00 00 00 00 10 66 
   543)       244.202 1  Rx        007F -  8    43 2F 00 00 00 00 FF FF 
   544)       244.416 1  Rx        0083 -  8    80 04 00 00 00 00 10 63 
   545)       244.629 1  Rx        007D -  6    00 7A 00 00 02 A0 
   546)       244.885 1  Rx        00DD -  8    00 00 00 00 00 80 00 00 
   547)       245.141 1  Rx        0023 -  8    10 12 10 00 00 00 E5 1E 
   548)       245.482 1  Rx        0318 -  8    00 00 00 00 00 00 FF 00 
   549)       245.738 1  Rx        008D -  8    C6 C0 FF FF FF FF FF FF 
   550)       246.421 1  Rx        013D -  8    00 00 33 7C 00 E1 28 04 
   551)       246.890 1  Rx        009B -  8    2A 62 00 55 00 79 00 FF 
   552)       247.189 1  Rx        0133 -  8    00 00 00 00 FF 03 0C FF 
   553)       247.402 1  Rx        03A9 -  8    0E 3C 1E FF FF 61 D0 02 
   554)       247.658 1  Rx        0035 -  8    07 DB 07 DA 00 3C 43 16 
   555)       247.872 1  Rx        03E4 -  8    81 DF 88 46 06 00 00 00 
   556)       249.408 1  Rx        0025 -  8    02 9D 07 DA 07 DB 40 F9 
   557)       250.005 1  Rx        00B1 -  3    00 90 55 
   558)       250.432 1  Rx        00B5 -  8    00 00 00 00 00 00 00 00 
   559)       250.944 1  Rx        0037 -  8    1F FE 00 00 10 7C A0 45 
   560)       251.413 1  Rx        0027 -  8    8A 6F 07 DB 00 00 42 FE 
   561)       251.626 1  Rx        00AD -  5    01 00 00 E0 76 
   562)       251.925 1  Rx        0095 -  7    00 00 00 00 00 D0 0E 
   563)       252.181 1  Rx        02F2 -  8    00 00 00 00 00 AD 00 00 
   564)       252.906 1  Rx        00AB -  8    00 00 CD 0D 00 00 D0 A9 
   565)       253.205 1  Rx        002B -  8    07 E5 08 00 08 09 A0 D3 
   566)       253.461 1  Rx        002F -  8    00 00 00 00 00 D8 80 00 
   567)       253.717 1  Rx        0087 -  8    00 00 00 00 00 65 10 39 
   568)       253.930 1  Rx        0089 -  8    80 3F 80 6D 83 7A 10 7F 
   569)       254.186 1  Rx        008B -  8    00 00 00 00 00 00 00 00 
   570)       254.399 1  Rx        00A7 -  8    00 00 00 9E 40 9B 10 B1 
   571)       254.655 1  Rx        00B3 -  8    00 00 00 00 00 00 D0 F2 
   572)       255.082 1  Rx        0023 -  8    10 12 10 00 00 00 F5 D3 
   573)       255.679 1  Rx        0091 -  8    01 FF 7F 00 00 00 D0 6A 
   574)       256.362 1  Rx        0121 -  5    40 00 54 14 00 
   575)       256.661 1  Rx        0077 -  2    04 22 
   576)       256.917 1  Rx        038E -  8    00 00 00 20 4B 21 C6 CF 
   577)       257.173 1  Rx        03E3 -  8    11 04 10 08 00 00 00 00 
   578)       257.429 1  Rx        03E8 -  8    49 31 A2 43 00 0E 50 5C 
   579)       257.685 1  Rx        0035 -  8    07 DB 07 DA 00 3C 53 DB 
   580)       257.898 1  Rx        0328 -  8    10 01 00 61 00 74 00 6E 
   581)       258.410 1  Rx        007B -  7    C7 DB 00 08 01 B0 7E 
   582)       259.434 1  Rx        0025 -  8    02 9D 07 DA 07 DB 50 34 
   583)       260.415 1  Rx        009D -  8    00 00 00 00 00 00 B0 66 
   584)       260.927 1  Rx        0037 -  8    1F FE 00 00 10 7C B0 88 
   585)       261.439 1  Rx        0027 -  8    8A 75 07 DB 00 00 52 A1 
   586)       261.909 1  Rx        0085 -  8    20 DD 04 00 00 02 81 34 
   587)       262.421 1  Rx        0081 -  8    18 00 39 64 05 00 00 00 
   588)       262.933 1  Rx        0093 -  8    80 FC 50 00 00 00 D1 FC 
   589)       263.231 1  Rx        002B -  8    07 E6 07 FF 08 09 B0 0E 
   590)       263.445 1  Rx        002F -  8    00 00 00 00 00 D8 80 00 
   591)       263.701 1  Rx        0071 -  8    07 DB 00 00 6D 00 20 F2 
   592)       263.957 1  Rx        0079 -  8    80 00 00 00 00 00 20 2C 
   593)       264.213 1  Rx        007F -  8    43 2F 00 00 00 00 FF FF 
   594)       264.426 1  Rx        0083 -  8    80 04 00 00 00 00 20 29 
   595)       264.639 1  Rx        007D -  6    00 7A 00 00 02 A0 
   596)       265.109 1  Rx        0023 -  8    10 12 10 00 00 00 05 AC 
   597)       265.706 1  Rx        008D -  8    C6 C0 FF FF FF FF FF FF 
   598)       266.431 1  Rx        03E1 -  7    24 16 00 1C 00 FF FF 
   599)       266.815 1  Rx        009B -  8    2A 64 00 55 00 79 00 FF 
   600)       267.114 1  Rx        012B -  8    9E 18 90 5A 21 FF 8E FF 
   601)       267.327 1  Rx        013F -  8    5B 58 C4 3A 01 75 00 00 
   602)       267.541 1  Rx        0035 -  8    07 DB 07 DA 00 3C 63 91 
   603)       267.711 1  Rx        01C8 -  4    00 00 00 00 
   604)       267.967 1  Rx        03E9 -  8    01 5C 64 00 24 24 00 00 
   605)       268.138 1  Rx        0129 -  4    32 00 00 00 
   606)       269.418 1  Rx        0025 -  8    02 9D 07 DA 07 DB 60 7E 
   607)       270.015 1  Rx        00B1 -  3    00 A0 1F 
   608)       270.442 1  Rx        00B5 -  8    00 00 00 00 00 00 00 00 
   609)       270.954 1  Rx        0037 -  8    1F FE 00 00 10 7C C0 D1 
   610)       271.423 1  Rx        0027 -  8    8A 75 07 DB 00 00 62 EB 
   611)       271.637 1  Rx        00AD -  5    01 00 00 F0 BB 
   612)       271.935 1  Rx        0095 -  7    00 00 00 00 00 E0 44 
   613)       272.106 1  Rx        01CE -  4    AF 00 70 DE 
   614)       272.959 1  Rx        00AB -  8    00 00 CD 0D 00 00 E0 E3 
   615)       273.215 1  Rx        002B -  8    07 E0 08 00 08 08 C0 48 
   616)       273.471 1  Rx        002F -  8    00 00 00 00 00 D7 80 00 
   617)       273.684 1  Rx        0087 -  8    00 00 00 00 00 66 20 A7 
   618)       273.940 1  Rx        0089 -  8    80 47 80 6D 83 7A 20 7F 
   619)       274.196 1  Rx        008B -  8    00 00 00 00 00 00 00 00 
   620)       274.410 1  Rx        00A7 -  8    00 00 00 9E 40 9C 20 02 
   621)       274.666 1  Rx        00B3 -  8    00 00 00 00 00 00 E0 B8 
   622)       275.092 1  Rx        0023 -  8    10 12 10 00 00 00 15 61 
   623)       275.690 1  Rx        0091 -  8    01 FF 7F 00 00 00 E0 20 
   624)       276.415 1  Rx        014E -  8    08 14 0A 1E E1 00 05 39 
   625)       276.543 1  Rx        0077 -  2    04 22 
   626)       276.842 1  Rx        025F -  8    00 00 00 00 00 00 00 27 
   627)       277.012 1  Rx        039E -  3    01 00 00 
   628)       277.226 1  Rx        03EA -  8    41 47 1E 08 8A 34 41 A4 
   629)       277.482 1  Rx        0035 -  8    07 DB 07 D6 00 3C 73 8E 
   630)       278.122 1  Rx        01C0 -  6    00 00 00 00 00 00 
   631)       278.420 1  Rx        007B -  7    C7 DB 00 07 FD C0 34 
   632)       279.402 1  Rx        0025 -  8    02 9D 07 D6 07 DB 70 61 
   633)       280.426 1  Rx        009D -  8    00 00 00 00 00 00 C0 3F 
   634)       280.895 1  Rx        0037 -  8    1F FE 00 00 10 7C D0 1C 
   635)       281.450 1  Rx        0027 -  8    8A 75 07 DB 00 00 72 26 
   636)       281.919 1  Rx        0085 -  8    20 DD 04 00 00 02 7A 38 
   637)       282.431 1  Rx        0081 -  8    18 00 39 64 05 00 00 00 
   638)       282.900 1  Rx        0093 -  8    80 FC 50 00 00 00 E1 B6 
   639)       283.199 1  Rx        002B -  8    07 E3 07 FC 08 0A D0 B7 
   640)       283.455 1  Rx        002F -  8    00 00 00 00 00 D7 80 00 
   641)       283.711 1  Rx        0071 -  8    07 DB 00 00 6D 00 30 3F 
   642)       283.967 1  Rx        0079 -  8    80 00 00 00 00 00 30 E1 
   643)       284.180 1  Rx        007F -  8    43 2F 00 00 00 00 FF FF 
   644)       284.436 1  Rx        0083 -  8    80 04 00 00 00 00 30 E4 
   645)       284.650 1  Rx        007D -  6    00 7A 00 00 02 A0 
   646)       285.119 1  Rx        0023 -  8    10 12 10 00 00 00 25 2B 
   647)       285.716 1  Rx        008D -  8    C6 C0 FF FF FF FF FF FF 
   648)       286.783 1  Rx        009B -  8    2A 64 00 55 00 79 00 FF 
   649)       287.082 1  Rx        0332 -  8    00 E1 03 FF 00 70 01 F6 
   650)       287.295 1  Rx        03EB -  8    43 E8 0D 7A 0A A0 09 8D 
   651)       287.551 1  Rx        0035 -  8    07 DB 07 D6 00 3C 83 F1 
   652)       287.807 1  Rx        0128 -  8    00 28 34 6C 01 84 06 3C 
   653)       288.020 1  Rx        0328 -  8    00 01 00 00 00 00 00 00 
   654)       288.276 1  Rx        02A7 -  8    00 00 00 00 00 00 00 00 
   655)       289.428 1  Rx        0025 -  8    02 9B 07 D6 07 DB 80 97 
   656)       289.983 1  Rx        00B1 -  3    00 B0 D2 
   657)       290.452 1  Rx        00B5 -  8    00 00 00 00 00 00 00 00 
   658)       290.964 1  Rx        0037 -  8    1F FE 00 00 10 7C E0 56 
   659)       291.434 1  Rx        0027 -  8    8A 69 07 DB 00 00 82 42 
   660)       291.604 1  Rx        00AD -  5    01 00 00 00 C4 
   661)       291.946 1  Rx        0095 -  7    00 00 00 00 00 F0 89 
   662)       292.970 1  Rx        00AB -  8    00 00 CD 0D 00 00 F0 2E 
   663)       293.226 1  Rx        002B -  8    07 EB 08 01 08 09 E0 DE 
   664)       293.482 1  Rx        002F -  8    00 00 00 00 00 D7 80 00 
   665)       293.695 1  Rx        0087 -  8    00 00 00 00 00 66 30 6A 
   666)       293.951 1  Rx        0089 -  8    80 3F 80 6D 83 7A 30 7F 
   667)       294.207 1  Rx        008B -  8    00 00 00 00 00 00 00 00 
   668)       294.420 1  Rx        00A7 -  8    00 00 00 9E 40 9C 30 CF 
   669)       294.676 1  Rx        00B3 -  8    00 00 00 00 00 00 F0 75 
   670)       294.932 1  Rx        00DD -  8    00 00 00 00 00 80 00 00 
   671)       295.188 1  Rx        0023 -  8    10 12 10 00 00 00 35 E6 
   672)       295.401 1  Rx        01A1 -  8    00 00 80 00 00 00 00 00 
   673)       295.700 1  Rx        0091 -  8    01 FF 7F 00 00 00 F0 ED 
   674)       296.596 1  Rx        0077 -  2    04 22 
   675)       296.852 1  Rx        0230 -  8    03 33 31 08 00 00 00 00 
   676)       297.108 1  Rx        03B3 -  8    01 30 70 01 E4 A1 07 10 
   677)       297.364 1  Rx        03F0 -  8    3D CD 04 11 43 E8 80 9F 
   678)       297.620 1  Rx        0035 -  8    07 DB 07 D6 00 3C 93 3C 
   679)       297.833 1  Rx        044A -  8    01 00 00 00 00 00 00 20 
   680)       298.431 1  Rx        007B -  7    C7 DB 00 07 FD D0 F9 
   681)       299.412 1  Rx        0025 -  8    02 9B 07 D6 07 DB 90 5A 
   682)       300.436 1  Rx        009D -  8    00 00 00 00 00 00 D0 F2 
   683)       300.905 1  Rx        0037 -  8    1F FE 00 00 10 7C F0 9B 
   684)       301.417 1  Rx        0027 -  8    8A 69 07 DB 00 00 92 8F 
   685)       301.887 1  Rx        0085 -  8    20 DD 04 00 00 02 7D 3C 
   686)       302.441 1  Rx        0081 -  8    18 00 39 64 05 00 00 00 
   687)       302.911 1  Rx        0093 -  8    80 FC 50 00 00 00 F1 7B 
   688)       303.209 1  Rx        002B -  8    07 E7 08 01 08 09 F0 1C 
   689)       303.465 1  Rx        002F -  8    00 00 00 00 00 D7 80 00 
   690)       303.721 1  Rx        0071 -  8    07 DB 00 00 6D 00 40 66 
   691)       303.935 1  Rx        0079 -  8    80 00 00 00 00 00 40 B8 
   692)       304.191 1  Rx        007F -  8    43 2F 00 00 00 00 FF FF 
   693)       304.447 1  Rx        0083 -  8    80 04 00 00 00 00 40 BD 
   694)       304.660 1  Rx        007D -  6    00 7A 00 00 02 A0 
   695)       305.087 1  Rx        0023 -  8    10 12 10 00 00 00 45 BF 
   696)       305.727 1  Rx        008D -  8    C6 C0 FF FF FF FF FF FF 
   697)       306.452 1  Rx        0137 -  8    00 00 00 00 00 00 01 0D 
   698)       306.665 1  Rx        014D -  8    7A 7A 92 92 03 15 05 00 
   699)       306.921 1  Rx        009B -  8    2A 64 00 55 00 79 00 FF 
   700)       307.177 1  Rx        0248 -  8    00 00 FF FF FF 03 FF FF 
   701)       307.391 1  Rx        02B1 -  5    15 0F 00 7F 7F 
   702)       307.604 1  Rx        0035 -  8    07 DB 07 D7 00 3C A3 EB 
   703)       307.860 1  Rx        03B4 -  8    35 80 00 00 00 00 04 00 
   704)       308.159 1  Rx        03F1 -  8    0D B9 0F 00 0C 04 6F C0 
   705)       308.372 1  Rx        044C -  8    79 00 00 00 00 00 FF FF 
   706)       308.671 1  Rx        0401 -  8    FD 02 04 0F 00 00 00 00 
   707)       309.439 1  Rx        0025 -  8    02 9B 07 D7 07 DB A0 8D 
   708)       310.036 1  Rx        00B1 -  3    00 C0 8B 
   709)       310.463 1  Rx        00B5 -  8    00 00 00 00 00 00 00 00 
   710)       310.932 1  Rx        0037 -  8    1F FE 00 00 10 7C 00 E4 
   711)       311.444 1  Rx        0027 -  8    8A 69 07 DB 00 00 A2 C5 
   712)       311.615 1  Rx        00AD -  5    01 00 00 10 09 
   713)       311.913 1  Rx        0095 -  7    00 00 00 00 00 00 F6 
   714)       312.937 1  Rx        00AB -  8    00 00 CD 0D 00 00 00 51 
   715)       313.236 1  Rx        002B -  8    07 E5 07 FF 08 09 00 A8 
   716)       313.449 1  Rx        002F -  8    00 00 00 00 00 D8 80 00 
   717)       313.705 1  Rx        0087 -  8    00 00 00 00 00 66 40 33 
   718)       313.919 1  Rx        0089 -  8    80 47 80 6D 83 7A 40 7F 
   719)       314.175 1  Rx        008B -  8    00 00 00 00 00 00 00 00 
   720)       314.431 1  Rx        00A7 -  8    00 00 00 9E 40 9B 40 6F 
   721)       314.687 1  Rx        00B3 -  8    00 00 00 00 00 00 00 0A 
   722)       315.113 1  Rx        0023 -  8    10 12 10 00 00 00 55 72 
   723)       315.668 1  Rx        0091 -  8    01 FF 7F 00 00 00 00 92 
   724)       316.436 1  Rx        0127 -  8    5A 81 64 00 E2 80 90 00 
   725)       316.564 1  Rx        0077 -  2    04 22 
   726)       316.820 1  Rx        03E0 -  8    02 37 34 33 00 00 00 00 
   727)       317.033 1  Rx        03F2 -  8    05 02 B0 01 08 20 10 04 
   728)       317.289 1  Rx        03F7 -  8    C1 2E 01 3C A1 88 48 00 
   729)       317.545 1  Rx        0035 -  8    07 DB 07 D7 00 3C B3 26 
   730)       318.398 1  Rx        007B -  7    C7 DB 00 07 FB E0 06 
   731)       318.868 1  Rx        0328 -  8    00 00 00 00 00 00 00 00 
   732)       319.422 1  Rx        0025 -  8    02 9E 07 D7 07 DB B0 03 
   733)       320.446 1  Rx        009D -  8    00 00 00 00 00 00 E0 B8 
   734)       320.916 1  Rx        0037 -  8    1F FE 00 00 10 7C 10 29 
   735)       321.428 1  Rx        0027 -  8    8A 6B 07 DB 00 00 B2 84 
   736)       321.897 1  Rx        0085 -  8    20 DD 04 00 00 02 7B 00 
   737)       322.110 1  Rx        01CE -  4    AF 00 80 A1 
   738)       322.452 1  Rx        0081 -  8    18 00 39 64 05 00 00 00 
   739)       322.921 1  Rx        0093 -  8    80 FC 50 00 00 00 01 04 
   740)       323.220 1  Rx        002B -  8    07 E6 08 00 08 0A 10 A1 
   741)       323.476 1  Rx        002F -  8    00 00 00 00 00 D7 80 00 
   742)       323.689 1  Rx        0071 -  8    07 DB 00 00 6D 00 50 AB 
   743)       323.945 1  Rx        0079 -  8    80 00 00 00 00 00 50 75 
   744)       324.201 1  Rx        007F -  8    43 2F 00 00 00 00 FF FF 
   745)       324.457 1  Rx        0083 -  8    80 04 00 00 00 00 50 70 
   746)       324.628 1  Rx        007D -  6    00 7A 00 00 02 A0 
   747)       324.798 1  Rx        0125 -  3    00 78 00 
   748)       325.097 1  Rx        0023 -  8    10 12 10 00 00 00 65 38 
   749)       325.737 1  Rx        008D -  8    C6 C0 FF FF FF FF FF FF 
   750)       326.420 1  Rx        015B -  8    00 00 00 00 00 00 1B C8 
   751)       326.676 1  Rx        02A4 -  8    00 39 00 00 00 00 00 FF 
   752)       326.932 1  Rx        009B -  8    2A 64 00 55 00 79 00 FF 
   753)       327.188 1  Rx        0261 -  8    19 66 17 F0 17 80 03 E3 
   754)       327.444 1  Rx        03D8 -  8    FD 00 64 FA 58 23 00 00 
   755)       327.657 1  Rx        0035 -  8    07 DB 07 D7 00 3C C3 7F 
   756)       327.913 1  Rx        03F3 -  8    81 00 20 00 00 02 00 00 
   757)       329.406 1  Rx        0025 -  8    02 9E 07 D7 07 DB C0 5A 
   758)       330.004 1  Rx        00B1 -  3    00 D0 46 
   759)       330.430 1  Rx        00B5 -  8    00 00 00 00 00 00 00 00 
   760)       330.900 1  Rx        0037 -  8    1F FE 00 00 10 7C 20 63 
   761)       331.454 1  Rx        0027 -  8    8A 6B 07 DB 00 00 C2 DD 
   762)       331.625 1  Rx        00AD -  5    01 00 00 20 43 
   763)       331.881 1  Rx        0095 -  7    00 00 00 00 00 10 3B 
   764)       332.094 1  Rx        03C7 -  4    01 00 80 58 
   765)       332.905 1  Rx        00AB -  8    00 00 CD 0D 00 00 10 9C 
   766)       333.204 1  Rx        002B -  8    07 E0 08 00 08 09 20 B6 
   767)       333.460 1  Rx        002F -  8    00 00 00 00 00 D8 80 00 
   768)       333.716 1  Rx        0087 -  8    00 00 00 00 00 66 50 FE 
   769)       333.929 1  Rx        0089 -  8    80 47 80 6D 83 7A 50 7F 
   770)       334.185 1  Rx        008B -  8    00 00 00 00 00 00 00 00 
   771)       334.441 1  Rx        00A7 -  8    00 00 00 9E 40 9C 50 5B 
   772)       334.654 1  Rx        00B3 -  8    00 00 00 00 00 00 10 C7 
   773)       335.124 1  Rx        0023 -  8    10 12 10 00 00 00 75 F5 
   774)       335.678 1  Rx        0091 -  8    01 FF 7F 00 00 00 10 5F 
   775)       336.446 1  Rx        0157 -  8    00 00 00 00 50 00 00 00 
   776)       336.574 1  Rx        0077 -  2    04 22 
   777)       336.830 1  Rx        0143 -  8    00 00 00 00 00 00 00 00 
   778)       337.043 1  Rx        0297 -  8    F0 FF 03 00 00 0C 00 FF 
   779)       337.342 1  Rx        03D7 -  8    01 00 00 00 00 00 00 00 
   780)       337.555 1  Rx        0035 -  8    07 DB 07 D7 00 3C D3 B2 
   781)       337.811 1  Rx        03F4 -  8    11 0F FF 20 02 00 00 00 
   782)       338.409 1  Rx        007B -  7    C7 DB 00 07 FD F0 7E 
   783)       339.433 1  Rx        0025 -  8    02 9E 07 D7 07 DB D0 97 
   784)       340.414 1  Rx        009D -  8    00 00 00 00 00 00 F0 75 
   785)       340.926 1  Rx        0037 -  8    1F FE 00 00 10 7C 30 AE 
   786)       341.438 1  Rx        0027 -  8    8A 6B 07 DB 00 00 D2 10 
   787)       341.950 1  Rx        0085 -  8    20 DD 04 00 00 02 7F 04 
   788)       342.419 1  Rx        0081 -  8    18 00 39 64 05 00 00 00 
   789)       342.931 1  Rx        0093 -  8    80 FC 50 00 00 00 11 C9 
   790)       343.230 1  Rx        002B -  8    07 E3 07 FD 08 07 30 A3 
   791)       343.443 1  Rx        002F -  8    00 00 00 00 00 D7 80 00 
   792)       343.699 1  Rx        0071 -  8    07 DB 00 00 6D 00 60 E1 
   793)       343.955 1  Rx        0079 -  8    80 00 00 00 00 00 60 3F 
   794)       344.211 1  Rx        007F -  8    43 2F 00 00 00 00 FF FF 
   795)       344.425 1  Rx        0083 -  8    80 04 00 00 00 00 60 3A 
   796)       344.638 1  Rx        007D -  6    00 7A 00 00 02 A0 
   797)       344.894 1  Rx        00DD -  8    00 00 00 00 00 80 00 00 
   798)       345.150 1  Rx        0023 -  8    10 12 10 00 00 00 85 8A 
   799)       345.491 1  Rx        0318 -  8    00 00 00 00 00 00 FF 00 
   800)       345.747 1  Rx        008D -  8    C6 C0 FF FF FF FF FF FF 
   801)       346.430 1  Rx        013D -  8    00 00 33 7C 01 29 28 04 
   802)       346.814 1  Rx        009B -  8    2A 64 00 55 00 79 00 FF 
   803)       347.070 1  Rx        0133 -  8    00 00 00 00 FF 03 0C FF 
   804)       347.326 1  Rx        022D -  8    FF 00 00 00 00 00 00 00 
   805)       347.582 1  Rx        0035 -  8    07 DB 07 D7 00 3C E3 F8 
   806)       347.838 1  Rx        02AD -  8    00 00 00 00 00 00 FF FF 
   807)       348.137 1  Rx        0328 -  8    20 42 00 46 00 69 00 72 
   808)       348.350 1  Rx        03F5 -  8    01 00 00 00 0C 00 10 10 
   809)       349.417 1  Rx        0025 -  8    02 99 07 D7 07 DB E0 12 
   810)       350.014 1  Rx        00B1 -  3    00 E0 0C 
   811)       350.441 1  Rx        00B5 -  8    00 00 00 00 00 00 00 00 
   812)       350.910 1  Rx        0037 -  8    1F FE 00 00 10 7C 40 F7 
   813)       351.422 1  Rx        0027 -  8    8A 6E 07 DB 00 00 E2 19 
   814)       351.635 1  Rx        00AD -  5    01 00 00 30 8E 
   815)       351.891 1  Rx        0095 -  7    00 00 00 00 00 20 71 
   816)       352.147 1  Rx        02F2 -  8    00 00 00 00 00 AD 00 00 
   817)       352.915 1  Rx        00AB -  8    00 00 CD 0D 00 00 20 D6 
   818)       353.214 1  Rx        002B -  8    07 EA 08 00 08 08 40 E8 
   819)       353.470 1  Rx        002F -  8    00 00 00 00 00 D7 80 00 
   820)       353.726 1  Rx        0087 -  8    00 00 00 00 00 66 60 B4 
   821)       353.939 1  Rx        0089 -  8    80 47 80 6D 83 7A 60 7F 
   822)       354.195 1  Rx        008B -  8    00 00 00 00 00 00 00 00 
   823)       354.409 1  Rx        00A7 -  8    00 00 00 9E 40 9C 60 11 
   824)       354.665 1  Rx        00B3 -  8    00 00 00 00 00 00 20 8D 
   825)       355.091 1  Rx        0023 -  8    10 12 10 00 00 00 95 47 
   826)       355.689 1  Rx        0091 -  8    01 FF 7F 00 00 00 20 15 
   827)       356.371 1  Rx        0121 -  5    40 00 54 14 00 
   828)       356.585 1  Rx        0077 -  2    04 22 
   829)       356.841 1  Rx        0350 -  8    3A 2B 08 07 E5 06 18 39 
   830)       357.097 1  Rx        0296 -  8    20 00 00 25 25 25 24 FF 
   831)       357.310 1  Rx        03D5 -  8    01 00 00 00 00 00 00 00 
   832)       357.566 1  Rx        0035 -  8    07 DB 07 D7 00 3C F3 35 
   833)       358.419 1  Rx        007B -  7    C7 DB 00 07 FD 00 01 
   834)       359.443 1  Rx        0025 -  8    02 99 07 D7 07 DB F0 DF 
   835)       360.424 1  Rx        009D -  8    00 00 00 00 00 00 00 0A 
   836)       360.936 1  Rx        0037 -  8    1F FE 00 00 10 7C 50 3A 
   837)       361.448 1  Rx        0027 -  8    8A 6E 07 DB 00 00 F2 D4 
   838)       361.960 1  Rx        0085 -  8    20 DD 04 00 00 02 79 08 
   839)       362.216 1  Rx        01F7 -  8    FF FF 0F FF 00 80 00 00 
   840)       362.430 1  Rx        0081 -  8    18 00 39 64 05 00 00 00 
   841)       362.942 1  Rx        0093 -  8    80 FC 50 00 00 00 21 83 
   842)       363.198 1  Rx        002B -  8    07 E7 08 01 08 0A 50 69 
   843)       363.454 1  Rx        002F -  8    00 00 00 00 00 D7 80 00 
   844)       363.710 1  Rx        0071 -  8    07 DB 00 00 6D 00 70 2C 
   845)       363.966 1  Rx        0079 -  8    80 00 00 00 00 00 70 F2 
   846)       364.179 1  Rx        007F -  8    43 2F 00 00 00 00 FF FF 
   847)       364.435 1  Rx        0083 -  8    80 04 00 00 00 00 70 F7 
   848)       364.648 1  Rx        007D -  6    00 7A 00 00 02 A0 
   849)       365.075 1  Rx        0023 -  8    10 12 10 00 00 00 A5 0D 
   850)       365.715 1  Rx        008D -  8    C6 C0 FF FF FF FF FF FF 
   851)       366.440 1  Rx        03E1 -  7    24 16 00 1C 00 FF FF 
   852)       366.739 1  Rx        009B -  8    2A 64 00 55 00 79 00 FF 
   853)       366.995 1  Rx        012B -  8    9E 18 90 5A 21 FF 8D FF 
   854)       367.251 1  Rx        013F -  8    5B 58 C4 31 01 75 00 00 
   855)       367.507 1  Rx        0035 -  8    07 DB 07 DA 00 3C 03 05 
   856)       367.720 1  Rx        0281 -  8    48 23 00 21 00 00 00 7C 
   857)       367.934 1  Rx        0358 -  4    FF 01 FF 00 
   858)       368.104 1  Rx        0129 -  4    32 00 00 00 
   859)       368.318 1  Rx        03D3 -  8    1D 13 0A 03 FF DA 0F 0F 
   860)       368.574 1  Rx        03D4 -  8    41 60 20 40 00 00 00 00 
   861)       368.872 1  Rx        03D6 -  8    69 30 00 00 36 11 05 00 
   862)       369.427 1  Rx        0025 -  8    02 99 07 DA 07 DB 00 EF 
   863)       370.024 1  Rx        00B1 -  3    00 F0 C1 
   864)       370.451 1  Rx        00B5 -  8    00 00 00 00 00 00 00 00 
   865)       370.920 1  Rx        0037 -  8    1F FE 00 00 10 7C 60 70 
   866)       371.432 1  Rx        0027 -  8    8A 6E 07 DB 00 00 02 AB 
   867)       371.646 1  Rx        00AD -  5    01 00 00 40 D7 
   868)       371.902 1  Rx        0095 -  7    00 00 00 00 00 30 BC 
   869)       372.072 1  Rx        01CE -  4    AF 00 90 6C 
   870)       372.286 1  Rx        03AA -  8    00 A8 00 00 00 00 00 00 
   871)       372.926 1  Rx        00AB -  8    00 00 CD 0D 00 00 30 1B 
   872)       373.267 1  Rx        002F -  8    00 00 00 00 00 D8 80 00 
   873)       373.480 1  Rx        002B -  8    07 E6 07 FF 08 09 60 F6 
   874)       373.736 1  Rx        0087 -  8    00 00 00 00 00 66 70 79 
   875)       373.992 1  Rx        0089 -  8    80 3F 80 6D 83 7A 70 7F 
   876)       374.206 1  Rx        008B -  8    00 00 00 00 00 00 00 00 
   877)       374.462 1  Rx        00A7 -  8    00 00 00 9E 40 9C 70 DC 
   878)       374.718 1  Rx        00B3 -  8    00 00 00 00 00 00 30 40 
   879)       375.102 1  Rx        0023 -  8    10 12 10 00 00 00 B5 C0 
   880)       375.699 1  Rx        0091 -  8    01 FF 7F 00 00 00 30 D8 
   881)       376.424 1  Rx        014E -  8    08 14 0A 1E E1 00 05 39 
   882)       376.552 1  Rx        0077 -  2    04 22 
   883)       376.851 1  Rx        0283 -  8    00 08 00 04 00 01 00 00 
   884)       377.064 1  Rx        035C -  6    00 00 00 00 00 00 
   885)       377.448 1  Rx        0035 -  8    07 DB 07 DA 00 3C 13 C8 
   886)       378.430 1  Rx        007B -  7    C7 DB 00 07 FB 10 79 
   887)       379.411 1  Rx        0025 -  8    02 9C 07 DA 07 DB 10 61 
   888)       379.880 1  Rx        0328 -  8    10 02 00 65 00 48 00 6F 
   889)       380.435 1  Rx        009D -  8    00 00 00 00 00 00 10 C7 
   890)       380.904 1  Rx        0037 -  8    1F FE 00 00 10 7C 70 BD 
   891)       381.459 1  Rx        0027 -  8    8A 70 07 DB 00 00 12 F1 
   892)       381.885 1  Rx        0085 -  8    20 DD 04 00 00 02 7A 0C 
   893)       382.141 1  Rx        02A1 -  8    80 08 FC F3 A9 FE 7D FE 
   894)       382.440 1  Rx        0081 -  8    18 00 39 64 05 00 00 00 
   895)       382.909 1  Rx        0093 -  8    80 FC 50 00 00 00 31 4E 
   896)       383.208 1  Rx        002B -  8    07 E7 08 01 08 09 70 3A 
   897)       383.464 1  Rx        002F -  8    00 00 00 00 00 D8 80 00 
   898)       383.720 1  Rx        0071 -  8    07 DB 00 00 6D 00 80 53 
   899)       383.933 1  Rx        0079 -  8    80 00 00 00 00 00 80 8D 
   900)       384.189 1  Rx        007F -  8    43 2F 00 00 00 00 FF FF 
   901)       384.445 1  Rx        0083 -  8    80 04 00 00 00 00 80 88 
   902)       384.659 1  Rx        007D -  6    00 7A 00 00 02 A0 
   903)       385.085 1  Rx        0023 -  8    10 12 10 00 00 00 C5 99 
   904)       385.725 1  Rx        008D -  8    C6 C0 FF FF FF FF FF FF 
   905)       386.877 1  Rx        009B -  8    2A 64 00 55 00 79 00 FF 
   906)       387.091 1  Rx        03C9 -  4    71 3F 00 00 
   907)       387.347 1  Rx        03F6 -  8    09 A9 82 33 88 88 88 44 
   908)       387.560 1  Rx        0035 -  8    07 DB 07 DA 00 3C 23 82 
   909)       387.816 1  Rx        0128 -  8    00 28 34 6C 01 83 06 41 
   910)       389.437 1  Rx        0025 -  8    02 9C 07 DA 07 DB 20 2B 
   911)       389.992 1  Rx        00B1 -  3    00 00 BE 
   912)       390.461 1  Rx        00B5 -  8    00 00 00 00 00 00 00 00 
   913)       390.931 1  Rx        0037 -  8    1F FE 00 00 10 7C 80 C2 
   914)       391.443 1  Rx        0027 -  8    8A 70 07 DB 00 00 22 BB 
   915)       391.613 1  Rx        00AD -  5    01 00 00 50 1A 
   916)       391.912 1  Rx        0095 -  7    00 00 00 00 00 40 E5 
   917)       392.168 1  Rx        027B -  8    01 F9 07 FF 00 00 00 00 
   918)       392.936 1  Rx        00AB -  8    00 00 CD 0D 00 00 40 42 
   919)       393.235 1  Rx        002F -  8    00 00 00 00 00 D7 80 00 
   920)       393.448 1  Rx        002B -  8    07 E1 08 00 08 08 80 1D 
   921)       393.704 1  Rx        0087 -  8    00 00 00 00 00 66 80 06 
   922)       393.960 1  Rx        0089 -  8    80 47 80 6D 83 7A 80 7F 
   923)       394.216 1  Rx        008B -  8    00 00 00 00 00 00 00 00 
   924)       394.429 1  Rx        00A7 -  8    00 00 00 9E 40 9C 80 A3 
   925)       394.685 1  Rx        00B3 -  8    00 00 00 00 00 00 40 19 
   926)       394.899 1  Rx        00DD -  8    00 00 00 00 00 80 00 00 
   927)       395.155 1  Rx        0023 -  8    10 12 10 00 00 00 D5 54 
   928)       395.709 1  Rx        0091 -  8    01 FF 7F 00 00 00 40 81 
   929)       396.605 1  Rx        0077 -  2    04 22 
   930)       396.861 1  Rx        0291 -  8    40 00 06 00 27 01 00 00 
   931)       397.117 1  Rx        02C2 -  8    41 94 3F 03 E3 DA 00 00 
   932)       397.459 1  Rx        0035 -  8    07 DB 07 D5 00 3C 33 27 
   933)       398.525 1  Rx        007B -  7    C7 DB 00 07 FC 20 CA 
   934)       399.421 1  Rx        0025 -  8    02 9C 07 D5 07 DB 30 8E 
   935)       400.445 1  Rx        009D -  8    00 00 00 00 00 00 20 8D 
   936)       400.957 1  Rx        0037 -  8    1F FE 00 00 10 7C 90 0F 
   937)       401.426 1  Rx        0027 -  8    8A 70 07 DB 00 00 32 76 
   938)       401.938 1  Rx        0085 -  8    20 DD 04 00 00 02 78 10 
   939)       402.237 1  Rx        03AB -  8    00 47 00 00 00 00 00 00 
   940)       402.450 1  Rx        0081 -  8    18 00 39 64 05 00 00 00 
   941)       402.706 1  Rx        0402 -  8    FD 03 3F FF FF FF FF FF 
   942)       402.962 1  Rx        0093 -  8    80 FC 50 00 00 00 41 17 
   943)       403.261 1  Rx        002F -  8    00 00 00 00 00 D7 80 00 
   944)       403.517 1  Rx        002B -  8    07 E3 07 FD 08 08 90 A1 
   945)       403.773 1  Rx        0071 -  8    07 DB 00 00 6D 00 90 9E 
   946)       403.986 1  Rx        0079 -  8    80 00 00 00 00 00 90 40 
   947)       404.242 1  Rx        007F -  8    43 2F 00 00 00 00 FF FF 
   948)       404.456 1  Rx        007D -  6    00 7A 00 00 02 A0 
   949)       404.712 1  Rx        0083 -  8    80 04 00 00 00 00 90 45 
   950)       405.096 1  Rx        0023 -  8    10 12 10 00 00 00 E5 1E 
   951)       405.736 1  Rx        008D -  8    C6 C0 FF FF FF FF FF FF 
   952)       406.461 1  Rx        0137 -  8    00 00 00 00 00 00 01 0D 
   953)       406.674 1  Rx        014D -  8    7A 7A 91 92 03 17 05 00 
   954)       406.930 1  Rx        009B -  8    2A 64 00 55 00 79 00 FF 
   955)       407.186 1  Rx        0289 -  8    30 00 07 1E C0 15 80 00 
   956)       407.442 1  Rx        02C5 -  8    01 EE EE 1C 01 00 00 00 
   957)       407.656 1  Rx        0035 -  8    07 DB 07 D5 00 3C 43 7E 
   958)       407.912 1  Rx        0328 -  8    00 02 00 75 00 73 00 65 
   959)       409.448 1  Rx        0025 -  8    02 9D 07 D5 07 DB 40 91 
   960)       410.002 1  Rx        00B1 -  3    00 10 73 
   961)       410.472 1  Rx        00B5 -  8    00 00 00 00 00 00 00 00 
   962)       410.941 1  Rx        0037 -  8    1F FE 00 00 10 7C A0 45 
   963)       411.453 1  Rx        0027 -  8    8A 6D 07 DB 00 00 42 72 
   964)       411.624 1  Rx        00AD -  5    01 00 00 60 50 
   965)       411.965 1  Rx        0095 -  7    00 00 00 00 00 50 28 
   966)       412.178 1  Rx        027A -  8    00 7A 00 00 01 6B EB 07 
   967)       412.946 1  Rx        00AB -  8    00 00 CD 0D 00 00 50 8F 
   968)       413.245 1  Rx        002B -  8    07 EB 08 00 08 08 A0 1C 
   969)       413.458 1  Rx        002F -  8    00 00 00 00 00 D7 80 00 
   970)       413.714 1  Rx        0087 -  8    00 00 00 00 00 66 90 CB 
   971)       413.928 1  Rx        0089 -  8    80 3F 80 6D 83 7A 90 7F 
   972)       414.184 1  Rx        008B -  8    00 00 00 00 00 00 00 00 
   973)       414.440 1  Rx        00A7 -  8    00 00 00 9E 40 9C 90 6E 
   974)       414.653 1  Rx        00B3 -  8    00 00 00 00 00 00 50 D4 
   975)       415.122 1  Rx        0023 -  8    10 12 10 00 00 00 F5 D3 
   976)       415.677 1  Rx        0091 -  8    01 FF 7F 00 00 00 50 4C 
   977)       416.445 1  Rx        0127 -  8    5A 81 64 00 E4 80 90 00 
   978)       416.573 1  Rx        0077 -  2    04 22 
   979)       416.829 1  Rx        03E0 -  8    00 31 43 34 47 4A 58 41 
   980)       417.042 1  Rx        026F -  8    00 C0 FF FF FF 7F 7F 7F 
   981)       417.298 1  Rx        02C6 -  8    41 03 01 13 00 00 00 00 
   982)       417.554 1  Rx        0035 -  8    07 DB 07 D5 00 3C 53 B3 
   983)       418.408 1  Rx        007B -  7    C7 DB 00 07 FC 30 07 
   984)       419.432 1  Rx        0025 -  8    02 9D 07 D5 07 DB 50 5C 
   985)       420.456 1  Rx        009D -  8    00 00 00 00 00 00 30 40 
   986)       420.968 1  Rx        0037 -  8    1F FE 00 00 10 7C B0 88 
   987)       421.437 1  Rx        0027 -  8    8A 6D 07 DB 00 00 52 BF 
   988)       421.949 1  Rx        0085 -  8    20 DD 04 00 00 02 79 14 
   989)       422.119 1  Rx        01CE -  4    AE 00 A0 A9 
   990)       422.375 1  Rx        03CD -  8    00 00 00 00 00 00 00 00 
   991)       422.589 1  Rx        0081 -  8    18 00 39 64 05 00 00 00 
   992)       422.973 1  Rx        0093 -  8    80 FC 50 00 00 00 51 DA 
   993)       423.229 1  Rx        002B -  8    07 E6 08 01 08 09 B0 49 
   994)       423.485 1  Rx        002F -  8    00 00 00 00 00 D8 80 00 
   995)       423.698 1  Rx        0071 -  8    07 DB 00 00 6D 00 A0 D4 
   996)       423.954 1  Rx        0079 -  8    80 00 00 00 00 00 A0 0A 
   997)       424.210 1  Rx        007F -  8    43 2F 00 00 00 00 FF FF 
   998)       424.466 1  Rx        0083 -  8    80 04 00 00 00 00 A0 0F 
   999)       424.679 1  Rx        007D -  6    00 7A 00 00 02 A0 
  1000)       424.807 1  Rx        0125 -  3    00 78 00 
  1001)       425.106 1  Rx        0023 -  8    10 12 10 00 00 00 05 AC 
  1002)       425.746 1  Rx        008D -  8    C6 C0 FF FF FF FF FF FF 
  1003)       426.429 1  Rx        015B -  8    00 00 00 00 00 00 1B C8 
  1004)       426.685 1  Rx        02A4 -  8    00 39 00 00 00 00 00 FF 
  1005)       426.941 1  Rx        009B -  8    2A 64 00 55 00 79 00 FF 
  1006)       427.197 1  Rx        0265 -  8    00 00 00 00 00 00 06 00 
  1007)       427.453 1  Rx        0035 -  8    07 DB 07 D6 00 3C 63 43 
  1008)       427.709 1  Rx        0381 -  8    89 8D 00 00 00 04 00 00 
  1009)       429.415 1  Rx        0025 -  8    02 9D 07 D6 07 DB 60 AC 
  1010)       430.013 1  Rx        00B1 -  3    00 20 39 
  1011)       430.439 1  Rx        00B5 -  8    00 00 00 00 00 00 00 00 
  1012)       430.909 1  Rx        0037 -  8    1F FE 00 00 10 7C C0 D1 
  1013)       431.463 1  Rx        0027 -  8    8A 6D 07 DB 00 00 62 F5 
  1014)       431.634 1  Rx        00AD -  5    01 00 00 70 9D 
  1015)       431.890 1  Rx        0095 -  7    00 00 00 00 00 60 62 
  1016)       432.914 1  Rx        00AB -  8    00 00 CD 0D 00 00 60 C5 
  1017)       433.213 1  Rx        002B -  8    07 E5 07 FF 08 09 C0 9D 
  1018)       433.469 1  Rx        002F -  8    00 00 00 00 00 D7 80 00 
  1019)       433.725 1  Rx        0087 -  8    00 00 00 00 00 65 A0 55 
  1020)       433.938 1  Rx        0089 -  8    80 3F 80 6D 83 7A A0 7F 
  1021)       434.194 1  Rx        008B -  8    00 00 00 00 00 00 00 00 
  1022)       434.450 1  Rx        00A7 -  8    00 00 00 9E 40 9B A0 DD 
  1023)       434.663 1  Rx        00B3 -  8    00 00 00 00 00 00 60 9E 
  1024)       435.133 1  Rx        0023 -  8    10 12 10 00 00 00 15 61 
  1025)       435.687 1  Rx        0091 -  8    01 FF 7F 00 00 00 60 06 
  1026)       436.455 1  Rx        0157 -  8    00 00 00 00 50 00 00 00 
  1027)       436.583 1  Rx        0077 -  2    04 22 
  1028)       436.839 1  Rx        0143 -  8    00 00 00 00 00 00 00 00 
  1029)       437.437 1  Rx        0035 -  8    07 DB 07 D6 00 3C 73 8E 
  1030)       438.418 1  Rx        007B -  7    C7 DB 00 07 FD 40 12 
  1031)       438.759 1  Rx        0328 -  8    00 00 00 00 00 00 00 00 
  1032)       439.442 1  Rx        0025 -  8    02 9B 07 D6 07 DB 70 E8 
  1033)       440.807 1  Rx        009D -  8    00 00 00 00 00 00 40 19 
  1034)       441.063 1  Rx        0037 -  8    1F FE 00 00 10 7C D0 1C 
  1035)       441.447 1  Rx        0027 -  8    8A 70 07 DB 00 00 72 65 
  1036)       441.959 1  Rx        0085 -  8    20 DD 04 00 00 02 78 18 
  1037)       442.429 1  Rx        0081 -  8    18 00 39 64 05 00 00 00 
  1038)       442.941 1  Rx        0093 -  8    80 FC 50 00 00 00 61 90 
  1039)       443.239 1  Rx        002B -  8    07 E6 08 01 08 08 D0 91 
  1040)       443.452 1  Rx        002F -  8    00 00 00 00 00 D8 80 00 
  1041)       443.708 1  Rx        0071 -  8    07 DB 00 00 6D 00 B0 19 
  1042)       443.964 1  Rx        0079 -  8    80 00 00 00 00 00 B0 C7 
  1043)       444.220 1  Rx        007F -  8    43 2F 00 00 00 00 FF FF 
  1044)       444.434 1  Rx        0083 -  8    80 04 00 00 00 00 B0 C2 
  1045)       444.647 1  Rx        007D -  6    00 7A 00 00 02 A0 
  1046)       444.903 1  Rx        00DD -  8    00 00 00 00 00 80 00 00 
  1047)       445.159 1  Rx        0023 -  8    10 12 10 00 00 00 25 2B 
  1048)       445.500 1  Rx        0318 -  8    00 00 00 00 00 00 FF 00 
  1049)       445.756 1  Rx        008D -  8    C6 C0 FF FF FF FF FF FF 
  1050)       446.439 1  Rx        013D -  8    00 00 33 7C 00 DC 28 04 
  1051)       446.823 1  Rx        009B -  8    2A 64 00 55 00 79 00 FF 
  1052)       447.079 1  Rx        0133 -  8    00 00 00 00 FF 03 0C FF 
  1053)       447.463 1  Rx        0035 -  8    07 DB 07 D6 00 3C 83 F1 
  1054)       449.426 1  Rx        0025 -  8    02 9B 07 D6 07 DB 80 97 
  1055)       450.023 1  Rx        00B1 -  3    00 30 F4 
  1056)       450.450 1  Rx        00B5 -  8    00 00 00 00 00 00 00 00 
  1057)       450.919 1  Rx        0037 -  8    1F FE 00 00 10 7C E0 56 
  1058)       451.431 1  Rx        0027 -  8    8A 70 07 DB 00 00 82 1A 
  1059)       451.644 1  Rx        00AD -  5    01 00 00 80 E2 
  1060)       451.900 1  Rx        0095 -  7    00 00 00 00 00 70 AF 
  1061)       452.156 1  Rx        02F2 -  8    00 00 00 00 00 AD 00 00 
  1062)       452.412 1  Rx        03AC -  8    00 00 00 01 19 00 01 C6 
  1063)       452.924 1  Rx        00AB -  8    00 00 CD 0D 00 00 70 08 
  1064)       453.223 1  Rx        002F -  8    00 00 00 00 00 D8 80 00 
  1065)       453.479 1  Rx        002B -  8    07 E0 07 FF 08 08 E0 15 
  1066)       453.735 1  Rx        0087 -  8    00 00 00 00 00 65 B0 98 
  1067)       453.948 1  Rx        0089 -  8    80 47 80 6D 83 7A B0 7F 
  1068)       454.204 1  Rx        008B -  8    00 00 00 00 00 00 00 00 
  1069)       454.418 1  Rx        00A7 -  8    00 00 00 9E 40 9B B0 10 
  1070)       454.674 1  Rx        00B3 -  8    00 00 00 00 00 00 70 53 
  1071)       455.058 1  Rx        0023 -  8    10 12 10 00 00 00 34 FB 
  1072)       455.698 1  Rx        0091 -  8    01 FF 7F 00 00 00 70 CB 
  1073)       456.380 1  Rx        0121 -  5    40 00 54 14 00 
  1074)       456.594 1  Rx        0077 -  2    04 22 
  1075)       457.447 1  Rx        0035 -  8    07 DB 07 D6 00 3C 93 3C 
  1076)       458.514 1  Rx        007B -  7    C7 DB 00 07 FC 50 93 
  1077)       459.452 1  Rx        0025 -  8    02 9B 07 D6 07 DB 90 5A 
  1078)       460.434 1  Rx        009D -  8    00 00 00 00 00 00 50 D4 
  1079)       460.946 1  Rx        0037 -  8    1F FE 00 00 10 7C F0 9B 
  1080)       461.458 1  Rx        0027 -  8    8A 70 07 DB 00 00 92 D7 
  1081)       461.970 1  Rx        0085 -  8    20 DD 04 00 00 02 79 1C 
  1082)       462.439 1  Rx        0081 -  8    18 00 39 64 05 00 00 00 
  1083)       462.951 1  Rx        0093 -  8    80 FC 50 00 00 00 71 5D 
  1084)       463.250 1  Rx        002B -  8    07 E4 07 FD 08 08 F0 FA 
  1085)       463.463 1  Rx        002F -  8    00 00 00 00 00 D8 80 00 
  1086)       463.719 1  Rx        0071 -  8    07 DB 00 00 6D 00 C0 40 
  1087)       463.975 1  Rx        0079 -  8    80 00 00 00 00 00 C0 9E 
  1088)       464.188 1  Rx        007F -  8    43 2F 00 00 00 00 FF FF 
  1089)       464.444 1  Rx        0083 -  8    80 04 00 00 00 00 C0 9B 
  1090)       464.657 1  Rx        007D -  6    00 7A 00 00 02 A0 
  1091)       465.084 1  Rx        0023 -  8    10 12 10 00 00 00 44 A2 
  1092)       465.724 1  Rx        008D -  8    C6 C0 FF FF FF FF FF FF 
  1093)       466.449 1  Rx        03E1 -  7    24 16 00 1C 00 FF FF 
  1094)       466.791 1  Rx        009B -  8    2A 64 00 55 00 79 00 FF 
  1095)       467.004 1  Rx        012B -  8    9E 18 90 5A 21 FF 8D FF 
  1096)       467.260 1  Rx        013F -  8    5B 58 C4 2E 01 74 00 00 
  1097)       467.516 1  Rx        0035 -  8    07 DB 07 D6 00 3C A3 76 
  1098)       468.071 1  Rx        0129 -  4    32 00 00 00 
  1099)       469.436 1  Rx        0025 -  8    02 9B 07 D6 07 DB A0 10 
  1100)       469.649 1  Rx        0328 -  8    50 43 00 44 00 6F 00 6E 
  1101)       470.033 1  Rx        00B1 -  3    00 40 AD 
  1102)       470.460 1  Rx        00B5 -  8    00 00 00 00 00 00 00 00 
  1103)       470.972 1  Rx        0037 -  8    1F FE 00 00 10 7C 00 E4 
  1104)       471.441 1  Rx        0027 -  8    8A 6B 07 DB 00 00 A2 49 
  1105)       471.655 1  Rx        00AD -  5    01 00 00 90 2F 
  1106)       471.953 1  Rx        0095 -  7    00 00 00 00 00 80 D0 
  1107)       472.124 1  Rx        01CE -  4    AE 00 B0 64 
  1108)       472.977 1  Rx        00AB -  8    00 00 CD 0D 00 00 80 77 
  1109)       473.233 1  Rx        002B -  8    07 EB 08 01 08 09 00 6C 
  1110)       473.489 1  Rx        002F -  8    00 00 00 00 00 D7 80 00 
  1111)       473.703 1  Rx        0087 -  8    00 00 00 00 00 65 C0 C1 
  1112)       473.959 1  Rx        0089 -  8    80 3F 80 6D 83 7A C0 7F 
  1113)       474.215 1  Rx        008B -  8    00 00 00 00 00 00 00 00 
  1114)       474.428 1  Rx        00A7 -  8    00 00 00 9E 40 9C C0 B0 
  1115)       474.684 1  Rx        00B3 -  8    00 00 00 00 00 00 80 2C 
  1116)       475.111 1  Rx        0023 -  8    10 12 10 00 00 00 54 6F 
  1117)       475.708 1  Rx        0091 -  8    01 FF 7F 00 00 00 80 B4 
  1118)       476.433 1  Rx        014E -  8    08 14 0A 1E E1 00 05 39 
  1119)       476.561 1  Rx        0077 -  2    04 22 
  1120)       477.457 1  Rx        0035 -  8    07 DB 07 D6 00 3C B3 BB 
  1121)       478.140 1  Rx        01C0 -  6    00 00 00 00 00 00 
  1122)       478.439 1  Rx        007B -  7    C7 DB 00 07 FC 60 D9 
  1123)       479.420 1  Rx        0025 -  8    02 9B 07 D6 07 DB B0 DD 
  1124)       480.444 1  Rx        009D -  8    00 00 00 00 00 00 60 9E 
  1125)       480.913 1  Rx        0037 -  8    1F FE 00 00 10 7C 10 29 
  1126)       481.425 1  Rx        0027 -  8    8A 6B 07 DB 00 00 B2 84 
  1127)       481.895 1  Rx        0085 -  8    20 DD 04 00 00 02 75 20 
  1128)       482.449 1  Rx        0081 -  8    18 00 39 64 05 00 00 00 
  1129)       482.919 1  Rx        0093 -  8    80 FC 50 00 00 00 81 22 
  1130)       483.260 1  Rx        002F -  8    00 00 00 00 00 D7 80 00 
  1131)       483.473 1  Rx        002B -  8    07 E7 08 00 08 09 10 33 
  1132)       483.729 1  Rx        0071 -  8    07 DB 00 00 6D 00 D0 8D 
  1133)       483.985 1  Rx        0079 -  8    80 00 00 00 00 00 D0 53 
  1134)       484.241 1  Rx        007F -  8    43 2F 00 00 00 00 FF FF 
  1135)       484.412 1  Rx        007D -  6    00 7A 00 00 02 A0 
  1136)       484.668 1  Rx        0083 -  8    80 04 00 00 00 00 D0 56 
  1137)       485.095 1  Rx        0023 -  8    10 12 10 00 00 00 64 25 
  1138)       485.734 1  Rx        008D -  8    C6 C0 FF FF FF FF FF FF 
  1139)       486.716 1  Rx        009B -  8    2A 64 00 55 00 79 00 FF 
  1140)       487.441 1  Rx        0035 -  8    07 DB 07 D9 00 3C C3 8A 
  1141)       487.868 1  Rx        0128 -  8    00 28 34 6C 01 83 06 3D 
  1142)       489.446 1  Rx        0025 -  8    02 9B 07 D9 07 DB C0 EC 
  1143)       490.044 1  Rx        00B1 -  3    00 50 60 
  1144)       490.470 1  Rx        00B5 -  8    00 00 00 00 00 00 00 00 
  1145)       490.897 1  Rx        0037 -  8    1F FE 00 00 10 7C 20 63 
  1146)       491.452 1  Rx        0027 -  8    8A 6B 07 DB 00 00 C2 DD 
  1147)       491.622 1  Rx        00AD -  5    01 00 00 A0 65 
  1148)       491.878 1  Rx        0095 -  7    00 00 00 00 00 90 1D 
  1149)       492.902 1  Rx        00AB -  8    00 00 CD 0D 00 00 90 BA 
  1150)       493.244 1  Rx        002F -  8    00 00 00 00 00 D7 80 00 
  1151)       493.457 1  Rx        002B -  8    07 E6 07 FF 08 09 20 E5 
  1152)       493.713 1  Rx        0087 -  8    00 00 00 00 00 65 D0 0C 
  1153)       493.926 1  Rx        0089 -  8    80 47 80 6D 83 7A D0 7F 
  1154)       494.182 1  Rx        008B -  8    00 00 00 00 00 00 00 00 
  1155)       494.438 1  Rx        00A7 -  8    00 00 00 9E 40 9C D0 7D 
  1156)       494.694 1  Rx        00B3 -  8    00 00 00 00 00 00 90 E1 
  1157)       494.908 1  Rx        00DD -  8    00 00 00 00 00 80 00 00 
  1158)       495.164 1  Rx        0023 -  8    10 12 10 00 00 00 74 E8 
  1159)       495.718 1  Rx        0091 -  8    01 FF 7F 00 00 00 90 79 
  1160)       496.700 1  Rx        0077 -  2    04 22 
  1161)       496.998 1  Rx        0403 -  8    FD 07 3F FF FF FF FF FF 
  1162)       497.468 1  Rx        0035 -  8    07 DB 07 D9 00 3C D3 47 
  1163)       497.852 1  Rx        0328 -  8    40 03 00 27 00 74 00 20 
  1164)       498.406 1  Rx        007B -  7    C7 DB 00 07 FD 70 58 
  1165)       499.430 1  Rx        0025 -  8    02 9B 07 D9 07 DB D0 21 
  1166)       500.454 1  Rx        009D -  8    00 00 00 00 00 00 70 53 
  1167)       500.924 1  Rx        0037 -  8    1F FE 00 00 10 7C 30 AE 
  1168)       501.436 1  Rx        0027 -  8    8A 68 07 DB 00 00 D2 DA 
  1169)       501.905 1  Rx        0085 -  8    20 DD 04 00 00 02 7B 24 
  1170)       502.161 1  Rx        03AD -  8    00 CA 00 00 00 00 00 00 
  1171)       502.460 1  Rx        0081 -  8    18 00 39 64 05 00 00 00 
  1172)       502.929 1  Rx        0093 -  8    80 FC 50 00 00 00 91 EF 
  1173)       503.228 1  Rx        002B -  8    07 E6 08 00 08 0A 30 26 
  1174)       503.484 1  Rx        002F -  8    00 00 00 00 00 D7 80 00 
  1175)       503.740 1  Rx        0071 -  8    07 DB 00 00 6D 00 E0 C7 
  1176)       503.953 1  Rx        0079 -  8    80 00 00 00 00 00 E0 19 
  1177)       504.209 1  Rx        007F -  8    43 2F 00 00 00 00 FF FF 
  1178)       504.465 1  Rx        0083 -  8    80 04 00 00 00 00 E0 1C 
  1179)       504.678 1  Rx        007D -  6    00 7A 00 00 02 A0 
  1180)       505.105 1  Rx        0023 -  8    10 11 0F FF 00 00 88 F5 
  1181)       505.745 1  Rx        008D -  8    C6 C0 FF FF FF FF FF FF 
  1182)       506.470 1  Rx        0137 -  8    00 00 00 00 00 00 01 0D 
  1183)       506.684 1  Rx        014D -  8    7A 7A 92 91 03 16 05 00 
  1184)       506.940 1  Rx        009B -  8    2A 64 00 55 00 79 00 FF 
  1185)       507.451 1  Rx        0035 -  8    07 DB 07 D9 00 3C E3 0D 
  1186)       509.457 1  Rx        0025 -  8    02 9B 07 D9 07 DB E0 6B 
  1187)       510.011 1  Rx        00B1 -  3    00 60 2A 
  1188)       510.438 1  Rx        00B5 -  8    00 00 00 00 00 00 00 00 
  1189)       510.907 1  Rx        0037 -  8    1F FE 00 00 10 7C 40 F7 
  1190)       511.462 1  Rx        0027 -  8    8A 68 07 DB 00 00 E2 90 
  1191)       511.633 1  Rx        00AD -  5    01 00 00 B0 A8 
  1192)       511.889 1  Rx        0095 -  7    00 00 00 00 00 A0 57 
  1193)       512.913 1  Rx        00AB -  8    00 00 CD 0D 00 00 A0 F0 
  1194)       513.254 1  Rx        002B -  8    07 E0 07 FF 08 08 40 B4 
  1195)       513.467 1  Rx        002F -  8    00 00 00 00 00 D7 80 00 
  1196)       513.723 1  Rx        0087 -  8    00 00 00 00 00 65 E0 46 
  1197)       513.937 1  Rx        0089 -  8    80 47 80 6D 83 7A E0 7F 
  1198)       514.193 1  Rx        008B -  8    00 00 00 00 00 00 00 00 
  1199)       514.449 1  Rx        00A7 -  8    00 00 00 9E 40 9C E0 37 
  1200)       514.705 1  Rx        00B3 -  8    00 00 00 00 00 00 A0 AB 
  1201)       515.089 1  Rx        0023 -  8    10 12 10 00 00 00 94 5A 
  1202)       515.686 1  Rx        0091 -  8    01 FF 7F 00 00 00 A0 33 
  1203)       516.454 1  Rx        0127 -  8    5A 81 64 00 E3 80 90 00 
  1204)       516.582 1  Rx        0077 -  2    04 22 
  1205)       516.838 1  Rx        03E0 -  8    01 47 32 4A 57 32 39 34 
  1206)       517.435 1  Rx        0035 -  8    07 DB 07 D7 00 3C F3 35 
  1207)       518.417 1  Rx        007B -  7    C7 DB 00 07 FB 80 92 
  1208)       519.441 1  Rx        0025 -  8    02 9B 07 D7 07 DB F0 53 
  1209)       520.465 1  Rx        009D -  8    00 00 00 00 00 00 80 2C 
  1210)       520.891 1  Rx        0037 -  8    1F FE 00 00 10 7C 50 3A 
  1211)       521.446 1  Rx        0027 -  8    8A 68 07 DB 00 00 F2 5D 
  1212)       521.915 1  Rx        0085 -  8    20 DD 04 00 00 02 78 28 
  1213)       522.086 1  Rx        01CE -  4    AE 00 C0 3D 
  1214)       522.470 1  Rx        0081 -  8    18 00 39 64 05 00 00 00 
  1215)       522.897 1  Rx        0093 -  8    80 FC 50 00 00 00 A1 A5 
  1216)       523.238 1  Rx        002B -  8    07 E2 07 FE 08 08 50 68 
  1217)       523.494 1  Rx        002F -  8    00 00 00 00 00 D7 80 00 
  1218)       523.707 1  Rx        0071 -  8    07 DB 00 00 6D 00 F0 0A 
  1219)       523.963 1  Rx        0079 -  8    80 00 00 00 00 00 F0 D4 
  1220)       524.219 1  Rx        007F -  8    43 2F 00 00 00 00 FF FF 
  1221)       524.475 1  Rx        0083 -  8    80 04 00 00 00 00 F0 D1 
  1222)       524.689 1  Rx        007D -  6    00 7A 00 00 02 A0 
  1223)       524.859 1  Rx        0125 -  3    00 78 00 
  1224)       525.115 1  Rx        0023 -  8    10 12 10 00 00 00 A4 10 
  1225)       525.755 1  Rx        008D -  8    C6 C0 FF FF FF FF FF FF 
  1226)       526.438 1  Rx        015B -  8    00 00 00 00 00 00 1B C8 
  1227)       526.694 1  Rx        02A4 -  8    00 39 00 00 00 00 00 FF 
  1228)       526.950 1  Rx        009B -  8    2A 64 00 55 00 79 00 FF 
  1229)       527.462 1  Rx        0035 -  8    07 DB 07 D7 00 3C 03 4A 
  1230)       528.784 1  Rx        0328 -  8    30 03 00 54 00 72 00 65 
  1231)       529.424 1  Rx        0025 -  8    02 96 07 D7 07 DB 00 65 
  1232)       530.022 1  Rx        00B1 -  3    00 70 E7 
  1233)       530.448 1  Rx        00B5 -  8    00 00 00 00 00 00 00 00 
  1234)       530.918 1  Rx        0037 -  8    1F FE 00 00 10 7C 60 70 
  1235)       531.472 1  Rx        0027 -  8    8A 69 07 DB 00 00 02 64 
  1236)       531.643 1  Rx        00AD -  5    01 00 00 C0 F1 
  1237)       531.899 1  Rx        0095 -  7    00 00 00 00 00 B0 9A 
  1238)       532.112 1  Rx        03C7 -  4    01 00 90 95 
  1239)       532.923 1  Rx        00AB -  8    00 00 CD 0D 00 00 B0 3D 
  1240)       533.222 1  Rx        002F -  8    00 00 00 00 00 D8 80 00 
  1241)       533.478 1  Rx        002B -  8    07 EA 07 FF 08 09 60 F9 
  1242)       533.691 1  Rx        0087 -  8    00 00 00 00 00 65 F0 8B 
  1243)       533.947 1  Rx        0089 -  8    80 3F 80 6D 83 7A F0 7F 
  1244)       534.203 1  Rx        008B -  8    00 00 00 00 00 00 00 00 
  1245)       534.459 1  Rx        00A7 -  8    00 00 00 9E 40 9B F0 03 
  1246)       534.672 1  Rx        00B3 -  8    00 00 00 00 00 00 B0 66 
  1247)       535.099 1  Rx        0023 -  8    10 12 10 00 00 00 B4 DD 
  1248)       535.696 1  Rx        0091 -  8    01 FF 7F 00 00 00 B0 FE 
  1249)       536.464 1  Rx        0157 -  8    00 00 00 00 50 00 00 00 
  1250)       536.592 1  Rx        0077 -  2    04 22 
  1251)       536.848 1  Rx        0143 -  8    00 00 00 00 00 00 00 00 
  1252)       537.446 1  Rx        0035 -  8    07 DB 07 D7 00 3C 13 87 
  1253)       538.427 1  Rx        007B -  7    C7 DB 00 07 FB 90 5F 
  1254)       539.451 1  Rx        0025 -  8    02 96 07 D7 07 DB 10 A8 
  1255)       540.432 1  Rx        009D -  8    00 00 00 00 00 00 90 E1 
  1256)       540.902 1  Rx        0037 -  8    1F FE 00 00 10 7C 70 BD 
  1257)       541.456 1  Rx        0027 -  8    8A 69 07 DB 00 00 12 A9 
  1258)       541.926 1  Rx        0085 -  8    20 DD 04 00 00 02 78 2C 
  1259)       542.438 1  Rx        0081 -  8    18 00 39 64 05 00 00 00 
  1260)       542.907 1  Rx        0093 -  8    80 FC 50 00 00 00 B1 68 
  1261)       543.248 1  Rx        002B -  8    07 E7 08 01 08 09 70 3A 
  1262)       543.462 1  Rx        002F -  8    00 00 00 00 00 D8 80 00 
  1263)       543.718 1  Rx        0071 -  8    07 DB 00 00 6D 00 00 75 
  1264)       543.974 1  Rx        0079 -  8    80 00 00 00 00 00 00 AB 
  1265)       544.230 1  Rx        007F -  8    43 2F 00 00 00 00 FF FF 
  1266)       544.443 1  Rx        0083 -  8    80 04 00 00 00 00 00 AE 
  1267)       544.656 1  Rx        007D -  6    00 7A 00 00 02 A0 
  1268)       544.912 1  Rx        00DD -  8    00 00 00 00 00 80 00 00 
  1269)       545.168 1  Rx        0023 -  8    10 12 10 00 00 00 C4 84 
  1270)       545.424 1  Rx        01A1 -  8    00 00 80 00 00 00 00 00 
  1271)       545.638 1  Rx        0318 -  8    00 00 00 00 00 00 FF 00 
  1272)       545.894 1  Rx        008D -  8    C6 C0 FF FF FF FF FF FF 
  1273)       546.448 1  Rx        013D -  8    00 00 33 7C 00 E0 28 04 
  1274)       546.832 1  Rx        009B -  8    2A 64 00 55 00 79 00 FF 
  1275)       547.088 1  Rx        0133 -  8    00 00 00 00 FF 03 0C FF 
  1276)       547.472 1  Rx        0035 -  8    07 DB 07 DB 00 3C 23 1F 
  1277)       549.435 1  Rx        0025 -  8    02 96 07 DB 07 DB 20 30 
  1278)       550.032 1  Rx        00B1 -  3    00 80 98 
  1279)       550.459 1  Rx        00B5 -  8    00 00 00 00 00 00 00 00 
  1280)       550.928 1  Rx        0037 -  8    1F FE 00 00 10 7C 80 C2 
  1281)       551.483 1  Rx        0027 -  8    8A 69 07 DB 00 00 22 E3 
  1282)       551.653 1  Rx        00AD -  5    01 00 00 D0 3C 
  1283)       551.952 1  Rx        0095 -  7    00 00 00 00 00 C0 C3 
  1284)       552.165 1  Rx        02F2 -  8    00 00 00 00 00 AD 00 00 
  1285)       552.421 1  Rx        03AE -  8    00 56 00 00 00 00 00 00 
  1286)       552.933 1  Rx        00AB -  8    00 00 CD 0D 00 00 C0 64 
  1287)       553.232 1  Rx        002F -  8    00 00 00 00 00 D7 80 00 
  1288)       553.488 1  Rx        002B -  8    07 E7 07 FE 08 08 80 D3 
  1289)       553.701 1  Rx        0087 -  8    00 00 00 00 00 65 00 F4 
  1290)       553.957 1  Rx        0089 -  8    80 47 80 6D 83 7A 00 7F 
  1291)       554.213 1  Rx        008B -  8    00 00 00 00 00 00 00 00 
  1292)       554.427 1  Rx        00A7 -  8    00 00 00 9E 40 9C 00 85 
  1293)       554.683 1  Rx        00B3 -  8    00 00 00 00 00 00 C0 3F 
  1294)       555.109 1  Rx        0023 -  8    10 12 10 00 00 00 D4 49 
  1295)       555.963 1  Rx        0091 -  8    01 FF 7F 00 00 00 C0 A7 
  1296)       556.389 1  Rx        0121 -  5    40 00 54 14 00 
  1297)       556.603 1  Rx        0077 -  2    04 22 
  1298)       557.456 1  Rx        0035 -  8    07 DB 07 DB 00 3C 33 D2 
  1299)       558.437 1  Rx        007B -  7    C7 DB 00 07 F9 A0 8D 
  1300)       558.779 1  Rx        0328 -  8    20 03 00 61 00 74 00 20 
  1301)       559.461 1  Rx        0025 -  8    02 99 07 DB 07 DB 30 38 
  1302)       560.443 1  Rx        009D -  8    00 00 00 00 00 00 A0 AB 
  1303)       560.955 1  Rx        0037 -  8    1F FE 00 00 10 7C 90 0F 
  1304)       561.467 1  Rx        0027 -  8    8A 6D 07 DB 00 00 32 2B 
  1305)       561.936 1  Rx        0085 -  8    20 DD 04 00 00 02 74 30 
  1306)       562.448 1  Rx        0081 -  8    18 00 39 64 05 00 00 00 
  1307)       562.960 1  Rx        0093 -  8    80 FC 50 00 00 00 C1 31 
  1308)       563.259 1  Rx        002F -  8    00 00 00 00 00 D7 80 00 
  1309)       563.472 1  Rx        002B -  8    07 E8 08 00 08 0A 90 04 
  1310)       563.728 1  Rx        0071 -  8    07 DB 00 00 6D 00 10 B8 
  1311)       563.984 1  Rx        0079 -  8    80 00 00 00 00 00 10 66 
  1312)       564.197 1  Rx        007F -  8    43 2F 00 00 00 00 FF FF 
  1313)       564.453 1  Rx        0083 -  8    80 04 00 00 00 00 10 63 
  1314)       564.667 1  Rx        007D -  6    00 7A 00 00 02 A0 
  1315)       565.093 1  Rx        0023 -  8    10 12 10 00 00 00 E4 03 
  1316)       565.733 1  Rx        008D -  8    C6 C0 FF FF FF FF FF FF 
  1317)       566.416 1  Rx        03E1 -  7    24 16 00 1C 00 FF FF 
  1318)       566.800 1  Rx        009B -  8    2A 64 00 55 00 79 00 FF 
  1319)       567.013 1  Rx        012B -  8    9E 18 90 5A 21 FF 8E FF 
  1320)       567.269 1  Rx        013F -  8    5B 58 C4 17 01 74 00 00 
  1321)       567.525 1  Rx        0035 -  8    07 DB 07 DB 00 3C 43 8B 
  1322)       568.080 1  Rx        0129 -  4    32 00 00 00 
  1323)       569.445 1  Rx        0025 -  8    02 99 07 DB 07 DB 40 61 
  1324)       570.043 1  Rx        00B1 -  3    00 90 55 
  1325)       570.469 1  Rx        00B5 -  8    00 00 00 00 00 00 00 00 
  1326)       570.939 1  Rx        0037 -  8    1F FE 00 00 10 7C A0 45 
  1327)       571.450 1  Rx        0027 -  8    8A 6D 07 DB 00 00 42 72 
  1328)       571.621 1  Rx        00AD -  5    01 00 00 E0 76 
  1329)       571.920 1  Rx        0095 -  7    00 00 00 00 00 D0 0E 
  1330)       572.133 1  Rx        01CE -  4    AE 00 D0 F0 
  1331)       572.944 1  Rx        00AB -  8    00 00 CD 0D 00 00 D0 A9 
  1332)       573.242 1  Rx        002F -  8    00 00 00 00 00 D8 80 00 
  1333)       573.498 1  Rx        002B -  8    07 E1 07 FF 08 08 A0 40 
  1334)       573.712 1  Rx        0087 -  8    00 00 00 00 00 66 10 ED 
  1335)       573.968 1  Rx        0089 -  8    80 3F 80 6D 83 7C 10 7F 
  1336)       574.224 1  Rx        008B -  8    00 00 00 00 00 00 00 00 
  1337)       574.437 1  Rx        00A7 -  8    00 00 00 9E 40 9B 10 B1 
  1338)       574.693 1  Rx        00B3 -  8    00 00 00 00 00 00 D0 F2 
  1339)       575.120 1  Rx        0023 -  8    10 12 10 00 00 00 F4 CE 
  1340)       575.717 1  Rx        0091 -  8    01 FF 7F 00 00 00 D0 6A 
  1341)       576.442 1  Rx        014E -  8    08 14 0A 1E E1 00 05 39 
  1342)       576.570 1  Rx        0077 -  2    04 22 
  1343)       577.466 1  Rx        0035 -  8    07 DB 07 D8 00 3C 53 FC 
  1344)       578.448 1  Rx        007B -  7    C7 DB 00 07 FA B0 94 
  1345)       579.429 1  Rx        0025 -  8    02 99 07 D8 07 DB 50 16 
  1346)       580.453 1  Rx        009D -  8    00 00 00 00 00 00 B0 66 
  1347)       580.922 1  Rx        0037 -  8    1F FE 00 00 10 7C B0 88 
  1348)       581.477 1  Rx        0027 -  8    8A 6D 07 DB 00 00 52 BF 
  1349)       581.904 1  Rx        0085 -  8    20 DD 04 00 00 02 75 34 
  1350)       582.458 1  Rx        0081 -  8    18 00 39 64 05 00 00 00 
  1351)       582.928 1  Rx        0093 -  8    80 FC 50 00 00 00 D1 FC 
  1352)       583.226 1  Rx        002B -  8    07 E3 07 FC 08 09 B0 F7 
  1353)       583.482 1  Rx        002F -  8    00 00 00 00 00 D7 80 00 
  1354)       583.738 1  Rx        0071 -  8    07 DB 00 00 6D 00 20 F2 
  1355)       583.994 1  Rx        0079 -  8    80 00 00 00 00 00 20 2C 
  1356)       584.208 1  Rx        007F -  8    43 2F 00 00 00 00 FF FF 
  1357)       584.464 1  Rx        0083 -  8    80 04 00 00 00 00 20 29 
  1358)       584.677 1  Rx        007D -  6    00 7A 00 00 02 A0 
  1359)       584.933 1  Rx        0407 -  8    FD 09 04 0F E0 FF FF 00 
  1360)       585.146 1  Rx        0023 -  8    10 12 10 00 00 00 04 B1 
  1361)       585.744 1  Rx        008D -  8    C6 C0 FF FF FF FF FF FF 
  1362)       586.725 1  Rx        009B -  8    2A 64 00 55 00 79 00 FF 
  1363)       587.450 1  Rx        0035 -  8    07 DB 07 D8 00 3C 63 B6 
  1364)       588.176 1  Rx        0128 -  8    00 28 34 6C 01 84 06 42 
  1365)       588.432 1  Rx        0328 -  8    10 03 00 4D 00 65 00 20 
  1366)       589.456 1  Rx        0025 -  8    02 9B 07 D8 07 DB 60 D0 
  1367)       590.053 1  Rx        00B1 -  3    00 A0 1F 
  1368)       590.480 1  Rx        00B5 -  8    00 00 00 00 00 00 00 00 
  1369)       590.906 1  Rx        0037 -  8    1F FE 00 00 10 7C C0 D1 
  1370)       591.461 1  Rx        0027 -  8    8A 6A 07 DB 00 00 62 3A 
  1371)       591.632 1  Rx        00AD -  5    01 00 00 F0 BB 
  1372)       591.888 1  Rx        0095 -  7    00 00 00 00 00 E0 44 
  1373)       592.911 1  Rx        00AB -  8    00 00 CD 0D 00 00 E0 E3 
  1374)       593.210 1  Rx        002F -  8    00 00 00 00 00 D7 80 00 
  1375)       593.466 1  Rx        002B -  8    07 EA 08 00 08 08 C0 CE 
  1376)       593.722 1  Rx        0087 -  8    00 00 00 00 00 66 20 A7 
  1377)       593.935 1  Rx        0089 -  8    80 3F 80 6D 83 7A 20 7F 
  1378)       594.191 1  Rx        008B -  8    00 00 00 00 00 00 00 00 
  1379)       594.447 1  Rx        00A7 -  8    00 00 00 9E 40 9C 20 02 
  1380)       594.661 1  Rx        00B3 -  8    00 00 00 00 00 00 E0 B8 
  1381)       594.917 1  Rx        00DD -  8    00 00 00 00 00 80 00 00 
  1382)       595.173 1  Rx        0023 -  8    10 12 10 00 00 00 14 7C 
  1383)       595.727 1  Rx        0091 -  8    01 FF 7F 00 00 00 E0 20 
  1384)       596.709 1  Rx        0077 -  2    04 22 
  1385)       597.434 1  Rx        0035 -  8    07 DB 07 D8 00 3C 73 7B 
  1386)       598.415 1  Rx        007B -  7    C7 DB 00 07 FA C0 CD 
