;$FILEVERSION=2.0
;$STARTTIME=44455.6485714005
;$COLUMNS=N,O,T,I,d,l,D
;
;   Start time: 9/16/2021 15:33:56.569.0
;   Generated by PCAN-View v4.3.4.615
;-------------------------------------------------------------------------------
;   Connection                 Bit rate
;   PCANLight_USB_16@pcan_usb  Nominal 125 kBit/s, Data 2 MBit/s
;-------------------------------------------------------------------------------
;   Message   Time    Type ID     Rx/Tx
;   Number    Offset  |    [hex]  |  Data Length
;   |         [ms]    |    |      |  |  Data [hex] ...
;   |         |       |    |      |  |  |
;---+-- ------+------ +- --+----- +- +- +- +- -- -- -- -- -- -- --
      1      4737.246 DT     0401 Rx 8  FE 01 04 02 01 02 8E 01 
      2      4744.351 DT     0403 Rx 8  FE 03 3F FF FF FF FF FF 
      3      4745.335 DT     024E Rx 8  FF FF 1C 00 00 00 FF FF 
      4      4746.295 DT     02C6 Rx 8  41 23 05 13 00 00 00 01 
      5      4747.303 DT     02FF Rx 8  00 00 00 00 FF FF FF FF 
      6      4749.246 DT     033B Rx 8  00 FF 01 E7 00 00 E4 00 
      7      4754.198 DT     0230 Rx 8  00 6A 36 08 00 00 00 00 
      8      4755.054 DT     01C0 Rx 6  00 00 00 00 00 00 
      9      4756.022 DT     0252 Rx 8  03 00 0F FB 80 00 80 80 
     10      4757.030 DT     0318 Rx 8  00 00 00 00 00 00 FF 00 
     11      4759.166 DT     034E Rx 8  7F 7F 7F 7F 7F 0F 00 7F 
     12      4760.333 DT     043C Rx 8  FE 3C 04 02 00 02 00 01 
     13      4761.325 DT     043F Rx 8  FE 3F 3F FF FF FF FF FF 
     14      4761.821 DT     012B Rx 1  00 
     15      4762.804 DT     02D3 Rx 8  07 00 00 00 00 00 00 00 
     16      4764.269 DT     033C Rx 8  00 00 03 E8 00 00 00 00 
     17      4765.252 DT     02C3 Rx 8  04 04 00 01 00 00 FF 00 
     18      4765.924 DT     03C9 Rx 4  7B 44 00 00 
     19      4766.900 DT     03F4 Rx 8  11 0F FF 20 02 00 00 84 
     20      4769.196 DT     033A Rx 8  1A 0E 2F 7F 7F 7F 7F 7F 
     21      4770.619 DT     022F Rx 1  01 
     22      4772.466 DT     0273 Rx 8  00 00 00 00 00 00 00 00 
     23      4774.250 DT     030E Rx 8  00 E4 1C FE 07 FF 07 FF 
     24      4774.914 DT     02C2 Rx 4  1A 97 79 00 
     25      4775.442 DT     0339 Rx 2  F0 F0 
     26      4781.129 DT     02F3 Rx 8  08 00 00 00 00 00 00 00 
     27      4782.480 DT     02D4 Rx 8  00 00 00 00 00 00 00 00 
     28      4784.608 DT     0122 Rx 4  00 01 00 00 
     29      4785.600 DT     0232 Rx 8  FF FF 00 FF 00 00 00 01 
     30      4786.536 DT     03F2 Rx 8  5D 02 B2 01 09 20 10 06 
     31      4791.176 DT     0302 Rx 8  00 00 00 00 00 00 00 00 
     32      4794.911 DT     0248 Rx 8  00 00 FF FF FF 03 FF FF 
     33      4795.911 DT     039E Rx 8  00 00 00 00 00 00 00 00 
     34      4800.823 DT     030D Rx 4  00 00 00 00 
     35      4801.766 DT     0328 Rx 8  40 41 00 4D 00 55 00 53 
     36      4804.662 DT     01C8 Rx 4  00 00 00 00 
     37      4805.637 DT     02FA Rx 8  03 01 00 1A 00 FF 00 00 
     38      4811.045 DT     030F Rx 7  00 0A 0A 0A 0A 0A 00 
     39      4814.381 DT     03CD Rx 8  00 00 00 00 00 00 00 00 
     40      4815.373 DT     03B4 Rx 8  35 80 00 00 00 00 04 00 
     41      4816.332 DT     03EB Rx 8  43 E8 10 04 0F A0 09 C4 
     42      4821.132 DT     0317 Rx 8  00 00 00 00 00 00 3A 00 
     43      4824.924 DT     02AD Rx 8  00 00 00 00 00 00 00 00 
     44      4825.924 DT     0322 Rx 8  FF FF 00 00 3F FF FF FF 
     45      4826.860 DT     03EA Rx 8  41 57 2C 08 B5 34 41 A4 
     46      4831.131 DT     0328 Rx 8  30 01 00 49 00 43 00 20 
     47      4834.883 DT     0332 Rx 8  18 FF FF 41 FF 08 FF 00 
     48      4835.842 DT     03E9 Rx 8  01 58 66 00 25 25 00 00 
     49      4836.834 DT     0401 Rx 8  FD 03 3F FF FF FF FF FF 
     50      4840.754 DT     032F Rx 3  00 00 00 
     51      4845.137 DT     024E Rx 8  FF FF 1C 00 00 00 FF FF 
     52      4846.144 DT     02FF Rx 8  00 00 00 00 FF FF FF FF 
     53      4847.072 DT     03E8 Rx 8  49 31 A2 53 00 0E 51 5C 
     54      4849.192 DT     033B Rx 8  00 FF 01 E7 00 00 E4 00 
     55      4850.936 DT     0342 Rx 5  00 00 00 00 00 
     56      4854.928 DT     0252 Rx 8  03 00 7F FF FF FF FF FF 
     57      4855.943 DT     0318 Rx 8  00 00 00 00 00 00 FF 00 
     58      4856.943 DT     0340 Rx 8  FF FF FF 00 00 98 00 00 
     59      4857.918 DT     03E4 Rx 8  81 DF 88 46 0E 00 00 00 
     60      4860.606 DT     012B Rx 1  00 
     61      4861.566 DT     0328 Rx 8  20 01 00 4F 00 46 00 46 
     62      4862.549 DT     0350 Rx 8  00 22 0F 07 E5 09 10 01 
     63      4864.917 DT     02C3 Rx 8  04 04 00 01 00 00 FF 00 
     64      4865.901 DT     03DE Rx 8  36 00 00 00 03 00 D0 01 
     65      4866.892 DT     03E3 Rx 8  31 04 10 08 00 00 00 00 
     66      4871.012 DT     035C Rx 6  00 00 00 00 1F 00 
     67      4874.915 DT     02F8 Rx 8  00 FF F0 00 00 00 28 00 
     68      4875.587 DT     03D2 Rx 4  09 6B 74 00 
     69      4884.579 DT     0122 Rx 4  00 01 00 00 
     70      4885.570 DT     032A Rx 8  00 00 00 00 00 00 D8 AB 
     71      4886.530 DT     03B2 Rx 8  03 00 A8 00 F0 FF FF 00 
     72      4891.169 DT     0328 Rx 8  10 01 00 00 00 00 00 00 
     73      4894.881 DT     02C5 Rx 8  01 EE EE 1C 05 00 00 00 
     74      4895.713 DT     03A2 Rx 6  00 00 02 01 FF 00 
     75      4904.882 DT     022D Rx 8  FF 06 00 00 00 00 00 00 
     76      4905.562 DT     0358 Rx 4  FF 01 FF 00 
     77      4914.834 DT     0381 Rx 8  89 8D 00 08 00 04 00 00 
     78      4915.834 DT     0395 Rx 8  03 FF 07 FF 00 00 30 00 
     79      4921.138 DT     0328 Rx 8  00 01 00 00 00 00 00 00 
     80      4924.945 DT     0322 Rx 8  FF FF 00 00 3F FF FF FF 
     81      4925.945 DT     038A Rx 8  01 00 00 00 00 00 00 00 
     82      4934.273 DT     0403 Rx 8  FD 3C 3F FF FF FF FF FF 
     83      4935.233 DT     030A Rx 8  04 80 FF FF FF 7E 02 31 
     84      4936.201 DT     03D8 Rx 8  FD 00 64 FA 58 23 00 00 
     85      4945.081 DT     024E Rx 8  FF FF 1C 00 00 00 FF FF 
     86      4946.088 DT     02FF Rx 8  00 00 00 00 FF FF FF FF 
     87      4949.216 DT     033B Rx 8  00 FF 01 E7 00 00 E4 00 
     88      4951.192 DT     0328 Rx 8  00 00 00 00 00 00 00 00 
     89      4954.679 DT     01C0 Rx 6  00 00 00 00 00 00 
     90      4955.663 DT     0252 Rx 8  03 00 7F FF FF FF FF FF 
     91      4956.671 DT     0318 Rx 8  00 00 00 00 00 00 FF 00 
     92      4960.598 DT     012B Rx 1  00 
     93      4964.886 DT     02C3 Rx 8  04 04 00 01 00 00 FF 00 
     94      4974.533 DT     02C2 Rx 4  1A 97 7C 00 
     95      4981.133 DT     0328 Rx 8  40 42 00 00 00 00 00 00 
     96      4984.572 DT     0122 Rx 4  00 01 00 00 
     97      4985.564 DT     0232 Rx 8  FF FF 00 FF 00 00 00 01 
     98      5011.173 DT     0328 Rx 8  30 02 00 00 00 00 00 00 
     99      5014.877 DT     044A Rx 8  01 00 00 00 00 00 00 20 
    100      5020.051 DT     043C Rx 8  FD 3F 3F FF FF FF FF FF 
    101      5024.883 DT     0322 Rx 8  FF FF 00 00 3F FF FF FF 
    102      5025.883 DT     044C Rx 8  7D 00 00 00 00 00 FF FF 
    103      5034.811 DT     03B3 Rx 8  01 30 72 01 E4 A3 07 10 
    104      5041.155 DT     0328 Rx 8  20 02 00 00 00 00 00 00 
    105      5045.091 DT     024E Rx 8  FF FF 1C 00 00 00 FF FF 
    106      5046.098 DT     02FF Rx 8  00 00 00 00 FF FF FF FF 
    107      5049.202 DT     033B Rx 8  00 FF 01 E7 00 00 E4 00 
    108      5054.858 DT     0252 Rx 8  03 00 0F F7 FF FF FF FF 
    109      5055.866 DT     0318 Rx 8  00 00 00 00 00 00 FF 00 
    110      5060.626 DT     012B Rx 1  00 
    111      5064.873 DT     02C3 Rx 8  04 04 00 01 00 00 FF 00 
    112      5071.169 DT     0328 Rx 8  10 02 00 00 00 00 00 00 
    113      5084.569 DT     0122 Rx 4  00 01 00 00 
    114      5101.154 DT     0328 Rx 8  00 02 00 00 00 00 00 00 
    115      5111.130 DT     043F Rx 8  FD 01 3F FF FF FF FF FF 
    116      5124.898 DT     0322 Rx 8  FF FF 00 00 3F FF FF FF 
    117      5131.186 DT     0328 Rx 8  00 00 00 00 00 00 00 00 
    118      5145.002 DT     024E Rx 8  FF FF 1C 00 00 00 FF FF 
    119      5146.010 DT     02FF Rx 8  00 00 00 00 FF FF FF FF 
    120      5149.250 DT     033B Rx 8  00 FF 01 E8 00 00 E4 00 
    121      5154.746 DT     01C0 Rx 6  00 00 00 00 00 00 
    122      5155.729 DT     0252 Rx 8  03 00 0F F7 FF FF FF FF 
    123      5156.737 DT     0318 Rx 8  00 00 00 00 00 00 FF 00 
    124      5160.609 DT     012B Rx 1  00 
    125      5161.601 DT     0328 Rx 8  40 43 00 00 00 00 00 00 
    126      5164.888 DT     02C3 Rx 8  04 04 00 01 00 00 FF 00 
    127      5174.520 DT     02C2 Rx 4  1A 97 7C 00 
    128      5184.568 DT     0122 Rx 4  00 01 00 00 
    129      5185.560 DT     0232 Rx 8  FF FF 00 FF 00 00 00 01 
    130      5191.168 DT     0328 Rx 8  30 03 00 00 00 00 00 00 
    131      5196.639 DT     0401 Rx 8  FD 03 3F FF FF FF FF FF 
    132      5221.151 DT     0328 Rx 8  20 03 00 00 00 00 00 00 
    133      5224.903 DT     0322 Rx 8  FF FF 00 00 3F FF FF FF 
    134      5244.984 DT     024E Rx 8  FF FF 1C 00 00 00 FF FF 
    135      5245.991 DT     02FF Rx 8  00 00 00 00 FF FF FF FF 
    136      5249.239 DT     033B Rx 8  00 FF 01 E7 00 00 E4 00 
    137      5251.183 DT     0328 Rx 8  10 03 00 00 00 00 00 00 
    138      5254.215 DT     0230 Rx 8  00 6A 36 08 00 00 00 00 
    139      5255.190 DT     0252 Rx 8  03 00 0F F7 FF FF FF FF 
    140      5256.198 DT     0318 Rx 8  00 00 00 00 00 00 FF 00 
    141      5260.606 DT     012B Rx 1  00 
    142      5265.006 DT     02C3 Rx 8  04 04 00 01 00 00 FF 00 
    143      5274.430 DT     0339 Rx 2  F0 F0 
    144      5281.149 DT     0328 Rx 8  00 03 00 00 00 00 00 00 
    145      5284.645 DT     0122 Rx 4  00 01 00 00 
    146      5294.269 DT     0403 Rx 8  FD 3C 3F FF FF FF FF FF 
    147      5295.261 DT     0248 Rx 8  00 00 FF FF FF 03 FF FF 
    148      5304.597 DT     0122 Rx 4  00 02 00 00 
    149      5305.300 DT     01C8 Rx 4  00 00 00 00 
    150      5306.276 DT     02FA Rx 8  03 01 00 1A 00 FF 00 00 
    151      5311.204 DT     0328 Rx 8  00 00 00 00 00 00 00 00 
    152      5324.884 DT     0322 Rx 8  FF FF 00 00 3F FF FF FF 
    153      5334.540 DT     0122 Rx 4  05 02 00 00 
    154      5335.516 DT     0332 Rx 8  18 FF FF 41 FF 08 FF 00 
    155      5341.396 DT     0328 Rx 8  40 44 00 00 00 00 00 00 
    156      5345.003 DT     024E Rx 8  FF FF 1C 00 00 00 FF FF 
    157      5346.011 DT     02FF Rx 8  00 00 00 00 FF FF FF FF 
    158      5349.267 DT     033B Rx 8  00 FF 01 E8 00 00 E4 00 
    159      5351.626 DT     012B Rx 1  00 
    160      5354.682 DT     01C0 Rx 6  00 00 00 00 00 00 
    161      5355.665 DT     0252 Rx 8  03 00 0F F7 FF FF FF FF 
    162      5356.673 DT     0318 Rx 8  00 00 00 00 00 00 FF 00 
    163      5364.241 DT     034E Rx 8  7F 7F 7F 7F 00 0F 00 7F 
    164      5365.225 DT     02C3 Rx 8  04 04 00 01 00 00 FF 00 
    165      5374.552 DT     02C2 Rx 4  1A 97 7B 00 
    166      5379.942 DT     043C Rx 8  FD 3F 3F FF FF FF FF FF 
    167      5384.614 DT     0122 Rx 4  05 02 00 00 
    168      5385.605 DT     0232 Rx 8  FF FF 00 FF 00 00 00 01 
    169      5392.165 DT     0328 Rx 8  40 41 00 4D 00 55 00 53 
    170      5414.885 DT     0332 Rx 8  18 FF DF 41 FF 08 FF 00 
    171      5415.884 DT     0395 Rx 8  03 FF 07 FF 00 00 30 00 
    172      5422.140 DT     0328 Rx 8  30 01 00 49 00 43 00 20 
    173      5424.932 DT     0322 Rx 8  FF FF 00 00 3F FF FF FF 
    174      5445.068 DT     024E Rx 8  FF FF 1C 00 00 00 FF FF 
    175      5446.076 DT     02FF Rx 8  00 00 00 00 FF FF FF FF 
    176      5449.228 DT     033B Rx 8  00 FF 01 E7 00 00 E4 00 
    177      5451.612 DT     012B Rx 1  00 
    178      5452.571 DT     0328 Rx 8  20 01 00 4F 00 46 00 46 
    179      5454.931 DT     0252 Rx 8  03 00 0F F7 80 00 80 80 
    180      5455.939 DT     0318 Rx 8  00 00 00 00 00 00 FF 00 
    181      5462.139 DT     043F Rx 8  FD 01 3F FF FF FF FF FF 
    182      5465.075 DT     02C3 Rx 8  04 04 00 01 00 00 FF 00 
    183      5474.931 DT     030A Rx 8  04 80 00 FF FF 7E 02 31 
    184      5475.955 DT     0340 Rx 8  FF FF FF 00 00 80 00 00 
    185      5482.195 DT     0328 Rx 8  10 01 00 00 00 00 00 00 
    186      5483.114 DT     03E0 Rx 8  00 31 43 34 48 4A 58 46 
    187      5484.746 DT     0122 Rx 4  05 02 00 00 
    188      5494.929 DT     030A Rx 8  04 80 00 63 FF 7E 02 31 
    189      5495.929 DT     0340 Rx 8  FF FF 7F 00 00 80 00 00 
    190      5512.177 DT     0328 Rx 8  00 01 00 00 00 00 00 00 
    191      5514.264 DT     030E Rx 8  00 E4 1C 15 07 FF 07 FF 
    192      5525.017 DT     0322 Rx 8  00 00 00 00 3F FF FF FF 
    193      5534.839 DT     030A Rx 8  04 80 00 63 FF 00 02 31 
    194      5542.095 DT     0328 Rx 8  00 00 00 00 00 00 00 00 
    195      5545.023 DT     024E Rx 8  FF FF 00 00 00 00 FF FF 
    196      5546.031 DT     02FF Rx 8  00 00 00 00 FF FF FF FF 
    197      5549.134 DT     033B Rx 8  00 FF 01 E7 00 00 E4 00 
    198      5551.518 DT     012B Rx 1  00 
    199      5554.910 DT     0252 Rx 8  03 00 0F F7 80 00 80 80 
    200      5555.917 DT     0318 Rx 8  00 00 00 00 00 00 FF 00 
    201      5556.781 DT     01C0 Rx 6  00 00 00 00 00 00 
    202      5557.756 DT     0401 Rx 8  FD 03 04 0F 01 00 00 01 
    203      5564.948 DT     02C3 Rx 8  04 04 00 01 00 00 FF 00 
    204      5572.036 DT     0328 Rx 8  40 42 00 00 00 00 00 00 
    205      5574.540 DT     02C2 Rx 4  1A 97 7A 00 
    206      5575.516 DT     030A Rx 8  04 80 00 63 FC 00 02 31 
    207      5576.460 DT     0332 Rx 8  18 50 D8 40 00 08 FF 00 
    208      5577.459 DT     0340 Rx 8  FF FF 7D 00 00 80 00 00 
    209      5582.443 DT     03E0 Rx 8  01 47 37 4A 57 33 31 32 
    210      5584.547 DT     0122 Rx 4  05 02 00 00 
    211      5585.515 DT     0232 Rx 8  FF 5A 00 FF 00 00 00 01 
    212      5602.098 DT     0328 Rx 8  30 02 00 00 00 00 00 00 
    213      5604.506 DT     0122 Rx 4  15 02 00 00 
    214      5624.834 DT     0322 Rx 8  00 00 00 00 37 FF FF FF 
    215      5632.074 DT     0328 Rx 8  20 02 00 00 00 00 00 00 
    216      5644.978 DT     024E Rx 8  FF FF 00 00 00 00 FF FF 
    217      5645.986 DT     02FF Rx 8  00 00 00 00 FF FF FF FF 
    218      5649.145 DT     033B Rx 8  00 FF 01 E7 00 00 E4 00 
    219      5651.529 DT     012B Rx 1  00 
    220      5654.185 DT     0403 Rx 8  FD 3C 04 0F 01 00 00 01 
    221      5655.145 DT     0252 Rx 8  03 00 0F F7 80 00 80 80 
    222      5656.153 DT     0318 Rx 8  00 00 00 00 00 00 FF 00 
    223      5662.577 DT     0328 Rx 8  10 02 00 00 00 00 00 00 
    224      5664.928 DT     02C3 Rx 8  04 04 00 01 00 00 FF 00 
    225      5682.496 DT     03E0 Rx 8  02 39 32 36 00 00 00 00 
    226      5684.536 DT     0122 Rx 4  15 02 00 00 
    227      5692.072 DT     0328 Rx 8  00 02 00 00 00 00 00 00 
    228      5722.104 DT     0328 Rx 8  00 00 00 00 00 00 00 00 
    229      5724.840 DT     0322 Rx 8  00 00 00 00 37 FF FF FF 
    230      5739.739 DT     043C Rx 8  FD 3F 04 0F 01 00 00 01 
    231      5745.003 DT     024E Rx 8  FF FF 00 00 00 00 FF FF 
    232      5746.010 DT     02FF Rx 8  00 00 00 00 FF FF FF FF 
    233      5749.210 DT     033B Rx 8  00 FF 01 E7 00 00 E4 00 
    234      5751.530 DT     012B Rx 1  00 
    235      5752.522 DT     0328 Rx 8  40 43 00 00 00 00 00 00 
    236      5754.201 DT     0230 Rx 8  00 6A 36 08 00 00 00 00 
    237      5755.057 DT     01C0 Rx 6  00 00 00 00 00 00 
    238      5756.025 DT     0252 Rx 8  03 00 0F F7 80 00 80 80 
    239      5757.032 DT     0318 Rx 8  00 00 00 00 00 00 FF 00 
    240      5759.112 DT     034E Rx 8  7F 7F 7F 7F 00 0F 00 7F 
    241      5761.535 DT     022F Rx 1  01 
    242      5762.519 DT     02D3 Rx 8  07 00 00 00 00 00 00 00 
    243      5764.175 DT     033C Rx 8  00 00 03 E8 00 00 00 00 
    244      5765.158 DT     02C3 Rx 8  04 04 00 01 00 00 FF 00 
    245      5765.830 DT     03C9 Rx 4  7B 44 00 00 
    246      5769.126 DT     033A Rx 8  1A 0E 2F 7F 7F 7F 7F 7F 
    247      5772.062 DT     02F3 Rx 8  08 00 00 00 00 00 00 00 
    248      5773.053 DT     0273 Rx 8  00 00 00 00 00 00 00 00 
    249      5774.109 DT     030E Rx 8  00 E4 1C 15 07 FF 07 FF 
    250      5774.837 DT     02C2 Rx 4  1A 97 78 00 
    251      5775.365 DT     0339 Rx 2  F0 F0 
    252      5782.082 DT     02D4 Rx 8  00 00 00 00 00 00 00 00 
    253      5783.082 DT     0302 Rx 8  00 00 00 00 00 00 00 00 
    254      5784.002 DT     03E0 Rx 8  00 31 43 34 48 4A 58 46 
    255      5785.002 DT     0328 Rx 8  30 03 00 00 00 00 00 00 
    256      5785.682 DT     0122 Rx 4  15 02 00 00 
    257      5786.650 DT     0232 Rx 8  FF 65 00 FF 00 00 00 01 
    258      5791.737 DT     030D Rx 4  00 00 00 00 
    259      5794.937 DT     0248 Rx 8  00 00 FF FF FF 03 FF FF 
    260      5795.937 DT     039E Rx 8  00 00 00 00 00 00 00 00 
    261      5801.985 DT     030F Rx 7  00 0A 0A 0A 0A 0A 00 
    262      5804.561 DT     01C8 Rx 4  00 00 00 00 
    263      5805.537 DT     02FA Rx 8  03 01 00 1A 00 FF 00 00 
    264      5812.041 DT     0317 Rx 8  00 00 00 00 00 00 3A 00 
    265      5813.049 DT     0328 Rx 8  20 03 00 00 00 00 00 00 
    266      5822.041 DT     043F Rx 8  FD 01 04 0F 00 00 00 01 
    267      5824.834 DT     02AD Rx 8  00 00 00 00 00 00 00 00 
    268      5825.826 DT     0322 Rx 8  00 00 00 00 37 FF FF FF 
    269      5831.705 DT     032F Rx 3  00 00 00 
    270      5834.857 DT     0332 Rx 8  18 50 D8 40 5B 08 FF 00 
    271      5842.104 DT     0328 Rx 8  10 03 00 00 00 00 00 00 
    272      5842.880 DT     0342 Rx 5  00 00 00 00 00 
    273      5844.992 DT     024E Rx 8  FF FF 00 00 00 00 FF FF 
    274      5845.999 DT     02FF Rx 8  00 00 00 00 FF FF FF FF 
    275      5849.167 DT     033B Rx 8  00 FF 01 E7 00 00 E4 00 
    276      5851.527 DT     012B Rx 1  00 
    277      5852.502 DT     0350 Rx 8  01 22 0F 07 E5 09 10 01 
    278      5854.902 DT     0252 Rx 8  03 00 0F F7 80 00 80 80 
    279      5855.910 DT     0318 Rx 8  00 00 00 00 00 00 FF 00 
    280      5856.909 DT     0340 Rx 8  FF FF 7D 00 00 80 00 00 
    281      5861.941 DT     035C Rx 6  00 00 00 00 1F 00 
    282      5864.869 DT     02C3 Rx 8  04 04 00 01 00 00 FF 00 
    283      5865.853 DT     03DE Rx 8  36 00 00 00 03 00 D0 01 
    284      5872.068 DT     0328 Rx 8  00 03 00 00 00 00 00 00 
    285      5875.012 DT     02F8 Rx 8  00 FF F0 00 00 00 28 00 
    286      5875.684 DT     03D2 Rx 4  09 6B 74 00 
    287      5882.451 DT     03E0 Rx 8  01 47 37 4A 57 33 31 32 
    288      5884.579 DT     0122 Rx 4  15 02 00 00 
    289      5885.571 DT     032A Rx 8  00 00 00 00 00 00 D8 AB 
    290      5886.530 DT     03B2 Rx 8  03 00 A8 00 F0 FF FF 00 
    291      5894.834 DT     03A2 Rx 6  00 00 02 01 FF 00 
    292      5902.106 DT     0328 Rx 8  00 00 00 00 00 00 00 00 
    293      5904.850 DT     022D Rx 8  FF 06 00 00 00 00 00 00 
    294      5905.529 DT     0358 Rx 4  FF 01 FF 00 
    295      5914.905 DT     0395 Rx 8  03 FF 07 FF 00 00 30 00 
    296      5916.553 DT     0401 Rx 8  FD 03 04 0F 01 00 00 01 
    297      5924.849 DT     0322 Rx 8  00 97 00 00 37 FF FF FF 
    298      5932.065 DT     0328 Rx 8  40 44 00 00 00 00 00 00 
    299      5934.921 DT     030A Rx 8  04 80 00 63 FC 00 02 31 
    300      5944.977 DT     024E Rx 8  FF FF 04 00 00 00 FF FF 
    301      5945.984 DT     02FF Rx 8  00 00 00 00 FF FF FF FF 
    302      5949.136 DT     033B Rx 8  00 FF 01 E7 00 00 E4 00 
    303      5951.544 DT     012B Rx 1  00 
    304      5954.591 DT     01C0 Rx 6  00 00 00 00 00 00 
    305      5955.559 DT     0252 Rx 8  03 00 0F F7 80 00 80 80 
    306      5956.567 DT     0318 Rx 8  00 00 00 00 00 00 FF 00 
    307      5962.086 DT     0328 Rx 8  30 04 00 00 00 00 00 00 
    308      5964.838 DT     02C3 Rx 8  04 04 00 01 00 00 FF 00 
    309      5974.653 DT     02C2 Rx 4  1A 97 70 00 
    310      5982.509 DT     03E0 Rx 8  02 39 32 36 00 00 00 00 
    311      5984.548 DT     0122 Rx 4  15 02 00 00 
    312      5985.516 DT     0232 Rx 8  FF 65 00 FF 00 00 00 01 
    313      5992.076 DT     0328 Rx 8  20 04 00 00 00 00 00 00 
    314      6014.180 DT     0403 Rx 8  FD 3C 04 0F 01 00 00 01 
    315      6022.092 DT     0328 Rx 8  10 04 00 00 00 00 00 00 
    316      6024.844 DT     0322 Rx 8  00 AC 00 00 37 FF FF FF 
    317      6044.988 DT     024E Rx 8  FF FF 04 00 00 00 FF FF 
    318      6045.996 DT     02FF Rx 8  00 00 00 00 FF FF FF FF 
    319      6049.156 DT     033B Rx 8  00 FF 01 E7 00 00 E4 00 
    320      6051.532 DT     012B Rx 1  00 
    321      6052.539 DT     0328 Rx 8  00 04 00 00 00 00 00 00 
    322      6054.883 DT     0252 Rx 8  03 00 0F F7 80 00 80 80 
    323      6055.890 DT     0318 Rx 8  00 00 00 00 00 00 FF 00 
    324      6064.850 DT     02C3 Rx 8  04 04 00 01 00 00 FF 00 
    325      6082.106 DT     0328 Rx 8  00 00 00 00 00 00 00 00 
    326      6083.026 DT     03E0 Rx 8  00 31 43 34 48 4A 58 46 
    327      6084.666 DT     0122 Rx 4  15 02 00 00 
    328      6094.522 DT     03CD Rx 8  40 15 00 00 00 00 00 00 
    329      6099.633 DT     043C Rx 8  FD 3F 04 0F 01 00 00 01 
    330      6124.849 DT     0322 Rx 8  00 DA 00 00 37 FF FF FF 
    331      6144.961 DT     024E Rx 8  FF FF 04 00 00 00 FF FF 
    332      6145.969 DT     02FF Rx 8  00 00 00 00 FF FF FF FF 
    333      6149.161 DT     033B Rx 8  00 FF 01 E7 00 00 E4 00 
    334      6151.528 DT     012B Rx 1  00 
    335      6154.592 DT     01C0 Rx 6  00 00 00 00 00 00 
    336      6155.560 DT     0252 Rx 8  03 00 0F F7 80 00 80 80 
    337      6156.567 DT     0318 Rx 8  00 00 00 00 00 00 FF 00 
    338      6164.855 DT     02C3 Rx 8  04 04 00 01 00 00 FF 00 
    339      6174.551 DT     02C2 Rx 4  1A 97 73 00 
    340      6182.079 DT     043F Rx 8  FD 01 04 0F 01 00 00 01 
    341      6182.999 DT     03E0 Rx 8  01 47 37 4A 57 33 31 32 
    342      6184.678 DT     0122 Rx 4  15 02 00 00 
    343      6185.646 DT     0232 Rx 8  FF 65 00 FF 00 00 00 01 
    344      6224.846 DT     0322 Rx 8  01 00 00 00 37 FF FF FF 
    345      6244.966 DT     024E Rx 8  FF FF 04 00 00 00 FF FF 
    346      6245.973 DT     02FF Rx 8  00 00 00 00 FF FF FF FF 
    347      6249.157 DT     033B Rx 8  00 FF 01 E7 00 00 E4 00 
    348      6251.549 DT     012B Rx 1  00 
    349      6254.141 DT     0230 Rx 8  00 6A 36 08 00 00 00 00 
    350      6255.100 DT     0252 Rx 8  03 00 0F F7 80 00 80 80 
    351      6256.108 DT     0318 Rx 8  00 00 00 00 00 00 FF 00 
    352      6264.924 DT     02C3 Rx 8  04 04 00 01 00 00 FF 00 
    353      6274.436 DT     0339 Rx 2  F0 F0 
    354      6276.563 DT     0401 Rx 8  FD 03 04 0F 01 00 00 01 
    355      6282.531 DT     03E0 Rx 8  02 39 32 36 00 00 00 00 
    356      6284.635 DT     0122 Rx 4  15 02 00 00 
    357      6294.948 DT     0248 Rx 8  00 00 FF FF FF 03 FF FF 
    358      6304.548 DT     01C8 Rx 4  00 00 00 00 
    359      6305.523 DT     02FA Rx 8  03 01 00 1A 00 FF 00 00 
    360      6324.836 DT     0322 Rx 8  03 85 00 00 37 FF FF FF 
    361      6334.308 DT     03CD Rx 8  40 11 00 00 00 00 00 00 
    362      6335.243 DT     0332 Rx 8  18 50 D8 40 5B 08 FF 00 
    363      6344.963 DT     024E Rx 8  FF FF 10 00 00 00 FF FF 
    364      6345.971 DT     02FF Rx 8  00 00 00 00 FF FF FF FF 
    365      6349.154 DT     033B Rx 8  00 FF 01 E7 00 00 E4 00 
    366      6351.546 DT     012B Rx 1  00 
    367      6354.594 DT     01C0 Rx 6  00 00 00 00 00 00 
    368      6355.281 DT     0122 Rx 4  04 02 00 00 
    369      6356.249 DT     0252 Rx 8  03 00 0F F7 80 00 80 80 
    370      6357.256 DT     0318 Rx 8  00 00 00 00 00 00 FF 00 
    371      6358.256 DT     0340 Rx 8  FF FF 7D 00 30 80 00 00 
    372      6359.223 DT     03DE Rx 8  36 00 00 00 03 00 D1 01 
    373      6364.847 DT     022D Rx 8  84 00 00 00 00 00 00 00 
    374      6365.839 DT     02C3 Rx 8  04 04 00 01 00 00 FF 00 
    375      6371.591 DT     012B Rx 1  03 
    376      6372.599 DT     0302 Rx 8  00 09 00 00 00 00 00 00 
    377      6374.190 DT     0403 Rx 8  FD 3C 04 0F 01 00 00 01 
    378      6374.862 DT     02C2 Rx 4  1A 97 78 00 
    379      6375.837 DT     0340 Rx 8  FF FF 3D 00 30 80 00 00 
    380      6382.485 DT     03E0 Rx 8  00 31 43 34 48 4A 58 46 
    381      6384.548 DT     0122 Rx 4  04 02 00 00 
    382      6385.516 DT     0232 Rx 8  FF 65 00 FF 00 00 00 01 
    383      6414.853 DT     0395 Rx 8  03 FF 07 FF 00 00 30 00 
    384      6424.829 DT     0322 Rx 8  04 8E 00 00 37 FF FF FF 
    385      6441.541 DT     012B Rx 1  03 
    386      6444.957 DT     024E Rx 8  FF FF 10 00 00 00 FF FF 
    387      6445.949 DT     02FF Rx 8  00 00 00 AC FF FF FF FF 
    388      6449.132 DT     033B Rx 8  00 FF 01 E7 00 00 E4 00 
    389      6454.844 DT     0252 Rx 8  03 00 0F F7 80 00 80 80 
    390      6455.852 DT     0318 Rx 8  00 00 00 00 00 00 FF 00 
    391      6459.522 DT     043C Rx 8  FD 3F 04 0F 01 00 00 01 
    392      6464.850 DT     02C3 Rx 8  04 04 00 01 00 00 FF 00 
    393      6482.490 DT     03E0 Rx 8  01 47 37 4A 57 33 31 32 
    394      6484.562 DT     0122 Rx 4  04 02 00 00 
    395      6514.186 DT     033C Rx 8  00 31 01 F7 00 00 00 00 
    396      6524.858 DT     0322 Rx 8  05 47 00 00 37 FF FF FF 
    397      6541.638 DT     012B Rx 1  03 
    398      6545.054 DT     024E Rx 8  FF FF 10 00 00 00 FF FF 
    399      6546.046 DT     02FF Rx 8  00 00 00 8E FF FF FF FF 
    400      6549.278 DT     033B Rx 8  00 FF 01 E7 00 00 E4 00 
    401      6552.158 DT     043F Rx 8  FD 01 04 0F 01 00 00 01 
    402      6554.702 DT     01C0 Rx 6  00 00 00 00 00 00 
    403      6555.669 DT     0252 Rx 8  03 00 0F F7 80 00 80 80 
    404      6556.677 DT     0318 Rx 8  00 00 00 00 00 00 FF 00 
    405      6564.925 DT     02C3 Rx 8  04 04 00 01 00 00 FF 00 
    406      6574.645 DT     02C2 Rx 4  1A 97 78 00 
    407      6582.653 DT     03E0 Rx 8  02 39 32 36 00 00 00 00 
    408      6584.661 DT     0122 Rx 4  04 02 00 00 
    409      6585.629 DT     0232 Rx 8  FF 65 00 FF 00 00 00 01 
    410      6606.455 DT     031E Rx 6  00 80 00 C0 00 00 
    411      6624.935 DT     0322 Rx 8  05 9D 00 00 37 FF FF FF 
    412      6636.671 DT     0401 Rx 8  FD 03 04 0F 01 00 00 01 
    413      6641.655 DT     012B Rx 1  03 
    414      6645.063 DT     024E Rx 8  FF FF 10 00 00 00 FF FF 
    415      6646.062 DT     02FF Rx 8  00 00 00 77 FF FF FF FF 
    416      6649.222 DT     033B Rx 8  00 FF 01 E7 00 00 E4 00 
    417      6654.942 DT     0252 Rx 8  03 00 0F F7 80 00 80 80 
    418      6655.950 DT     0318 Rx 8  00 00 00 00 00 00 FF 00 
    419      6664.958 DT     02C3 Rx 8  04 04 00 01 00 00 FF 00 
    420      6682.600 DT     03E0 Rx 8  00 31 43 34 48 4A 58 46 
    421      6684.655 DT     0122 Rx 4  04 02 00 00 
    422      6724.944 DT     0322 Rx 8  05 58 00 00 37 FF FF FF 
    423      6734.375 DT     0403 Rx 8  FD 3C 04 0F 01 00 00 01 
    424      6741.648 DT     012B Rx 1  03 
    425      6745.088 DT     024E Rx 8  FF FF 10 00 00 00 FF FF 
    426      6746.047 DT     02C6 Rx 8  41 23 05 13 00 00 00 01 
    427      6747.046 DT     02FF Rx 8  00 00 00 62 FF FF FF FF 
    428      6749.326 DT     033B Rx 8  00 FF 01 E7 00 00 E4 00 
    429      6751.662 DT     022F Rx 1  01 
    430      6754.277 DT     0230 Rx 8  00 6A 36 08 00 00 00 00 
    431      6755.133 DT     01C0 Rx 6  00 00 00 00 00 00 
    432      6756.100 DT     0252 Rx 8  03 00 0F F7 80 00 80 80 
    433      6757.108 DT     0318 Rx 8  00 00 00 00 00 00 FF 00 
    434      6759.236 DT     034E Rx 8  7F 7F 7F 7F 00 0F 00 7F 
    435      6761.866 DT     02D3 Rx 8  07 00 00 00 00 00 00 00 
    436      6762.858 DT     02F3 Rx 8  08 00 00 00 00 00 00 00 
    437      6764.282 DT     033C Rx 8  00 31 01 F7 00 00 00 00 
    438      6765.265 DT     02C3 Rx 8  04 04 00 01 00 00 FF 00 
    439      6765.937 DT     03C9 Rx 4  7B 44 00 00 
    440      6766.912 DT     03F4 Rx 8  11 0F FF 20 02 00 00 84 
    441      6769.232 DT     033A Rx 8  1A 18 2F 7F 7F 7F 7F 7F 
    442      6771.863 DT     0273 Rx 8  00 00 00 00 00 00 00 00 
    443      6772.863 DT     0302 Rx 8  00 09 00 00 00 00 00 00 
    444      6774.247 DT     030E Rx 8  00 E4 1C 15 07 FF 07 FF 
    445      6774.911 DT     02C2 Rx 4  1A 97 79 00 
    446      6775.439 DT     0339 Rx 2  F0 F0 
    447      6781.876 DT     02D4 Rx 8  00 00 00 00 00 00 00 00 
    448      6782.556 DT     030D Rx 4  00 00 00 00 
    449      6783.476 DT     03E0 Rx 8  01 47 37 4A 57 33 31 32 
    450      6784.747 DT     0122 Rx 4  04 02 00 00 
    451      6785.715 DT     0232 Rx 8  FF 65 00 FF 00 00 00 01 
    452      6786.651 DT     03F2 Rx 8  5D 02 B2 01 09 20 10 06 
    453      6792.106 DT     030F Rx 7  00 0A 0A 0A 0A 0A 00 
    454      6795.074 DT     0248 Rx 8  00 00 FF FF FF 03 FF FF 
    455      6796.074 DT     039E Rx 8  00 00 00 00 00 00 00 00 
    456      6802.162 DT     0317 Rx 8  00 00 00 00 00 00 3A 00 
    457      6804.857 DT     01C8 Rx 4  00 00 00 00 
    458      6805.833 DT     02FA Rx 8  03 01 00 1A 00 FF 00 00 
    459      6812.305 DT     0328 Rx 8  00 00 00 00 00 00 00 00 
    460      6814.433 DT     03CD Rx 8  40 11 00 00 00 00 00 00 
    461      6815.425 DT     03B4 Rx 8  35 80 00 00 00 00 04 00 
    462      6816.384 DT     03EB Rx 8  43 E8 10 04 0F A0 09 C4 
    463      6819.511 DT     043C Rx 8  FD 3F 04 0F 01 00 00 01 
    464      6821.863 DT     032F Rx 3  00 00 00 
    465      6824.967 DT     022D Rx 8  83 00 00 00 00 00 00 00 
    466      6825.967 DT     02AD Rx 8  00 00 00 00 00 00 00 00 
    467      6826.942 DT     0322 Rx 8  05 27 00 00 37 FF FF FF 
    468      6827.878 DT     03EA Rx 8  41 57 2C 08 B5 34 41 A4 
    469      6831.998 DT     0342 Rx 5  00 00 00 00 00 
    470      6834.965 DT     0332 Rx 8  18 50 D8 40 5B 08 FF 00 
    471      6835.925 DT     03E9 Rx 8  01 58 66 00 25 25 00 00 
    472      6841.644 DT     012B Rx 1  03 
    473      6842.604 DT     0350 Rx 8  02 22 0F 07 E5 09 10 01 
    474      6845.123 DT     024E Rx 8  FF FF 10 00 00 00 FF FF 
    475      6846.115 DT     02FF Rx 8  00 00 00 52 FF FF FF FF 
    476      6847.042 DT     03E8 Rx 8  49 31 A2 53 00 0E 51 5C 
    477      6849.218 DT     033B Rx 8  00 FF 01 E7 00 00 E4 00 
    478      6852.066 DT     035C Rx 6  00 00 00 00 1F 00 
    479      6854.985 DT     0252 Rx 8  03 00 0F F7 80 00 80 80 
    480      6855.993 DT     0318 Rx 8  00 00 00 00 00 00 FF 00 
    481      6856.968 DT     0340 Rx 8  FF FF 3D 00 30 80 00 00 
    482      6857.944 DT     03E4 Rx 8  81 DF 88 46 0E 00 00 00 
    483      6864.959 DT     02C3 Rx 8  04 04 00 01 00 00 FF 00 
    484      6865.927 DT     03DE Rx 8  36 00 00 00 03 00 D1 01 
    485      6866.918 DT     03E3 Rx 8  31 04 10 08 00 00 00 00 
    486      6875.030 DT     02F8 Rx 8  00 FF F0 00 00 00 28 00 
    487      6875.702 DT     03D2 Rx 4  09 6B 74 00 
    488      6882.669 DT     03E0 Rx 8  02 39 32 36 00 00 00 00 
    489      6884.677 DT     0122 Rx 4  04 02 00 00 
    490      6885.668 DT     032A Rx 8  00 00 00 00 00 00 D8 AB 
    491      6886.628 DT     03B2 Rx 8  03 00 A8 00 F0 FF FF 00 
    492      6895.044 DT     02C5 Rx 8  01 EE EE 1C 05 00 00 00 
    493      6895.875 DT     03A2 Rx 6  00 00 02 01 FF 00 
    494      6905.044 DT     022D Rx 8  83 00 00 00 00 00 00 00 
    495      6905.725 DT     0358 Rx 4  FF 01 FF 00 
    496      6912.253 DT     043F Rx 8  FD 01 04 0F 01 00 00 01 
    497      6914.972 DT     0381 Rx 8  89 8D 00 08 00 04 00 00 
    498      6915.972 DT     0395 Rx 8  03 FF 07 FF 00 00 30 00 
    499      6924.963 DT     0322 Rx 8  04 D0 00 00 37 FF FF FF 
    500      6925.963 DT     038A Rx 8  01 00 00 00 00 00 00 00 
    501      6935.003 DT     030A Rx 8  04 80 00 63 FC 00 02 31 
    502      6935.970 DT     03D8 Rx 8  FD 00 64 FA 58 23 00 00 
    503      6941.666 DT     012B Rx 1  03 
    504      6945.050 DT     024E Rx 8  FF FF 10 00 00 00 FF FF 
    505      6946.049 DT     02FF Rx 8  00 00 00 44 FF FF FF FF 
    506      6949.337 DT     033B Rx 8  00 FF 01 E7 00 00 E4 00 
    507      6954.704 DT     01C0 Rx 6  00 00 00 00 00 00 
    508      6955.672 DT     0252 Rx 8  03 00 0F F7 80 00 80 80 
    509      6956.680 DT     0318 Rx 8  00 00 00 00 00 00 FF 00 
    510      6962.215 DT     0302 Rx 8  00 02 00 00 00 00 00 00 
    511      6964.967 DT     02C3 Rx 8  04 04 00 01 00 00 FF 00 
    512      6974.654 DT     02C2 Rx 4  1A 97 7B 00 
    513      6982.614 DT     03E0 Rx 8  00 31 43 34 48 4A 58 46 
    514      6984.661 DT     0122 Rx 4  04 02 00 00 
    515      6985.629 DT     0232 Rx 8  FF 65 00 FF 00 00 00 01 
    516      6996.677 DT     0401 Rx 8  FD 03 04 0F 01 00 00 01 
    517      7015.092 DT     044A Rx 8  01 00 00 00 00 00 00 20 
    518      7024.964 DT     0322 Rx 8  04 78 00 00 37 FF FF FF 
    519      7025.996 DT     044C Rx 8  7D 00 00 00 00 00 FF FF 
    520      7034.955 DT     03B3 Rx 8  01 30 72 01 E4 A3 07 10 
    521      7041.659 DT     012B Rx 1  03 
    522      7042.659 DT     02F3 Rx 8  00 00 00 00 00 00 00 00 
    523      7045.075 DT     024E Rx 8  FF FF 10 00 00 00 FF FF 
    524      7046.074 DT     02FF Rx 8  00 00 00 39 FF FF FF FF 
    525      7049.282 DT     033B Rx 8  00 FF 01 E7 00 00 E4 00 
    526      7054.954 DT     0252 Rx 8  03 00 0F F7 80 00 80 80 
    527      7055.961 DT     0318 Rx 8  00 00 00 00 00 00 FF 00 
    528      7064.969 DT     02C3 Rx 8  04 04 00 01 00 00 FF 00 
    529      7082.633 DT     03E0 Rx 8  01 47 37 4A 57 33 31 32 
    530      7084.673 DT     0122 Rx 4  04 02 00 00 
    531      7094.337 DT     0403 Rx 8  FD 3C 04 0F 01 00 00 01 
    532      7106.023 DT     031E Rx 6  00 80 00 C0 00 00 
    533      7124.951 DT     0322 Rx 8  04 5F 00 00 37 FF FF FF 
    534      7141.656 DT     012B Rx 1  03 
    535      7142.600 DT     0328 Rx 8  40 41 00 4D 00 55 00 53 
    536      7145.048 DT     024E Rx 8  FF FF 10 00 00 00 FF FF 
    537      7146.047 DT     02FF Rx 8  00 00 00 30 FF FF FF FF 
    538      7149.319 DT     033B Rx 8  00 FF 01 E8 00 00 E4 00 
    539      7154.710 DT     01C0 Rx 6  00 00 00 00 00 00 
    540      7155.678 DT     0252 Rx 8  03 00 0F F7 80 00 80 80 
    541      7156.686 DT     0318 Rx 8  00 00 00 00 00 00 FF 00 
    542      7164.957 DT     02C3 Rx 8  04 04 00 01 00 00 FF 00 
    543      7172.181 DT     0328 Rx 8  30 01 00 49 00 43 00 20 
    544      7174.692 DT     02C2 Rx 4  1A 97 7C 00 
    545      7179.402 DT     043C Rx 8  FD 3F 04 0F 01 00 00 01 
    546      7182.682 DT     03E0 Rx 8  02 39 32 36 00 00 00 00 
    547      7184.649 DT     0122 Rx 4  04 02 00 00 
    548      7185.617 DT     0232 Rx 8  FF 65 00 FF 00 00 00 01 
    549      7202.153 DT     0328 Rx 8  20 01 00 4F 00 46 00 46 
    550      7224.945 DT     0322 Rx 8  04 2B 00 00 37 FF FF FF 
    551      7232.233 DT     0328 Rx 8  10 01 00 00 00 00 00 00 
    552      7241.664 DT     012B Rx 1  03 
    553      7245.056 DT     024E Rx 8  FF FF 10 00 00 00 FF FF 
    554      7246.055 DT     02FF Rx 8  00 00 00 27 FF FF FF FF 
    555      7249.263 DT     033B Rx 8  00 FF 01 E7 00 00 E4 00 
    556      7254.255 DT     0230 Rx 8  00 6A 36 08 00 00 00 00 
    557      7255.214 DT     0252 Rx 8  03 00 0F F7 80 4F 80 80 
    558      7256.221 DT     0318 Rx 8  00 00 00 00 00 00 FF 00 
    559      7262.197 DT     0328 Rx 8  00 01 00 00 00 00 00 00 
    560      7265.053 DT     02C3 Rx 8  04 04 00 01 00 00 FF 00 
    561      7272.180 DT     043F Rx 8  FD 01 04 0F 01 00 00 01 
    562      7274.548 DT     0339 Rx 2  F0 F0 
    563      7282.636 DT     03E0 Rx 8  00 31 43 34 48 4A 58 46 
    564      7284.668 DT     0122 Rx 4  04 02 00 00 
    565      7292.243 DT     0328 Rx 8  00 00 00 00 00 00 00 00 
    566      7295.067 DT     0248 Rx 8  00 00 FF FF FF 03 FF FF 
    567      7304.667 DT     01C8 Rx 4  00 00 00 00 
    568      7305.642 DT     02FA Rx 8  03 01 00 1A 00 FF 00 00 
    569      7325.051 DT     022D Rx 8  84 00 00 00 00 00 00 00 
    570      7326.027 DT     0322 Rx 8  04 11 00 00 37 FF FF FF 
    571      7334.954 DT     0332 Rx 8  18 50 D8 40 5B 08 FF 00 
    572      7341.658 DT     012B Rx 1  03 
    573      7345.050 DT     024E Rx 8  FF FF 10 00 00 00 FF FF 
    574      7346.042 DT     02FF Rx 8  00 00 00 21 FF FF FF FF 
    575      7349.265 DT     033B Rx 8  00 FF 01 E7 00 00 E4 00 
    576      7354.713 DT     01C0 Rx 6  00 00 00 00 00 00 
    577      7355.680 DT     0252 Rx 8  03 00 0F F7 80 4F 80 80 
    578      7356.688 DT     0318 Rx 8  00 00 00 00 00 00 FF 00 
    579      7357.663 DT     0401 Rx 8  FD 03 04 0F 01 00 00 01 
    580      7364.975 DT     02C3 Rx 8  04 04 00 01 00 00 FF 00 
    581      7374.712 DT     02C2 Rx 4  1A 97 7C 00 
    582      7383.247 DT     03E0 Rx 8  01 47 37 4A 57 33 31 32 
    583      7384.703 DT     0122 Rx 4  04 02 00 00 
    584      7385.670 DT     0232 Rx 8  FF 65 00 FF 00 00 00 01 
    585      7415.006 DT     0395 Rx 8  03 FF 07 FF 00 00 30 00 
    586      7425.046 DT     0322 Rx 8  03 F7 00 00 37 FF FF FF 
    587      7441.662 DT     012B Rx 1  03 
    588      7445.062 DT     024E Rx 8  FF FF 10 00 00 00 FF FF 
    589      7446.061 DT     02FF Rx 8  00 91 00 1B FF FF FF FF 
    590      7449.277 DT     033B Rx 8  00 FF 01 E7 00 00 E4 00 
    591      7454.277 DT     0403 Rx 8  FD 3C 04 0F 01 00 00 01 
    592      7455.221 DT     0252 Rx 8  03 00 0F F7 80 47 80 80 
    593      7456.228 DT     0318 Rx 8  00 00 00 00 00 00 FF 00 
    594      7464.964 DT     02C3 Rx 8  04 04 00 01 00 00 FF 00 
    595      7482.708 DT     03E0 Rx 8  02 39 32 36 00 00 00 00 
    596      7484.676 DT     0122 Rx 4  04 02 00 00 
    597      7525.044 DT     0322 Rx 8  03 FD 00 00 37 FF FF FF 
    598      7539.196 DT     043C Rx 8  FD 3F 04 0F 01 00 00 01 
    599      7541.580 DT     012B Rx 1  03 
    600      7544.963 DT     024E Rx 8  FF FF 10 00 00 00 FF FF 
    601      7545.955 DT     02FF Rx 8  00 91 00 17 FF FF FF FF 
    602      7549.170 DT     033B Rx 8  00 FF 01 E7 00 00 E4 00 
    603      7554.610 DT     01C0 Rx 6  00 00 00 00 00 00 
    604      7555.578 DT     0252 Rx 8  03 00 0F F7 80 4F 80 7F 
    605      7556.585 DT     0318 Rx 8  00 00 00 00 00 00 FF 00 
    606      7564.881 DT     02C3 Rx 8  04 04 00 01 00 00 FF 00 
    607      7574.577 DT     02C2 Rx 4  1A 97 7D 00 
    608      7582.593 DT     03E0 Rx 8  00 31 43 34 48 4A 58 46 
    609      7584.577 DT     0122 Rx 4  04 02 00 00 
    610      7585.544 DT     0232 Rx 8  FF 65 00 FF 00 00 00 01 
    611      7605.576 DT     031E Rx 6  00 80 00 C0 00 00 
    612      7624.864 DT     0322 Rx 8  03 ED 00 00 37 FF FF FF 
    613      7632.105 DT     043F Rx 8  FD 01 04 0F 01 00 00 01 
    614      7641.561 DT     012B Rx 1  03 
    615      7644.969 DT     024E Rx 8  FF FF 10 00 00 00 FF FF 
    616      7645.953 DT     02FF Rx 8  00 91 00 12 FF FF FF FF 
    617      7649.144 DT     033B Rx 8  00 FF 01 E7 00 00 E4 00 
    618      7654.856 DT     0252 Rx 8  03 00 0F F7 80 47 80 80 
    619      7655.863 DT     0318 Rx 8  00 00 00 00 00 00 FF 00 
    620      7664.863 DT     02C3 Rx 8  04 04 00 01 00 00 FF 00 
    621      7682.559 DT     03E0 Rx 8  01 47 37 4A 57 33 31 32 
    622      7684.591 DT     0122 Rx 4  04 02 00 00 
    623      7716.599 DT     0401 Rx 8  FD 03 04 0F 01 00 00 01 
    624      7724.879 DT     0322 Rx 8  03 F1 00 00 37 FF FF FF 
    625      7741.567 DT     012B Rx 1  03 
    626      7744.982 DT     024E Rx 8  FF FF 10 00 00 00 FF FF 
    627      7745.966 DT     02FF Rx 8  00 91 00 10 FF FF FF FF 
    628      7749.326 DT     033B Rx 8  00 FF 01 E7 00 00 E4 00 
    629      7751.614 DT     022F Rx 1  01 
    630      7754.197 DT     0230 Rx 8  00 6A 36 08 00 00 00 00 
    631      7755.053 DT     01C0 Rx 6  00 00 00 00 00 00 
    632      7756.005 DT     0252 Rx 8  03 00 0F F7 80 47 80 80 
    633      7757.012 DT     0318 Rx 8  00 00 00 00 00 00 FF 00 
    634      7759.155 DT     034E Rx 8  7F 7F 7F 7F 00 0F 00 7F 
    635      7761.459 DT     02D3 Rx 8  07 00 00 00 00 00 00 00 
    636      7762.450 DT     02F3 Rx 8  00 00 00 00 00 00 00 00 
    637      7764.305 DT     033C Rx 8  00 31 01 F7 00 00 00 00 
    638      7765.289 DT     02C3 Rx 8  04 04 00 01 00 00 FF 00 
    639      7765.961 DT     03C9 Rx 4  7B 44 00 00 
    640      7769.121 DT     033A Rx 8  1A 0E 2F 7F 7F 7F 7F 7F 
    641      7771.456 DT     0273 Rx 8  00 00 00 00 00 00 00 00 
    642      7772.456 DT     0302 Rx 8  00 02 00 00 00 00 00 00 
    643      7774.215 DT     030E Rx 8  00 E4 1C 15 07 FF 07 FF 
    644      7774.887 DT     02C2 Rx 4  1A 97 7E 00 
    645      7775.415 DT     0339 Rx 2  F0 F0 
    646      7781.477 DT     02D4 Rx 8  00 00 00 00 00 00 00 00 
    647      7782.156 DT     030D Rx 4  00 00 00 00 
    648      7783.124 DT     03E0 Rx 8  02 39 32 36 00 00 00 00 
    649      7784.643 DT     0122 Rx 4  04 02 00 00 
    650      7785.611 DT     0232 Rx 8  FF 65 00 FF 00 00 00 01 
    651      7792.019 DT     030F Rx 7  00 0A 0A 0A 0A 0A 00 
    652      7794.994 DT     0248 Rx 8  00 00 FF FF FF 03 FF FF 
    653      7795.994 DT     039E Rx 8  00 00 00 00 00 00 00 00 
    654      7802.090 DT     0317 Rx 8  00 00 00 00 00 00 3A 00 
    655      7804.650 DT     01C8 Rx 4  00 00 00 00 
    656      7805.625 DT     02FA Rx 8  03 01 00 1A 00 FF 00 00 
    657      7812.241 DT     0328 Rx 8  00 00 00 00 00 00 00 00 
    658      7814.232 DT     0403 Rx 8  FD 3C 04 0F 01 00 00 01 
    659      7821.728 DT     032F Rx 3  00 00 00 
    660      7824.888 DT     02AD Rx 8  00 00 00 00 00 00 00 00 
    661      7825.880 DT     0322 Rx 8  03 E1 00 00 37 FF FF FF 
    662      7831.911 DT     0342 Rx 5  00 00 00 00 00 
    663      7834.967 DT     0332 Rx 8  18 50 D8 40 5B 08 FF 00 
    664      7841.582 DT     012B Rx 1  03 
    665      7842.558 DT     0350 Rx 8  03 22 0F 07 E5 09 10 01 
    666      7845.013 DT     024E Rx 8  FF FF 10 00 00 00 FF FF 
    667      7845.997 DT     02FF Rx 8  00 91 00 0D FF FF FF FF 
    668      7849.188 DT     033B Rx 8  00 FF 01 E7 00 00 E4 00 
    669      7851.972 DT     035C Rx 6  00 00 00 00 1F 00 
    670      7854.900 DT     0252 Rx 8  03 00 0F F7 80 4F 80 80 
    671      7855.908 DT     0318 Rx 8  00 00 00 00 00 00 FF 00 
    672      7856.883 DT     0340 Rx 8  FF FF 3D 00 30 80 00 00 
    673      7864.891 DT     02C3 Rx 8  04 04 00 01 00 00 FF 00 
    674      7865.859 DT     03DE Rx 8  36 00 00 00 03 00 D1 01 
    675      7874.946 DT     02F8 Rx 8  00 FF F0 00 00 00 28 00 
    676      7875.618 DT     03D2 Rx 4  09 6B 74 00 
    677      7882.594 DT     03E0 Rx 8  00 31 43 34 48 4A 58 46 
    678      7884.601 DT     0122 Rx 4  04 02 00 00 
    679      7885.593 DT     032A Rx 8  00 00 00 00 00 00 D8 AB 
    680      7886.552 DT     03B2 Rx 8  03 00 A8 00 F0 FF FF 00 
    681      7894.848 DT     03A2 Rx 6  00 00 02 01 FF 00 
    682      7899.086 DT     043C Rx 8  FD 3F 04 0F 01 00 00 01 
    683      7904.878 DT     022D Rx 8  84 00 00 00 00 00 00 00 
    684      7905.558 DT     0358 Rx 4  FF 01 FF 00 
    685      7914.918 DT     0395 Rx 8  03 FF 07 FF 00 00 30 00 
    686      7924.895 DT     0322 Rx 8  03 E6 00 00 37 FF FF FF 
    687      7934.910 DT     030A Rx 8  04 80 00 63 FC 00 02 31 
    688      7941.574 DT     012B Rx 1  03 
    689      7945.078 DT     024E Rx 8  FF FF 10 00 00 00 FF FF 
    690      7946.062 DT     02FF Rx 8  00 91 00 0B FF FF FF FF 
    691      7949.285 DT     033B Rx 8  00 FF 01 E7 00 00 E4 00 
    692      7954.621 DT     01C0 Rx 6  00 00 00 00 00 00 
    693      7955.573 DT     0252 Rx 8  03 00 0F F7 80 47 80 80 
    694      7956.580 DT     0318 Rx 8  00 00 00 00 00 00 FF 00 
    695      7964.869 DT     02C3 Rx 8  04 04 00 01 00 00 FF 00 
    696      7974.572 DT     02C2 Rx 4  1A 97 7E 00 
    697      7982.580 DT     03E0 Rx 8  01 47 37 4A 57 33 31 32 
    698      7984.595 DT     0122 Rx 4  04 02 00 00 
    699      7985.563 DT     0232 Rx 8  FF 65 00 FF 00 00 00 01 
    700      7992.099 DT     043F Rx 8  FD 01 04 0F 01 00 00 01 
    701      8024.891 DT     0322 Rx 8  03 E0 00 00 37 FF FF FF 
    702      8041.579 DT     012B Rx 1  03 
    703      8045.083 DT     024E Rx 8  FF FF 10 00 00 00 FF FF 
    704      8046.075 DT     02FF Rx 8  00 91 00 09 FF FF FF FF 
    705      8049.306 DT     033B Rx 8  00 FF 01 E7 00 00 E4 00 
    706      8054.866 DT     0252 Rx 8  03 00 0F F7 80 47 80 80 
    707      8055.874 DT     0318 Rx 8  00 00 00 00 00 00 FF 00 
    708      8064.873 DT     02C3 Rx 8  04 04 00 01 00 00 FF 00 
    709      8076.602 DT     0401 Rx 8  FD 03 04 0F 01 00 00 01 
    710      8082.642 DT     03E0 Rx 8  02 39 32 36 00 00 00 00 
    711      8084.585 DT     0122 Rx 4  04 02 00 00 
    712      8105.145 DT     031E Rx 6  00 80 00 C0 00 00 
    713      8124.865 DT     0322 Rx 8  03 D1 00 00 37 FF FF FF 
    714      8141.593 DT     012B Rx 1  03 
    715      8145.089 DT     024E Rx 8  FF FF 10 00 00 00 FF FF 
    716      8146.088 DT     02FF Rx 8  00 91 00 07 FF FF FF FF 
    717      8149.240 DT     033B Rx 8  00 FF 01 E7 00 00 E4 00 
    718      8154.616 DT     01C0 Rx 6  00 00 00 00 00 00 
    719      8155.567 DT     0252 Rx 8  03 00 0F F7 80 47 80 80 
    720      8156.575 DT     0318 Rx 8  00 00 00 00 00 00 FF 00 
    721      8164.894 DT     02C3 Rx 8  04 04 00 01 00 00 FF 00 
    722      8174.222 DT     0403 Rx 8  FD 3C 04 0F 01 00 00 01 
    723      8174.886 DT     02C2 Rx 4  1A 97 7F 00 
    724      8182.622 DT     03E0 Rx 8  00 31 43 34 48 4A 58 46 
    725      8184.589 DT     0122 Rx 4  04 02 00 00 
    726      8185.557 DT     0232 Rx 8  FF 65 00 FF 00 00 00 01 
    727      8224.854 DT     0322 Rx 8  03 CE 00 00 37 FF FF FF 
    728      8241.582 DT     012B Rx 1  03 
    729      8244.982 DT     024E Rx 8  FF FF 10 00 00 00 FF FF 
    730      8245.973 DT     02FF Rx 8  00 91 00 06 FF FF FF FF 
    731      8249.221 DT     033B Rx 8  00 FF 01 E7 00 00 E4 00 
    732      8254.173 DT     0230 Rx 8  00 6A 36 08 00 00 00 00 
    733      8255.116 DT     0252 Rx 8  03 00 0F F7 80 47 80 80 
    734      8256.124 DT     0318 Rx 8  00 00 00 00 00 00 FF 00 
    735      8258.979 DT     043C Rx 8  FD 3F 04 0F 01 00 00 01 
    736      8264.978 DT     02C3 Rx 8  04 04 00 01 00 00 FF 00 
    737      8274.474 DT     0339 Rx 2  F0 F0 
    738      8282.602 DT     03E0 Rx 8  01 47 37 4A 57 33 31 32 
    739      8284.585 DT     0122 Rx 4  04 02 00 00 
    740      8294.993 DT     0248 Rx 8  00 00 FF FF FF 03 FF FF 
    741      8304.593 DT     01C8 Rx 4  00 00 00 00 
    742      8305.568 DT     02FA Rx 8  03 01 00 1A 00 FF 00 00 
    743      8324.888 DT     0322 Rx 8  03 BF 00 00 37 FF FF FF 
    744      8334.880 DT     0332 Rx 8  18 50 D8 40 5B 08 FF 00 
    745      8341.584 DT     012B Rx 1  03 
    746      8344.976 DT     024E Rx 8  FF FF 10 00 00 00 FF FF 
    747      8345.960 DT     02FF Rx 8  00 91 00 05 FF FF FF FF 
    748      8349.151 DT     033B Rx 8  00 FF 01 E7 00 00 E4 00 
    749      8352.111 DT     043F Rx 8  FD 01 04 0F 01 00 00 01 
    750      8353.063 DT     0328 Rx 8  40 41 00 4D 00 55 00 53 
    751      8354.623 DT     01C0 Rx 6  00 00 00 00 00 00 
    752      8355.575 DT     0252 Rx 8  03 00 0F F7 80 47 80 80 
    753      8356.583 DT     0318 Rx 8  00 00 00 00 00 00 FF 00 
    754      8364.887 DT     02C3 Rx 8  04 04 00 01 00 00 FF 00 
    755      8374.631 DT     02C2 Rx 4  1A 97 80 00 
    756      8382.111 DT     0328 Rx 8  30 01 00 49 00 43 00 20 
    757      8383.078 DT     03E0 Rx 8  02 39 32 36 00 00 00 00 
    758      8384.614 DT     0122 Rx 4  04 02 00 00 
    759      8385.581 DT     0232 Rx 8  FF 65 00 FF 00 00 00 01 
    760      8412.117 DT     0328 Rx 8  20 01 00 4F 00 46 00 46 
    761      8414.933 DT     0395 Rx 8  03 FF 07 FF 00 00 30 00 
    762      8424.861 DT     0322 Rx 8  03 C0 00 00 37 FF FF FF 
    763      8436.613 DT     0401 Rx 8  FD 03 04 0F 01 00 00 01 
    764      8441.605 DT     012B Rx 1  03 
    765      8442.620 DT     0328 Rx 8  10 01 00 00 00 00 00 00 
    766      8445.004 DT     024E Rx 8  FF FF 10 00 00 00 FF FF 
    767      8445.988 DT     02FF Rx 8  00 91 00 04 FF FF FF FF 
    768      8449.163 DT     033B Rx 8  00 FF 01 E7 00 00 E4 00 
    769      8454.971 DT     0252 Rx 8  03 00 0F F7 80 4F 80 80 
    770      8455.979 DT     0318 Rx 8  00 00 00 00 00 00 FF 00 
    771      8464.898 DT     02C3 Rx 8  04 04 00 01 00 00 FF 00 
    772      8472.162 DT     0328 Rx 8  00 01 00 00 00 00 00 00 
    773      8482.642 DT     03E0 Rx 8  00 31 43 34 48 4A 58 46 
    774      8484.594 DT     0122 Rx 4  04 02 00 00 
    775      8502.162 DT     0328 Rx 8  00 00 00 00 00 00 00 00 
    776      8524.899 DT     0322 Rx 8  03 B9 00 00 37 FF FF FF 
    777      8534.359 DT     0403 Rx 8  FD 3C 04 0F 01 00 00 01 
    778      8541.694 DT     012B Rx 1  03 
    779      8545.086 DT     024E Rx 8  FF FF 10 00 00 00 FF FF 
    780      8546.070 DT     02FF Rx 8  00 91 00 03 FF FF FF FF 
    781      8549.301 DT     033B Rx 8  00 FF 01 E7 00 00 E4 00 
    782      8554.725 DT     01C0 Rx 6  00 00 00 00 00 00 
    783      8555.685 DT     0252 Rx 8  03 00 0F F7 80 57 80 80 
    784      8556.693 DT     0318 Rx 8  00 00 00 00 00 00 FF 00 
    785      8565.093 DT     02C3 Rx 8  04 04 00 01 00 00 FF 00 
    786      8574.708 DT     02C2 Rx 4  1A 97 81 00 
    787      8582.716 DT     03E0 Rx 8  01 47 37 4A 57 33 31 32 
    788      8584.692 DT     0122 Rx 4  04 02 00 00 
    789      8585.667 DT     0232 Rx 8  FF 64 00 FF 00 00 00 01 
    790      8604.907 DT     031E Rx 6  00 80 00 C0 00 00 
    791      8618.967 DT     043C Rx 8  FD 3F 04 0F 01 00 00 01 
    792      8624.990 DT     0322 Rx 8  03 B4 00 00 37 FF FF FF 
    793      8641.694 DT     012B Rx 1  03 
    794      8645.086 DT     024E Rx 8  FF FF 10 00 00 00 FF FF 
    795      8646.069 DT     02FF Rx 8  00 91 00 03 FF FF FF FF 
    796      8649.301 DT     033B Rx 8  00 FF 01 E7 00 00 E4 00 
    797      8654.981 DT     0252 Rx 8  03 00 0F F7 80 47 80 80 
    798      8655.988 DT     0318 Rx 8  00 00 00 00 00 00 FF 00 
    799      8665.076 DT     02C3 Rx 8  04 04 00 01 00 00 FF 00 
    800      8682.781 DT     03E0 Rx 8  02 39 32 36 00 00 00 00 
    801      8684.700 DT     0122 Rx 4  04 02 00 00 
    802      8713.565 DT     043F Rx 8  FD 01 04 0F 01 00 00 01 
    803      8725.012 DT     0322 Rx 8  03 AC 00 00 37 FF FF FF 
    804      8742.709 DT     012B Rx 1  03 
    805      8745.132 DT     024E Rx 8  FF FF 10 00 00 00 FF FF 
    806      8746.093 DT     02C6 Rx 8  41 23 05 13 00 00 00 01 
    807      8747.077 DT     02FF Rx 8  00 91 00 02 FF FF FF FF 
    808      8749.292 DT     033B Rx 8  00 FF 01 E7 00 00 E4 00 
    809      8752.699 DT     022F Rx 1  01 
    810      8754.267 DT     0230 Rx 8  00 6A 36 08 00 00 00 00 
    811      8755.123 DT     01C0 Rx 6  00 00 00 00 00 00 
    812      8756.090 DT     0252 Rx 8  03 00 0F F7 80 4F 80 80 
    813      8757.098 DT     0318 Rx 8  00 00 00 00 00 00 FF 00 
    814      8759.273 DT     034E Rx 8  7F 7F 7F 7F 00 0F 00 7F 
    815      8761.257 DT     02D3 Rx 8  07 00 00 00 00 00 00 00 
    816      8763.248 DT     02F3 Rx 8  00 00 00 00 00 00 00 00 
    817      8764.376 DT     033C Rx 8  00 31 01 F7 00 00 00 00 
    818      8765.359 DT     02C3 Rx 8  04 04 00 01 00 00 FF 00 
    819      8766.031 DT     03C9 Rx 4  7B 44 00 00 
    820      8767.006 DT     03F4 Rx 8  11 0F FF 20 02 00 00 84 
    821      8769.246 DT     033A Rx 8  1A 04 2F 7F 7F 7F 7F 7F 
    822      8771.252 DT     0273 Rx 8  00 00 00 00 00 00 00 00 
    823      8773.284 DT     0302 Rx 8  00 02 00 00 00 00 00 00 
    824      8774.300 DT     030E Rx 8  00 E4 1C 15 07 FF 07 FF 
    825      8774.971 DT     02C2 Rx 4  1A 97 82 00 
    826      8775.507 DT     0339 Rx 2  F0 F0 
    827      8781.273 DT     02D4 Rx 8  00 00 00 00 00 00 00 00 
    828      8782.737 DT     03E0 Rx 8  00 31 43 34 48 4A 58 46 
    829      8783.417 DT     030D Rx 4  00 00 00 00 
    830      8784.768 DT     0122 Rx 4  04 02 00 00 
    831      8785.744 DT     0232 Rx 8  FF 64 00 FF 00 00 00 01 
    832      8786.679 DT     03F2 Rx 8  5D 02 B2 01 09 20 10 06 
    833      8793.143 DT     030F Rx 7  00 0A 0A 0A 0A 0A 00 
    834      8795.118 DT     0248 Rx 8  00 00 FF FF FF 03 FF FF 
    835      8796.118 DT     039E Rx 8  00 00 00 00 00 00 00 00 
    836      8797.094 DT     0401 Rx 8  FD 03 04 0F 01 00 00 01 
    837      8803.230 DT     0317 Rx 8  00 00 00 00 00 00 3A 00 
    838      8804.822 DT     01C8 Rx 4  00 00 00 00 
    839      8805.798 DT     02FA Rx 8  03 01 00 1A 00 FF 00 00 
    840      8813.326 DT     0328 Rx 8  00 00 00 00 00 00 00 00 
    841      8814.557 DT     03CD Rx 8  40 11 00 00 00 00 00 00 
    842      8815.549 DT     03B4 Rx 8  35 80 00 00 00 00 04 00 
    843      8816.509 DT     03EB Rx 8  43 E8 10 04 0F A0 09 C4 
    844      8822.853 DT     032F Rx 3  00 00 00 
    845      8825.036 DT     02AD Rx 8  00 00 00 00 00 00 00 00 
    846      8826.020 DT     0322 Rx 8  03 AA 00 00 37 FF FF FF 
    847      8826.956 DT     03EA Rx 8  41 57 2C 08 B5 34 41 A4 
    848      8833.060 DT     0342 Rx 5  00 00 00 00 00 
    849      8835.012 DT     0332 Rx 8  18 50 D8 40 5B 08 FF 00 
    850      8835.972 DT     03E9 Rx 8  01 58 66 00 25 25 00 00 
    851      8842.700 DT     012B Rx 1  03 
    852      8843.660 DT     0350 Rx 8  04 22 0F 07 E5 09 10 01 
    853      8845.147 DT     024E Rx 8  FF FF 10 00 00 00 FF FF 
    854      8846.131 DT     02FF Rx 8  00 91 00 02 FF FF FF FF 
    855      8847.059 DT     03E8 Rx 8  49 31 A2 53 00 0E 51 5C 
    856      8849.267 DT     033B Rx 8  00 FF 01 E7 00 00 E4 00 
    857      8853.106 DT     035C Rx 6  00 00 00 00 1F 00 
    858      8855.050 DT     0252 Rx 8  03 00 0F F7 80 47 80 80 
    859      8856.058 DT     0318 Rx 8  00 00 00 00 00 00 FF 00 
    860      8857.034 DT     0340 Rx 8  FF FF 3D 00 30 80 00 00 
    861      8858.009 DT     03E4 Rx 8  81 DF 88 46 0E 00 00 00 
    862      8865.025 DT     02C3 Rx 8  04 04 00 01 00 00 FF 00 
    863      8865.993 DT     03DE Rx 8  36 00 00 00 03 00 D1 01 
    864      8866.984 DT     03E3 Rx 8  31 04 10 08 00 00 00 00 
    865      8875.176 DT     02F8 Rx 8  00 FF F0 00 00 00 28 00 
    866      8875.847 DT     03D2 Rx 4  09 6B 74 00 
    867      8882.735 DT     03E0 Rx 8  01 47 37 4A 57 33 31 32 
    868      8884.759 DT     0122 Rx 4  04 02 00 00 
    869      8885.718 DT     030A Rx 8  04 80 00 64 FC 00 02 31 
    870      8886.710 DT     032A Rx 8  00 00 00 00 00 00 D8 AB 
    871      8887.669 DT     03B2 Rx 8  03 00 A8 00 F0 FF FF 00 
    872      8894.373 DT     0403 Rx 8  FD 3C 04 0F 01 00 00 01 
    873      8895.333 DT     02C5 Rx 8  01 EE EE 1C 05 00 00 00 
    874      8896.165 DT     03A2 Rx 6  00 00 02 01 FF 00 
    875      8904.996 DT     022D Rx 8  84 00 00 00 00 00 00 00 
    876      8905.676 DT     0358 Rx 4  FF 01 FF 00 
    877      8915.021 DT     0381 Rx 8  89 8D 00 08 00 04 00 00 
    878      8916.020 DT     0395 Rx 8  03 FF 07 FF 00 00 30 00 
    879      8925.044 DT     0322 Rx 8  03 A4 00 00 37 FF FF FF 
    880      8926.044 DT     038A Rx 8  01 00 00 00 00 00 00 00 
    881      8935.027 DT     030A Rx 8  04 80 00 64 FC 00 02 31 
    882      8935.995 DT     03D8 Rx 8  FD 00 64 FA 58 23 00 00 
    883      8942.699 DT     012B Rx 1  03 
    884      8945.090 DT     024E Rx 8  FF FF 10 00 00 00 FF FF 
    885      8946.082 DT     02FF Rx 8  00 91 00 01 FF FF FF FF 
    886      8949.297 DT     033B Rx 8  00 FF 01 E7 00 00 E4 00 
    887      8954.729 DT     01C0 Rx 6  00 00 00 00 00 00 
    888      8955.688 DT     0252 Rx 8  03 00 0F F7 80 3F 80 80 
    889      8956.696 DT     0318 Rx 8  00 00 00 00 00 00 FF 00 
    890      8965.000 DT     02C3 Rx 8  04 04 00 01 00 00 FF 00 
    891      8974.808 DT     02C2 Rx 4  1A 97 83 00 
    892      8978.854 DT     043C Rx 8  FD 3F 04 0F 01 00 00 01 
    893      8982.807 DT     03E0 Rx 8  02 39 32 36 00 00 00 00 
    894      8984.711 DT     0122 Rx 4  04 02 00 00 
    895      8985.695 DT     0232 Rx 8  FF 64 00 FF 00 00 00 01 
    896      9015.071 DT     044A Rx 8  01 00 00 00 00 00 00 20 
    897      9025.007 DT     0322 Rx 8  03 A5 00 00 37 FF FF FF 
    898      9026.006 DT     044C Rx 8  7D 00 00 00 00 00 FF FF 
    899      9035.014 DT     03B3 Rx 8  01 30 72 01 E4 A3 07 10 
    900      9042.718 DT     012B Rx 1  03 
    901      9045.101 DT     024E Rx 8  FF FF 10 00 00 00 FF FF 
    902      9046.093 DT     02FF Rx 8  00 91 00 01 FF FF FF FF 
    903      9049.285 DT     033B Rx 8  00 FF 01 E7 00 00 E4 00 
    904      9054.973 DT     0252 Rx 8  03 00 0F F7 80 47 80 80 
    905      9055.981 DT     0318 Rx 8  00 00 00 00 00 00 FF 00 
    906      9065.012 DT     02C3 Rx 8  04 04 00 01 00 00 FF 00 
    907      9073.228 DT     043F Rx 8  FD 01 04 0F 01 00 00 01 
    908      9082.972 DT     03E0 Rx 8  00 31 43 34 48 4A 58 46 
    909      9084.716 DT     0122 Rx 4  04 02 00 00 
    910      9104.524 DT     031E Rx 6  00 80 00 C0 00 00 
    911      9125.012 DT     0322 Rx 8  03 99 00 00 37 FF FF FF 
    912      9142.709 DT     012B Rx 1  03 
    913      9145.101 DT     024E Rx 8  FF FF 10 00 00 00 FF FF 
    914      9146.092 DT     02FF Rx 8  00 91 00 00 FF FF FF FF 
    915      9149.380 DT     033B Rx 8  00 FF 01 E7 00 00 E4 00 
    916      9154.731 DT     01C0 Rx 6  00 00 00 00 00 00 
    917      9155.683 DT     0252 Rx 8  03 00 0F F7 80 47 80 80 
    918      9156.691 DT     0318 Rx 8  00 00 00 00 00 00 FF 00 
    919      9157.666 DT     0401 Rx 8  FD 03 04 0F 01 00 00 01 
    920      9165.018 DT     02C3 Rx 8  04 04 00 01 00 00 FF 00 
    921      9174.713 DT     02C2 Rx 4  1A 97 85 00 
    922      9182.753 DT     03E0 Rx 8  01 47 37 4A 57 33 31 32 
    923      9184.809 DT     0122 Rx 4  04 02 00 00 
    924      9185.784 DT     0232 Rx 8  FF 64 00 FF 00 00 00 01 
    925      9224.993 DT     0322 Rx 8  03 96 00 00 37 FF FF FF 
    926      9242.705 DT     012B Rx 1  03 
    927      9245.105 DT     024E Rx 8  FF FF 10 00 00 00 FF FF 
    928      9246.096 DT     02FF Rx 8  00 91 00 00 FF FF FF FF 
    929      9249.416 DT     033B Rx 8  00 FF 01 E7 00 00 E4 00 
    930      9254.320 DT     0230 Rx 8  00 6A 36 08 00 00 00 00 
    931      9255.263 DT     0252 Rx 8  03 00 0F F7 80 47 80 80 
    932      9256.231 DT     0403 Rx 8  FD 3C 04 0F 01 00 00 01 
    933      9257.230 DT     0318 Rx 8  00 00 00 00 00 00 FF 00 
    934      9265.086 DT     02C3 Rx 8  04 04 00 01 00 00 FF 00 
    935      9274.606 DT     0339 Rx 2  F0 F0 
    936      9283.045 DT     03E0 Rx 8  02 39 32 36 00 00 00 00 
    937      9284.805 DT     0122 Rx 4  04 02 00 00 
    938      9295.118 DT     0248 Rx 8  00 00 FF FF FF 03 FF FF 
    939      9304.718 DT     01C8 Rx 4  00 00 00 00 
    940      9305.693 DT     02FA Rx 8  03 01 00 1A 00 FF 00 00 
    941      9325.006 DT     0322 Rx 8  03 91 00 00 37 FF FF FF 
    942      9335.013 DT     0332 Rx 8  18 50 D8 40 5B 08 FF 00 
    943      9338.748 DT     043C Rx 8  FD 3F 04 0F 01 00 00 01 
    944      9342.724 DT     012B Rx 1  03 
    945      9345.108 DT     024E Rx 8  FF FF 10 00 00 00 FF FF 
    946      9346.099 DT     02FF Rx 8  00 91 00 00 FF FF FF FF 
    947      9349.363 DT     033B Rx 8  00 FF 01 E7 00 00 E4 00 
    948      9354.747 DT     01C0 Rx 6  00 00 00 00 00 00 
    949      9355.714 DT     0252 Rx 8  03 00 0F F7 80 4F 80 80 
    950      9356.730 DT     0318 Rx 8  00 00 00 00 00 00 FF 00 
    951      9365.002 DT     02C3 Rx 8  04 04 00 01 00 00 FF 00 
    952      9374.714 DT     02C2 Rx 4  1A 97 89 00 
    953      9382.993 DT     03E0 Rx 8  00 31 43 34 48 4A 58 46 
    954      9384.809 DT     0122 Rx 4  04 02 00 00 
    955      9385.784 DT     0232 Rx 8  FF 64 00 FF 00 00 00 01 
    956      9415.040 DT     0395 Rx 8  03 FF 07 FF 00 00 30 00 
    957      9425.008 DT     0322 Rx 8  03 8B 00 00 37 FF FF FF 
    958      9433.248 DT     043F Rx 8  FD 01 04 0F 01 00 00 01 
    959      9442.712 DT     012B Rx 1  03 
    960      9445.112 DT     024E Rx 8  FF FF 10 00 00 00 FF FF 
    961      9446.103 DT     02FF Rx 8  00 91 00 00 FF FF FF FF 
    962      9449.296 DT     033B Rx 8  00 FF 01 E7 00 00 E4 00 
    963      9455.000 DT     0252 Rx 8  03 00 0F F7 80 47 80 80 
    964      9456.008 DT     0318 Rx 8  00 00 00 00 00 00 FF 00 
    965      9465.023 DT     02C3 Rx 8  04 04 00 01 00 00 FF 00 
    966      9482.783 DT     03E0 Rx 8  01 47 37 4A 57 33 31 32 
    967      9484.735 DT     0122 Rx 4  04 02 00 00 
    968      9516.743 DT     0401 Rx 8  FD 03 04 0F 01 00 00 01 
    969      9524.983 DT     0322 Rx 8  03 8E 00 00 37 FF FF FF 
    970      9542.737 DT     012B Rx 1  03 
    971      9545.105 DT     024E Rx 8  FF FF 10 00 00 00 FF FF 
    972      9546.097 DT     02FF Rx 8  00 91 00 00 FF FF FF FF 
    973      9549.321 DT     033B Rx 8  00 FF 01 E7 00 00 E4 00 
    974      9554.752 DT     01C0 Rx 6  00 00 00 00 00 00 
    975      9555.720 DT     0252 Rx 8  03 00 0F F7 80 4F 80 80 
    976      9556.727 DT     0318 Rx 8  00 00 00 00 00 00 FF 00 
    977      9563.231 DT     0328 Rx 8  40 41 00 4D 00 55 00 53 
    978      9565.087 DT     02C3 Rx 8  04 04 00 01 00 00 FF 00 
    979      9574.767 DT     02C2 Rx 4  1A 97 8C 00 
    980      9582.855 DT     03E0 Rx 8  02 39 32 36 00 00 00 00 
    981      9584.742 DT     0122 Rx 4  04 02 00 00 
    982      9585.718 DT     0232 Rx 8  FF 64 00 FF 00 00 00 01 
    983      9593.269 DT     0328 Rx 8  30 01 00 49 00 43 00 20 
    984      9604.156 DT     031E Rx 6  00 80 00 C0 00 00 
    985      9614.460 DT     0403 Rx 8  FD 3C 04 0F 01 00 00 01 
    986      9623.236 DT     0328 Rx 8  20 01 00 4F 00 46 00 46 
    987      9625.084 DT     0322 Rx 8  03 91 00 00 37 FF FF FF 
    988      9642.748 DT     012B Rx 1  03 
    989      9645.140 DT     024E Rx 8  FF FF 10 00 00 00 FF FF 
    990      9646.131 DT     02FF Rx 8  00 91 00 00 FF FF FF FF 
    991      9649.347 DT     033B Rx 8  00 FF 01 E7 00 00 E4 00 
    992      9653.314 DT     0328 Rx 8  10 01 00 00 00 00 00 00 
    993      9655.082 DT     0252 Rx 8  03 00 0F F7 80 3F 80 80 
    994      9656.089 DT     0318 Rx 8  00 00 00 00 00 00 FF 00 
    995      9665.033 DT     02C3 Rx 8  04 04 00 01 00 00 FF 00 
    996      9683.033 DT     03E0 Rx 8  00 31 43 34 48 4A 58 46 
    997      9684.025 DT     0328 Rx 8  00 01 00 00 00 00 00 00 
    998      9684.776 DT     0122 Rx 4  04 02 00 00 
    999      9698.659 DT     043C Rx 8  FD 3F 04 0F 01 00 00 01 
   1000      9713.372 DT     0328 Rx 8  00 00 00 00 00 00 00 00 
   1001      9725.043 DT     0322 Rx 8  03 A3 00 00 37 FF FF FF 
   1002      9742.748 DT     012B Rx 1  03 
   1003      9745.155 DT     024E Rx 8  FF FF 10 00 00 00 FF FF 
   1004      9746.147 DT     02FF Rx 8  00 91 00 00 FF FF FF FF 
   1005      9749.347 DT     033B Rx 8  00 FF 01 E7 00 00 E4 00 
   1006      9752.747 DT     022F Rx 1  01 
   1007      9754.370 DT     0230 Rx 8  00 6A 36 08 00 00 00 00 
   1008      9755.226 DT     01C0 Rx 6  00 00 00 00 00 00 
   1009      9756.195 DT     0252 Rx 8  03 00 0F F7 80 3F 80 80 
   1010      9757.202 DT     0318 Rx 8  00 00 00 00 00 00 FF 00 
   1011      9759.313 DT     034E Rx 8  7F 7F 7F 7F 00 0F 00 7F 
   1012      9760.969 DT     02D3 Rx 8  07 00 00 00 00 00 00 00 
   1013      9763.305 DT     02F3 Rx 8  00 00 00 00 00 00 00 00 
   1014      9764.344 DT     033C Rx 8  00 31 01 F7 00 00 00 00 
   1015      9765.328 DT     02C3 Rx 8  04 04 00 01 00 00 FF 00 
   1016      9766.000 DT     03C9 Rx 4  7B 44 00 00 
   1017      9769.440 DT     033A Rx 8  1A 04 2F 7F 7F 7F 7F 7F 
   1018      9770.975 DT     0273 Rx 8  00 00 00 00 00 00 00 00 
   1019      9773.302 DT     0302 Rx 8  00 02 00 00 00 00 00 00 
   1020      9774.350 DT     030E Rx 8  00 E4 1C 15 07 FF 07 FF 
   1021      9775.029 DT     02C2 Rx 4  1A 97 8C 00 
   1022      9775.557 DT     0339 Rx 2  F0 F0 
   1023      9780.987 DT     02D4 Rx 8  00 00 00 00 00 00 00 00 
   1024      9783.035 DT     03E0 Rx 8  01 47 37 4A 57 33 31 32 
   1025      9783.714 DT     030D Rx 4  00 00 00 00 
   1026      9784.802 DT     0122 Rx 4  04 02 00 00 
   1027      9785.778 DT     0232 Rx 8  FF 64 00 FF 00 00 00 01 
   1028      9793.258 DT     043F Rx 8  FD 01 04 0F 01 00 00 01 
   1029      9794.162 DT     030F Rx 7  00 0A 0A 0A 0A 0A 00 
   1030      9795.185 DT     0248 Rx 8  00 00 FF FF FF 03 FF FF 
   1031      9796.185 DT     039E Rx 8  00 00 00 00 00 00 00 00 
   1032      9803.257 DT     0317 Rx 8  00 00 00 00 00 00 3A 00 
   1033      9804.929 DT     01C8 Rx 4  00 00 00 00 
   1034      9805.904 DT     02FA Rx 8  03 01 00 1A 00 FF 00 00 
   1035      9813.376 DT     0328 Rx 8  00 00 00 00 00 00 00 00 
   1036      9822.912 DT     032F Rx 3  00 00 00 
   1037      9825.023 DT     022D Rx 8  83 00 00 00 00 00 00 00 
   1038      9826.023 DT     02AD Rx 8  00 00 00 00 00 00 00 00 
   1039      9826.998 DT     0322 Rx 8  03 AE 00 00 37 FF FF FF 
   1040      9833.086 DT     0342 Rx 5  00 00 00 00 00 
   1041      9835.022 DT     0332 Rx 8  18 50 D8 40 5B 08 FF 00 
   1042      9842.742 DT     012B Rx 1  03 
   1043      9843.701 DT     0350 Rx 8  05 22 0F 07 E5 09 10 01 
   1044      9845.173 DT     024E Rx 8  FF FF 10 00 00 00 FF FF 
   1045      9846.165 DT     02FF Rx 8  00 91 00 00 FF FF FF FF 
   1046      9849.308 DT     033B Rx 8  00 FF 01 E7 00 00 E4 00 
   1047      9853.156 DT     035C Rx 6  00 00 00 00 1F 00 
   1048      9855.091 DT     0252 Rx 8  03 00 0F F7 80 47 80 80 
   1049      9856.099 DT     0318 Rx 8  00 00 00 00 00 00 FF 00 
   1050      9857.074 DT     0340 Rx 8  FF FF 3D 00 30 80 00 00 
   1051      9865.050 DT     02C3 Rx 8  04 04 00 01 00 00 FF 00 
   1052      9866.018 DT     03DE Rx 8  36 00 00 00 03 00 D1 01 
   1053      9875.122 DT     02F8 Rx 8  00 FF F0 00 00 00 28 00 
   1054      9875.793 DT     03D2 Rx 4  09 6B 74 00 
   1055      9876.801 DT     0401 Rx 8  FD 03 04 0F 00 00 00 01 
   1056      9883.105 DT     03E0 Rx 8  02 39 32 36 00 00 00 00 
   1057      9884.640 DT     03CD Rx 8  40 01 00 00 00 00 00 00 
   1058      9885.328 DT     0122 Rx 4  04 02 00 00 
   1059      9886.319 DT     032A Rx 8  00 00 00 00 00 00 D8 AB 
   1060      9887.279 DT     03B2 Rx 8  03 00 A8 00 F0 FF FF 00 
   1061      9895.014 DT     03A2 Rx 6  00 00 02 01 FF 00 
   1062      9905.134 DT     022D Rx 8  83 00 00 00 00 00 00 00 
   1063      9905.814 DT     0358 Rx 4  FF 01 FF 00 
   1064      9915.093 DT     0395 Rx 8  03 FF 07 FF 00 00 30 00 
   1065      9925.037 DT     0322 Rx 8  03 B3 00 00 37 FF FF FF 
   1066      9935.069 DT     030A Rx 8  04 80 00 64 FC 00 02 31 
   1067      9942.756 DT     012B Rx 1  03 
   1068      9945.140 DT     024E Rx 8  FF FF 10 00 00 00 FF FF 
   1069      9946.132 DT     02FF Rx 8  00 91 00 00 FF FF FF FF 
   1070      9949.331 DT     033B Rx 8  00 FF 01 E7 00 00 E4 00 
   1071      9954.755 DT     01C0 Rx 6  00 00 00 00 00 00 
   1072      9955.715 DT     0252 Rx 8  03 00 0F F7 80 47 80 80 
   1073      9956.723 DT     0318 Rx 8  00 00 00 00 00 00 FF 00 
   1074      9965.035 DT     02C3 Rx 8  04 04 00 01 00 00 FF 00 
   1075      9974.411 DT     0403 Rx 8  FD 3C 04 0F 00 00 00 01 
   1076      9975.083 DT     02C2 Rx 4  1A 97 8B 00 
   1077      9983.051 DT     03E0 Rx 8  00 31 43 34 48 4A 58 46 
   1078      9984.739 DT     0122 Rx 4  04 02 00 00 
   1079      9985.714 DT     0232 Rx 8  FF 64 00 FF 00 00 00 01 
   1080      9993.298 DT     0317 Rx 8  00 00 00 00 00 00 12 00 
   1081     10023.282 DT     02F3 Rx 8  08 00 00 00 00 00 00 00 
   1082     10025.042 DT     0322 Rx 8  03 BA 00 00 37 FF FF FF 
   1083     10042.746 DT     012B Rx 1  03 
   1084     10045.122 DT     024E Rx 8  FF FF 10 00 00 00 FF FF 
   1085     10046.113 DT     02FF Rx 8  00 91 00 00 FF FF FF FF 
   1086     10049.345 DT     033B Rx 8  00 FF 01 E7 00 00 E4 00 
   1087     10055.056 DT     0252 Rx 8  03 00 0F F7 80 57 80 80 
   1088     10056.064 DT     0318 Rx 8  00 00 00 00 00 00 FF 00 
   1089     10058.566 DT     043C Rx 8  FD 3F 04 0F 00 00 00 01 
   1090     10065.062 DT     02C3 Rx 8  04 04 00 01 00 00 FF 00 
   1091     10083.054 DT     03E0 Rx 8  01 47 37 4A 57 33 31 32 
   1092     10084.766 DT     0122 Rx 4  04 02 00 00 
   1093     10094.678 DT     03CD Rx 8  40 00 00 00 00 00 00 00 
   1094     10103.245 DT     0328 Rx 8  40 41 00 53 00 58 00 4D 
   1095     10104.076 DT     031E Rx 6  00 80 00 C0 00 00 
   1096     10125.061 DT     0322 Rx 8  03 C4 00 00 37 FF FF FF 
   1097     10133.308 DT     02F3 Rx 8  00 00 00 00 00 00 00 00 
   1098     10134.300 DT     0328 Rx 8  30 01 00 20 00 52 00 64 
   1099     10142.748 DT     012B Rx 1  03 
   1100     10145.139 DT     024E Rx 8  FF FF 10 00 00 00 FF FF 
   1101     10146.131 DT     02FF Rx 8  00 91 00 00 FF FF FF FF 
   1102     10149.330 DT     033B Rx 8  00 FF 01 E7 00 00 E4 00 
   1103     10153.282 DT     043F Rx 8  FD 01 04 0F 01 00 00 01 
   1104     10154.762 DT     01C0 Rx 6  00 00 00 00 00 00 
   1105     10155.713 DT     0252 Rx 8  03 00 0F F7 80 47 80 80 
   1106     10156.721 DT     0318 Rx 8  00 00 00 00 00 00 FF 00 
   1107     10163.257 DT     0328 Rx 8  20 01 00 68 00 6F 00 75 
   1108     10165.104 DT     02C3 Rx 8  04 04 00 01 00 00 FF 00 
   1109     10174.784 DT     02C2 Rx 4  1A 97 8C 00 
   1110     10183.120 DT     03E0 Rx 8  02 39 32 36 00 00 00 00 
   1111     10184.759 DT     0122 Rx 4  04 02 00 00 
   1112     10185.735 DT     0232 Rx 8  FF 64 00 FF 00 00 00 01 
   1113     10193.295 DT     0328 Rx 8  10 01 00 73 00 65 00 00 
   1114     10223.288 DT     0328 Rx 8  00 01 00 00 00 00 00 00 
   1115     10225.096 DT     0322 Rx 8  03 D1 00 00 37 FF FF FF 
   1116     10236.896 DT     0401 Rx 8  FD 03 04 0F 00 00 00 01 
   1117     10242.768 DT     012B Rx 1  03 
   1118     10245.151 DT     024E Rx 8  FF FF 10 00 00 00 FF FF 
   1119     10246.143 DT     02FF Rx 8  00 91 00 00 FF FF FF FF 
   1120     10249.358 DT     033B Rx 8  00 FF 01 E8 00 00 E4 00 
   1121     10253.342 DT     0328 Rx 8  00 00 00 00 00 00 00 00 
   1122     10254.326 DT     0230 Rx 8  00 6A 36 08 00 00 00 00 
   1123     10255.285 DT     0252 Rx 8  03 00 0F F7 80 4F 80 80 
   1124     10256.293 DT     0318 Rx 8  00 00 00 00 00 00 FF 00 
   1125     10265.149 DT     02C3 Rx 8  04 04 00 01 00 00 FF 00 
   1126     10274.636 DT     0339 Rx 2  F0 F0 
   1127     10283.076 DT     03E0 Rx 8  00 31 43 34 48 4A 58 46 
   1128     10284.051 DT     0328 Rx 8  40 42 00 00 00 00 00 00 
   1129     10284.819 DT     0122 Rx 4  04 02 00 00 
   1130     10295.163 DT     0248 Rx 8  00 00 FF FF FF 03 FF FF 
   1131     10304.763 DT     01C8 Rx 4  00 00 00 00 
   1132     10305.738 DT     02FA Rx 8  03 01 00 1A 00 FF 00 00 
   1133     10313.331 DT     0328 Rx 8  30 02 00 00 00 00 00 00 
   1134     10325.050 DT     0322 Rx 8  03 D5 00 00 37 FF FF FF 
   1135     10334.370 DT     0403 Rx 8  FD 3C 3F FF FF FF FF FF 
   1136     10335.298 DT     0332 Rx 8  18 50 D8 40 5B 08 FF 00 
   1137     10342.762 DT     012B Rx 1  03 
   1138     10343.777 DT     0328 Rx 8  20 02 00 00 00 00 00 00 
   1139     10345.161 DT     024E Rx 8  FF FF 10 00 00 00 FF FF 
   1140     10346.152 DT     02FF Rx 8  00 91 00 00 FF FF FF FF 
   1141     10349.369 DT     033B Rx 8  00 FF 01 E7 00 00 E4 00 
   1142     10354.760 DT     01C0 Rx 6  00 00 00 00 00 00 
   1143     10355.720 DT     0252 Rx 8  03 00 0F F7 80 57 80 80 
   1144     10356.727 DT     0318 Rx 8  00 00 00 00 00 00 FF 00 
   1145     10365.063 DT     02C3 Rx 8  04 04 00 01 00 00 FF 00 
   1146     10373.327 DT     0328 Rx 8  10 02 00 00 00 00 00 00 
   1147     10374.823 DT     02C2 Rx 4  1A 97 8B 00 
   1148     10383.079 DT     03E0 Rx 8  01 47 37 4A 57 33 31 32 
   1149     10384.774 DT     0122 Rx 4  04 02 00 00 
   1150     10385.750 DT     0232 Rx 8  FF 64 00 FF 00 00 00 01 
   1151     10403.310 DT     0328 Rx 8  00 02 00 00 00 00 00 00 
   1152     10415.102 DT     0395 Rx 8  03 FF 07 FF 00 00 30 00 
   1153     10418.444 DT     043C Rx 8  FD 3F 3F FF FF FF FF FF 
   1154     10425.124 DT     0322 Rx 8  03 CF 00 00 37 FF FF FF 
   1155     10433.356 DT     0328 Rx 8  00 00 00 00 00 00 00 00 
   1156     10442.756 DT     012B Rx 1  03 
   1157     10445.164 DT     024E Rx 8  FF FF 10 00 00 00 FF FF 
   1158     10446.155 DT     02FF Rx 8  00 91 00 00 FF FF FF FF 
   1159     10449.355 DT     033B Rx 8  00 FF 01 E7 00 00 E4 00 
   1160     10455.043 DT     0252 Rx 8  03 00 0F F7 80 47 80 80 
   1161     10456.051 DT     0318 Rx 8  00 00 00 00 00 00 FF 00 
   1162     10463.291 DT     0328 Rx 8  40 43 00 00 00 00 00 00 
   1163     10465.107 DT     02C3 Rx 8  04 04 00 01 00 00 FF 00 
   1164     10466.090 DT     03CD Rx 8  40 40 00 00 00 00 00 00 
   1165     10483.138 DT     03E0 Rx 8  02 39 32 36 00 00 00 00 
   1166     10484.770 DT     0122 Rx 4  04 02 00 00 
   1167     10503.266 DT     0328 Rx 8  40 41 00 53 00 58 00 4D 
   1168     10513.346 DT     043F Rx 8  FD 01 04 0F 01 00 00 01 
   1169     10525.138 DT     0322 Rx 8  03 CD 00 00 37 FF FF FF 
   1170     10533.206 DT     0328 Rx 8  30 01 00 20 00 52 00 64 
   1171     10542.670 DT     012B Rx 1  03 
   1172     10545.054 DT     024E Rx 8  FF FF 10 00 00 00 FF FF 
   1173     10546.046 DT     02FF Rx 8  00 91 00 00 FF FF FF FF 
   1174     10549.285 DT     033B Rx 8  00 FF 01 E7 00 00 E4 00 
   1175     10554.661 DT     01C0 Rx 6  00 00 00 00 00 00 
   1176     10555.637 DT     0252 Rx 8  03 00 0F F7 80 47 80 80 
   1177     10556.645 DT     0318 Rx 8  00 00 00 00 00 00 FF 00 
   1178     10563.172 DT     0328 Rx 8  20 01 00 68 00 6F 00 75 
   1179     10565.027 DT     02C3 Rx 8  04 04 00 01 00 00 FF 00 
   1180     10574.675 DT     02C2 Rx 4  1A 97 8B 00 
   1181     10582.987 DT     03E0 Rx 8  00 31 43 34 48 4A 58 46 
   1182     10584.667 DT     0122 Rx 4  04 02 00 00 
   1183     10585.642 DT     0232 Rx 8  FF 64 00 FF 00 00 00 01 
   1184     10593.194 DT     0328 Rx 8  10 01 00 73 00 65 00 00 
   1185     10596.698 DT     0401 Rx 8  FD 03 04 0F 00 00 00 01 
   1186     10603.237 DT     031E Rx 6  00 80 00 C0 00 00 
   1187     10623.197 DT     0328 Rx 8  00 01 00 00 00 00 00 00 
   1188     10625.101 DT     0322 Rx 8  03 CC 00 00 37 FF FF FF 
   1189     10642.669 DT     012B Rx 1  03 
   1190     10645.060 DT     024E Rx 8  FF FF 10 00 00 00 FF FF 
   1191     10646.052 DT     02FF Rx 8  00 91 00 00 FF FF FF FF 
   1192     10649.236 DT     033B Rx 8  00 FF 01 E7 00 00 E4 00 
   1193     10653.244 DT     0328 Rx 8  00 00 00 00 00 00 00 00 
   1194     10655.012 DT     0252 Rx 8  03 00 0F F7 80 57 80 80 
   1195     10656.019 DT     0318 Rx 8  00 00 00 00 00 00 FF 00 
   1196     10664.971 DT     02C3 Rx 8  04 04 00 01 00 00 FF 00 
   1197     10683.043 DT     03E0 Rx 8  01 47 37 4A 57 33 31 32 
   1198     10684.018 DT     0328 Rx 8  40 42 00 00 00 00 00 00 
   1199     10684.714 DT     0122 Rx 4  04 02 00 00 
   1200     10694.323 DT     0403 Rx 8  FD 3C 3F FF FF FF FF FF 
   1201     10713.274 DT     0328 Rx 8  30 02 00 00 00 00 00 00 
   1202     10724.978 DT     0322 Rx 8  03 D0 00 00 37 FF FF FF 
   1203     10742.666 DT     012B Rx 1  03 
   1204     10743.682 DT     0328 Rx 8  20 02 00 00 00 00 00 00 
   1205     10745.113 DT     024E Rx 8  FF FF 10 00 00 00 FF FF 
   1206     10746.073 DT     02C6 Rx 8  41 23 05 13 00 00 00 01 
   1207     10747.065 DT     02FF Rx 8  00 91 00 00 FF FF FF FF 
   1208     10749.232 DT     033B Rx 8  00 FF 01 E7 00 00 E4 00 
   1209     10752.688 DT     022F Rx 1  01 
   1210     10754.311 DT     0230 Rx 8  00 6A 36 08 00 00 00 00 
   1211     10755.167 DT     01C0 Rx 6  00 00 00 00 00 00 
   1212     10756.119 DT     0252 Rx 8  03 00 0F F7 80 47 80 80 
   1213     10757.126 DT     0318 Rx 8  00 00 00 00 00 00 FF 00 
   1214     10759.229 DT     034E Rx 8  7F 7F 7F 7F 00 0F 00 7F 
   1215     10760.565 DT     02D3 Rx 8  07 00 00 00 00 00 00 00 
   1216     10763.244 DT     02F3 Rx 8  00 00 00 00 00 00 00 00 
   1217     10764.228 DT     02D3 Rx 8  07 24 00 00 00 00 00 00 
   1218     10765.211 DT     02C3 Rx 8  04 04 00 01 00 00 FF 00 
   1219     10766.203 DT     033C Rx 8  00 31 01 F7 00 00 00 00 
   1220     10766.866 DT     03C9 Rx 4  7B 44 00 00 
   1221     10767.850 DT     02D3 Rx 8  07 24 00 00 00 00 00 00 
   1222     10768.817 DT     03F4 Rx 8  11 0F FF 20 02 00 00 84 
   1223     10769.761 DT     033A Rx 8  19 FA 2F 7F 7F 7F 7F 7F 
   1224     10770.752 DT     0273 Rx 8  00 00 00 00 00 00 00 00 
   1225     10771.736 DT     02D3 Rx 8  07 24 00 00 00 00 00 00 
   1226     10773.239 DT     0302 Rx 8  00 02 00 00 00 00 00 00 
   1227     10774.215 DT     02D3 Rx 8  07 24 00 00 00 00 00 00 
   1228     10775.190 DT     030E Rx 8  00 E4 1C 15 07 FF 07 FF 
   1229     10775.861 DT     02C2 Rx 4  1A 97 8B 00 
   1230     10776.861 DT     0328 Rx 8  10 02 00 00 00 00 00 00 
   1231     10777.380 DT     0339 Rx 2  F0 F0 
   1232     10778.364 DT     043C Rx 8  FD 3F 3F FF FF FF FF FF 
   1233     10779.348 DT     02D3 Rx 8  07 24 00 00 00 00 00 00 
   1234     10780.587 DT     02D4 Rx 8  00 00 00 00 00 00 00 00 
   1235     10783.059 DT     03E0 Rx 8  02 39 32 36 00 00 00 00 
   1236     10783.738 DT     030D Rx 4  00 00 00 00 
   1237     10784.770 DT     0122 Rx 4  04 02 00 00 
   1238     10785.745 DT     0232 Rx 8  FF 64 00 FF 00 00 00 01 
   1239     10786.681 DT     03F2 Rx 8  5D 02 B2 01 09 20 10 06 
   1240     10793.121 DT     030F Rx 7  00 0A 0A 0A 0A 0A 00 
   1241     10795.080 DT     0248 Rx 8  00 00 FF FF FF 03 FF FF 
   1242     10796.080 DT     039E Rx 8  00 00 00 00 00 00 00 00 
   1243     10803.192 DT     0317 Rx 8  00 00 00 00 00 00 12 00 
   1244     10804.200 DT     0328 Rx 8  00 02 00 00 00 00 00 00 
   1245     10804.896 DT     01C8 Rx 4  00 00 00 00 
   1246     10805.871 DT     02FA Rx 8  03 01 00 1A 00 FF 00 00 
   1247     10814.575 DT     03CD Rx 8  40 40 00 00 00 00 00 00 
   1248     10815.566 DT     03B4 Rx 8  35 80 00 00 00 00 04 00 
   1249     10816.526 DT     03EB Rx 8  43 E8 10 04 0F A0 09 C4 
   1250     10822.830 DT     032F Rx 3  00 00 00 
   1251     10824.989 DT     022D Rx 8  84 00 00 00 00 00 00 00 
   1252     10825.989 DT     02AD Rx 8  00 00 00 00 00 00 00 00 
   1253     10826.957 DT     0322 Rx 8  03 C5 00 00 37 FF FF FF 
   1254     10827.892 DT     03EA Rx 8  41 57 2C 08 B5 34 41 A4 
   1255     10833.260 DT     0328 Rx 8  00 00 00 00 00 00 00 00 
   1256     10834.043 DT     0342 Rx 5  00 00 00 00 00 
   1257     10835.131 DT     0332 Rx 8  18 50 D8 40 5B 08 FF 00 
   1258     10836.090 DT     03E9 Rx 8  01 58 66 00 25 25 00 00 
   1259     10842.682 DT     012B Rx 1  03 
   1260     10843.642 DT     0350 Rx 8  06 22 0F 07 E5 09 10 01 
   1261     10845.098 DT     024E Rx 8  FF FF 10 00 00 00 FF FF 
   1262     10846.089 DT     02FF Rx 8  00 91 00 00 FF FF FF FF 
   1263     10847.017 DT     03E8 Rx 8  49 31 A2 53 00 0E 51 5C 
   1264     10849.224 DT     033B Rx 8  00 FF 01 E7 00 00 E4 00 
   1265     10853.072 DT     035C Rx 6  00 00 00 00 1F 00 
   1266     10855.039 DT     0252 Rx 8  03 00 0F F7 80 47 80 80 
   1267     10856.047 DT     0318 Rx 8  00 00 00 00 00 00 FF 00 
   1268     10857.022 DT     0340 Rx 8  FF FF 3D 00 30 80 00 00 
   1269     10857.998 DT     03E4 Rx 8  81 DF 88 46 0E 00 00 00 
   1270     10863.206 DT     0328 Rx 8  40 43 00 00 00 00 00 00 
   1271     10865.046 DT     02C3 Rx 8  04 04 00 01 00 00 FF 00 
   1272     10866.013 DT     03DE Rx 8  36 00 00 00 03 00 D1 01 
   1273     10867.005 DT     03E3 Rx 8  31 04 10 08 00 00 00 00 
   1274     10873.197 DT     043F Rx 8  FD 01 04 0F 01 00 00 01 
   1275     10875.084 DT     02F8 Rx 8  00 FF F0 00 00 00 28 00 
   1276     10875.756 DT     03D2 Rx 4  09 6B 74 00 
   1277     10883.003 DT     03E0 Rx 8  00 31 43 34 48 4A 58 46 
   1278     10884.691 DT     0122 Rx 4  04 02 00 00 
   1279     10885.683 DT     032A Rx 8  00 00 00 00 00 00 D8 AB 
   1280     10886.642 DT     03B2 Rx 8  03 00 A8 00 F0 FF FF 00 
   1281     10893.234 DT     0328 Rx 8  30 03 00 00 00 00 00 00 
   1282     10895.114 DT     02C5 Rx 8  01 EE EE 1C 05 00 00 00 
   1283     10895.945 DT     03A2 Rx 6  00 00 02 01 FF 00 
   1284     10904.961 DT     022D Rx 8  84 00 00 00 00 00 00 00 
   1285     10905.641 DT     0358 Rx 4  FF 01 FF 00 
   1286     10914.960 DT     0381 Rx 8  89 8D 00 08 00 04 00 00 
   1287     10915.960 DT     0395 Rx 8  03 FF 07 FF 00 00 30 00 
   1288     10923.215 DT     0328 Rx 8  20 03 00 00 00 00 00 00 
   1289     10925.039 DT     0322 Rx 8  03 CA 00 00 37 FF FF FF 
   1290     10926.039 DT     038A Rx 8  01 00 00 00 00 00 00 00 
   1291     10935.078 DT     030A Rx 8  04 80 00 64 FC 00 02 31 
   1292     10936.046 DT     03D8 Rx 8  FD 00 64 FA 58 23 00 00 
   1293     10942.670 DT     012B Rx 1  03 
   1294     10945.062 DT     024E Rx 8  FF FF 10 00 00 00 FF FF 
   1295     10946.054 DT     02FF Rx 8  00 91 00 00 FF FF FF FF 
   1296     10949.325 DT     033B Rx 8  00 FF 01 E7 00 00 E4 00 
   1297     10953.245 DT     0328 Rx 8  10 03 00 00 00 00 00 00 
   1298     10954.668 DT     01C0 Rx 6  00 00 00 00 00 00 
   1299     10955.620 DT     0252 Rx 8  03 00 0F F7 80 47 80 80 
   1300     10956.628 DT     0318 Rx 8  00 00 00 00 00 00 FF 00 
   1301     10957.627 DT     0401 Rx 8  FD 03 04 0F 00 00 00 01 
   1302     10964.979 DT     02C3 Rx 8  04 04 00 01 00 00 FF 00 
   1303     10974.684 DT     02C2 Rx 4  1A 97 8B 00 
   1304     10983.011 DT     03E0 Rx 8  01 47 37 4A 57 33 31 32 
   1305     10984.011 DT     0328 Rx 8  00 03 00 00 00 00 00 00 
   1306     10984.722 DT     0122 Rx 4  04 02 00 00 
   1307     10985.698 DT     0232 Rx 8  FF 64 00 FF 00 00 00 01 
   1308     11013.282 DT     0328 Rx 8  00 00 00 00 00 00 00 00 
   1309     11015.090 DT     044A Rx 8  01 00 00 00 00 00 00 20 
   1310     11024.954 DT     0322 Rx 8  03 CB 00 00 37 FF FF FF 
   1311     11025.953 DT     044C Rx 8  7D 00 00 00 00 00 FF FF 
   1312     11034.977 DT     03B3 Rx 8  01 30 72 01 E4 A3 07 10 
   1313     11042.681 DT     012B Rx 1  03 
   1314     11043.681 DT     0328 Rx 8  40 44 00 00 00 00 00 00 
   1315     11045.160 DT     024E Rx 8  FF FF 10 00 00 00 FF FF 
   1316     11046.152 DT     02FF Rx 8  00 91 00 00 FF FF FF FF 
   1317     11049.232 DT     033B Rx 8  00 FF 01 E7 00 00 E4 00 
   1318     11054.303 DT     0403 Rx 8  FD 3C 3F FF FF FF FF FF 
   1319     11055.247 DT     0252 Rx 8  03 00 0F F7 80 47 80 80 
   1320     11056.254 DT     0318 Rx 8  00 00 00 00 00 00 FF 00 
   1321     11064.974 DT     02C3 Rx 8  04 04 00 01 00 00 FF 00 
   1322     11073.230 DT     0328 Rx 8  30 04 00 00 00 00 00 00 
   1323     11083.094 DT     03E0 Rx 8  02 39 32 36 00 00 00 00 
   1324     11084.685 DT     0122 Rx 4  04 02 00 00 
   1325     11102.895 DT     031E Rx 6  00 80 00 C0 00 00 
   1326     11103.894 DT     0328 Rx 8  20 04 00 00 00 00 00 00 
   1327     11124.958 DT     0322 Rx 8  03 C5 00 00 37 FF FF FF 
   1328     11133.239 DT     0328 Rx 8  10 04 00 00 00 00 00 00 
   1329     11138.125 DT     043C Rx 8  FD 3F 3F FF FF FF FF FF 
   1330     11142.693 DT     012B Rx 1  03 
   1331     11145.140 DT     024E Rx 8  FF FF 10 00 00 00 FF FF 
   1332     11146.132 DT     02FF Rx 8  00 91 00 00 FF FF FF FF 
   1333     11149.236 DT     033B Rx 8  00 FF 01 E7 00 00 E4 00 
   1334     11154.675 DT     01C0 Rx 6  00 00 00 00 00 00 
   1335     11155.635 DT     0252 Rx 8  03 00 0F F7 80 57 80 80 
   1336     11156.658 DT     0318 Rx 8  00 00 00 00 00 00 FF 00 
   1337     11163.219 DT     0328 Rx 8  00 04 00 00 00 00 00 00 
   1338     11165.042 DT     02C3 Rx 8  04 04 00 01 00 00 FF 00 
   1339     11174.698 DT     02C2 Rx 4  1A 97 8C 00 
   1340     11183.018 DT     03E0 Rx 8  00 31 43 34 48 4A 58 46 
   1341     11184.682 DT     0122 Rx 4  04 02 00 00 
   1342     11185.658 DT     0232 Rx 8  FF 64 00 FF 00 00 00 01 
   1343     11193.258 DT     0328 Rx 8  00 00 00 00 00 00 00 00 
   1344     11224.954 DT     0322 Rx 8  03 C4 00 00 37 FF FF FF 
   1345     11233.226 DT     043F Rx 8  FD 01 04 0F 01 00 00 01 
   1346     11242.673 DT     012B Rx 1  03 
   1347     11245.161 DT     024E Rx 8  FF FF 10 00 00 00 FF FF 
   1348     11246.152 DT     02FF Rx 8  00 91 00 00 FF FF FF FF 
   1349     11249.248 DT     033B Rx 8  00 FF 01 E7 00 00 E4 00 
   1350     11254.313 DT     0230 Rx 8  00 6A 36 08 00 00 00 00 
   1351     11255.272 DT     0252 Rx 8  03 00 0F F7 80 4F 80 80 
   1352     11256.280 DT     0318 Rx 8  00 00 00 00 00 00 FF 00 
   1353     11265.071 DT     02C3 Rx 8  04 04 00 01 00 00 FF 00 
   1354     11274.567 DT     0339 Rx 2  F0 F0 
   1355     11283.039 DT     03E0 Rx 8  01 47 37 4A 57 33 31 32 
   1356     11284.694 DT     0122 Rx 4  04 02 00 00 
   1357     11295.086 DT     0248 Rx 8  00 00 FF FF FF 03 FF FF 
   1358     11304.686 DT     01C8 Rx 4  00 00 00 00 
   1359     11305.662 DT     02FA Rx 8  03 01 00 1A 00 FF 00 00 
   1360     11316.733 DT     0401 Rx 8  FD 03 04 0F 00 00 00 01 
   1361     11324.973 DT     0322 Rx 8  03 C6 00 00 37 FF FF FF 
   1362     11334.989 DT     0332 Rx 8  18 50 D8 40 5B 08 FF 00 
   1363     11342.684 DT     012B Rx 1  03 
   1364     11345.069 DT     024E Rx 8  FF FF 10 00 00 00 FF FF 
   1365     11346.060 DT     02FF Rx 8  00 91 00 00 FF FF FF FF 
   1366     11349.300 DT     033B Rx 8  00 FF 01 E7 00 00 E4 00 
   1367     11354.676 DT     01C0 Rx 6  00 00 00 00 00 00 
   1368     11355.643 DT     0252 Rx 8  03 00 0F F7 80 4F 80 80 
   1369     11356.651 DT     0318 Rx 8  00 00 00 00 00 00 FF 00 
   1370     11364.978 DT     02C3 Rx 8  04 04 00 01 00 00 FF 00 
   1371     11374.683 DT     02C2 Rx 4  1A 97 8B 00 
   1372     11383.090 DT     03E0 Rx 8  02 39 32 36 00 00 00 00 
   1373     11384.682 DT     0122 Rx 4  04 02 00 00 
   1374     11385.657 DT     0232 Rx 8  FF 64 00 FF 00 00 00 01 
   1375     11414.345 DT     0403 Rx 8  FD 3C 3F FF FF FF FF FF 
   1376     11415.337 DT     0395 Rx 8  03 FF 07 FF 00 00 30 00 
   1377     11424.968 DT     0322 Rx 8  03 CA 00 00 37 FF FF FF 
   1378     11442.696 DT     012B Rx 1  03 
   1379     11445.063 DT     024E Rx 8  FF FF 10 00 00 00 FF FF 
   1380     11446.055 DT     02FF Rx 8  00 91 00 00 FF FF FF FF 
   1381     11449.638 DT     033B Rx 8  00 FF 01 E7 00 00 E4 00 
   1382     11455.070 DT     0252 Rx 8  03 00 0F F7 80 47 80 80 
   1383     11456.077 DT     0318 Rx 8  00 00 00 00 00 00 FF 00 
   1384     11464.989 DT     02C3 Rx 8  04 04 00 01 00 00 FF 00 
   1385     11483.045 DT     03E0 Rx 8  00 31 43 34 48 4A 58 46 
   1386     11484.693 DT     0122 Rx 4  04 02 00 00 
   1387     11485.669 DT     030A Rx 8  04 80 00 63 FC 00 02 31 
   1388     11498.017 DT     043C Rx 8  FD 3F 3F FF FF FF FF FF 
   1389     11524.970 DT     0322 Rx 8  03 B9 00 00 37 FF FF FF 
   1390     11542.662 DT     012B Rx 1  03 
   1391     11545.029 DT     024E Rx 8  FF FF 10 00 00 00 FF FF 
   1392     11546.021 DT     02FF Rx 8  00 91 00 00 FF FF FF FF 
   1393     11549.556 DT     033B Rx 8  00 FF 01 E7 00 00 E4 00 
   1394     11554.644 DT     01C0 Rx 6  00 00 00 00 00 00 
   1395     11555.596 DT     0252 Rx 8  03 00 0F F7 80 47 80 80 
   1396     11556.603 DT     0318 Rx 8  00 00 00 00 00 00 FF 00 
   1397     11564.963 DT     02C3 Rx 8  04 04 00 01 00 00 FF 00 
   1398     11574.675 DT     02C2 Rx 4  1A 97 8B 00 
   1399     11583.018 DT     03E0 Rx 8  01 47 37 4A 57 33 31 32 
   1400     11584.674 DT     0122 Rx 4  04 02 00 00 
   1401     11585.649 DT     0232 Rx 8  FF 64 00 FF 00 00 00 01 
   1402     11593.185 DT     043F Rx 8  FD 01 04 0F 01 00 00 01 
   1403     11602.433 DT     031E Rx 6  00 80 00 C0 00 00 
   1404     11624.953 DT     0322 Rx 8  03 C1 00 00 37 FF FF FF 
   1405     11642.657 DT     012B Rx 1  03 
   1406     11645.049 DT     024E Rx 8  FF FF 10 00 00 00 FF FF 
   1407     11646.040 DT     02FF Rx 8  00 91 00 00 FF FF FF FF 
   1408     11649.216 DT     033B Rx 8  00 FF 01 E7 00 00 E4 00 
   1409     11654.944 DT     0252 Rx 8  03 00 0F F7 80 47 80 80 
   1410     11655.951 DT     0318 Rx 8  00 00 00 00 00 00 FF 00 
   1411     11665.039 DT     02C3 Rx 8  04 04 00 01 00 00 FF 00 
   1412     11676.695 DT     0401 Rx 8  FD 03 04 0F 00 00 00 01 
   1413     11683.086 DT     03E0 Rx 8  02 39 32 36 00 00 00 00 
   1414     11684.654 DT     0122 Rx 4  04 02 00 00 
   1415     11724.950 DT     0322 Rx 8  03 BD 00 00 37 FF FF FF 
   1416     11742.670 DT     012B Rx 1  03 
   1417     11745.078 DT     024E Rx 8  FF FF 10 00 00 00 FF FF 
   1418     11746.070 DT     02FF Rx 8  00 91 00 00 FF FF FF FF 
   1419     11749.405 DT     033B Rx 8  00 FF 01 E7 00 00 E4 00 
   1420     11752.669 DT     022F Rx 1  01 
   1421     11754.764 DT     0230 Rx 8  00 6A 36 08 00 00 00 00 
   1422     11755.620 DT     01C0 Rx 6  00 00 00 00 00 00 
   1423     11756.571 DT     0252 Rx 8  03 00 0F F7 80 47 80 80 
   1424     11757.579 DT     0318 Rx 8  00 00 00 00 00 00 FF 00 
   1425     11759.218 DT     034E Rx 8  7F 7F 7F 7F 00 0F 00 7F 
   1426     11760.234 DT     02D3 Rx 8  07 00 00 00 00 00 00 00 
   1427     11762.778 DT     02D3 Rx 8  07 24 00 00 00 00 00 00 
   1428     11763.769 DT     02F3 Rx 8  00 00 00 00 00 00 00 00 
   1429     11764.761 DT     033C Rx 8  00 31 01 F7 00 00 00 00 
   1430     11765.745 DT     02C3 Rx 8  04 04 00 01 00 00 FF 00 
   1431     11766.727 DT     02D3 Rx 8  07 24 00 00 00 00 00 00 
   1432     11767.391 DT     03C9 Rx 4  7B 44 00 00 
   1433     11768.583 DT     02D3 Rx 8  07 24 00 00 00 00 00 00 
   1434     11769.534 DT     033A Rx 8  19 F0 2F 7F 7F 7F 7F 7F 
   1435     11770.525 DT     0273 Rx 8  00 00 00 00 00 00 00 00 
   1436     11771.509 DT     02D3 Rx 8  07 24 00 00 00 00 00 00 
   1437     11773.245 DT     0302 Rx 8  00 02 00 00 00 00 00 00 
   1438     11774.221 DT     02D3 Rx 8  07 24 00 00 00 00 00 00 
   1439     11775.196 DT     030E Rx 8  00 E4 1C 15 07 FF 07 FF 
   1440     11775.867 DT     02C2 Rx 4  1A 97 8B 00 
   1441     11776.851 DT     0403 Rx 8  FD 3C 3F FF FF FF FF FF 
   1442     11777.370 DT     0339 Rx 2  F0 F0 
   1443     11780.249 DT     02D4 Rx 8  00 00 00 00 00 00 00 00 
   1444     11783.033 DT     03E0 Rx 8  00 31 43 34 48 4A 58 46 
   1445     11783.712 DT     030D Rx 4  00 00 00 00 
   1446     11784.751 DT     0122 Rx 4  04 02 00 00 
   1447     11785.727 DT     0232 Rx 8  FF 64 00 FF 00 00 00 01 
   1448     11793.111 DT     030F Rx 7  00 0A 0A 0A 0A 0A 00 
   1449     11795.079 DT     0248 Rx 8  00 00 FF FF FF 03 FF FF 
   1450     11796.078 DT     039E Rx 8  00 00 00 00 00 00 00 00 
   1451     11803.190 DT     0317 Rx 8  00 00 00 00 00 00 12 00 
   1452     11804.757 DT     01C8 Rx 4  00 00 00 00 
   1453     11805.733 DT     02FA Rx 8  03 01 00 1A 00 FF 00 00 
   1454     11813.245 DT     0328 Rx 8  00 00 00 00 00 00 00 00 
   1455     11822.813 DT     032F Rx 3  00 00 00 
   1456     11824.956 DT     022D Rx 8  83 00 00 00 00 00 00 00 
   1457     11825.956 DT     02AD Rx 8  00 00 00 00 00 00 00 00 
   1458     11826.923 DT     0322 Rx 8  03 C7 00 00 37 FF FF FF 
   1459     11833.028 DT     0342 Rx 5  00 00 00 00 00 
   1460     11834.940 DT     0332 Rx 8  18 50 D8 40 5B 08 FF 00 
   1461     11842.667 DT     012B Rx 1  03 
   1462     11843.627 DT     0350 Rx 8  07 22 0F 07 E5 09 10 01 
   1463     11845.107 DT     024E Rx 8  FF FF 10 00 00 00 FF FF 
   1464     11846.099 DT     02FF Rx 8  00 91 00 00 FF FF FF FF 
   1465     11849.442 DT     033B Rx 8  00 FF 01 E7 00 00 E4 00 
   1466     11853.066 DT     035C Rx 6  00 00 00 00 1F 00 
   1467     11855.018 DT     0252 Rx 8  03 00 0F F7 80 3F 80 80 
   1468     11856.026 DT     0318 Rx 8  00 00 00 00 00 00 FF 00 
   1469     11857.001 DT     0340 Rx 8  FF FF 3D 00 30 80 00 00 
   1470     11857.985 DT     043C Rx 8  FD 3F 3F FF FF FF FF FF 
   1471     11865.065 DT     02C3 Rx 8  04 04 00 01 00 00 FF 00 
   1472     11866.033 DT     03DE Rx 8  36 00 00 00 03 00 D1 01 
   1473     11875.032 DT     02F8 Rx 8  00 FF F0 00 00 00 28 00 
   1474     11875.704 DT     03D2 Rx 4  09 6B 74 00 
   1475     11883.136 DT     03E0 Rx 8  01 47 37 4A 57 33 31 32 
   1476     11884.711 DT     0122 Rx 4  04 02 00 00 
   1477     11885.703 DT     032A Rx 8  00 00 00 00 00 00 D8 AB 
   1478     11886.663 DT     03B2 Rx 8  03 00 A8 00 F0 FF FF 00 
   1479     11894.943 DT     03A2 Rx 6  00 00 02 01 FF 00 
   1480     11904.966 DT     022D Rx 8  83 00 00 00 00 00 00 00 
   1481     11905.646 DT     0358 Rx 4  FF 01 FF 00 
   1482     11915.014 DT     0395 Rx 8  03 FF 07 FF 00 00 30 00 
   1483     11924.997 DT     0322 Rx 8  03 C9 00 00 37 FF FF FF 
   1484     11934.997 DT     030A Rx 8  04 80 00 63 FC 00 02 31 
   1485     11942.669 DT     012B Rx 1  03 
   1486     11945.052 DT     024E Rx 8  FF FF 10 00 00 00 FF FF 
   1487     11946.044 DT     02FF Rx 8  00 91 00 00 FF FF FF FF 
   1488     11949.596 DT     033B Rx 8  00 FF 01 E7 00 00 E4 00 
   1489     11953.187 DT     043F Rx 8  FD 01 04 0F 01 00 00 01 
   1490     11954.651 DT     01C0 Rx 6  00 00 00 00 00 00 
   1491     11955.619 DT     0252 Rx 8  03 00 0F F7 80 4F 80 80 
   1492     11956.626 DT     0318 Rx 8  00 00 00 00 00 00 FF 00 
   1493     11964.962 DT     02C3 Rx 8  04 04 00 01 00 00 FF 00 
   1494     11974.786 DT     02C2 Rx 4  1A 97 8C 00 
   1495     11983.065 DT     03E0 Rx 8  02 39 32 36 00 00 00 00 
   1496     11984.697 DT     0122 Rx 4  04 02 00 00 
   1497     11985.672 DT     0232 Rx 8  FF 64 00 FF 00 00 00 01 
   1498     12024.953 DT     0322 Rx 8  03 C7 00 00 37 FF FF FF 
   1499     12036.704 DT     0401 Rx 8  FD 03 04 0F 00 00 00 01 
   1500     12042.680 DT     012B Rx 1  03 
   1501     12045.023 DT     024E Rx 8  FF FF 10 00 00 00 FF FF 
   1502     12046.015 DT     02FF Rx 8  00 91 00 00 FF FF FF FF 
   1503     12049.719 DT     033B Rx 8  00 FF 01 E7 00 00 E4 00 
   1504     12054.983 DT     0252 Rx 8  03 00 0F F7 80 4F 80 80 
   1505     12055.990 DT     0318 Rx 8  00 00 00 00 00 00 FF 00 
   1506     12064.974 DT     02C3 Rx 8  04 04 00 01 00 00 FF 00 
   1507     12083.022 DT     03E0 Rx 8  00 31 43 34 48 4A 58 46 
   1508     12084.678 DT     0122 Rx 4  04 02 00 00 
   1509     12102.096 DT     031E Rx 6  00 80 00 C0 00 00 
   1510     12125.001 DT     0322 Rx 8  03 C1 00 00 37 FF FF FF 
   1511     12134.297 DT     0403 Rx 8  FD 3C 3F FF FF FF FF FF 
   1512     12142.673 DT     012B Rx 1  03 
   1513     12145.065 DT     024E Rx 8  FF FF 10 00 00 00 FF FF 
   1514     12146.057 DT     02FF Rx 8  00 91 00 00 FF FF FF FF 
   1515     12149.408 DT     033B Rx 8  00 FF 01 E7 00 00 E4 00 
   1516     12154.656 DT     01C0 Rx 6  00 00 00 00 00 00 
   1517     12155.608 DT     0252 Rx 8  03 00 0F F7 80 47 80 80 
   1518     12156.615 DT     0318 Rx 8  00 00 00 00 00 00 FF 00 
   1519     12164.983 DT     02C3 Rx 8  04 04 00 01 00 00 FF 00 
   1520     12174.775 DT     02C2 Rx 4  1A 97 8B 00 
   1521     12183.022 DT     03E0 Rx 8  01 47 37 4A 57 33 31 32 
   1522     12184.686 DT     0122 Rx 4  04 02 00 00 
   1523     12185.662 DT     0232 Rx 8  FF 64 00 FF 00 00 00 01 
   1524     12217.771 DT     043C Rx 8  FD 3F 3F FF FF FF FF FF 
   1525     12224.979 DT     0322 Rx 8  03 CA 00 00 37 FF FF FF 
   1526     12242.675 DT     012B Rx 1  03 
   1527     12245.067 DT     024E Rx 8  FF FF 10 00 00 00 FF FF 
   1528     12246.058 DT     02FF Rx 8  00 91 00 00 FF FF FF FF 
   1529     12249.226 DT     033B Rx 8  00 FF 01 E7 00 00 E4 00 
   1530     12253.201 DT     0328 Rx 8  40 41 00 53 00 58 00 4D 
   1531     12254.473 DT     0230 Rx 8  00 6A 36 08 00 00 00 00 
   1532     12255.432 DT     0252 Rx 8  03 00 0F F7 80 4F 80 80 
   1533     12256.440 DT     0318 Rx 8  00 00 00 00 00 00 FF 00 
   1534     12265.056 DT     02C3 Rx 8  04 04 00 01 00 00 FF 00 
   1535     12274.592 DT     0339 Rx 2  F0 F0 
   1536     12283.063 DT     03E0 Rx 8  02 39 32 36 00 00 00 00 
   1537     12284.039 DT     0328 Rx 8  30 01 00 20 00 52 00 64 
   1538     12284.838 DT     0122 Rx 4  04 02 00 00 
   1539     12295.078 DT     0248 Rx 8  00 00 FF FF FF 03 FF FF 
   1540     12304.662 DT     01C8 Rx 4  00 00 00 00 
   1541     12305.637 DT     02FA Rx 8  03 01 00 1A 00 FF 00 00 
   1542     12313.205 DT     043F Rx 8  FD 01 04 0F 01 00 00 01 
   1543     12314.189 DT     0328 Rx 8  20 01 00 68 00 6F 00 75 
   1544     12324.973 DT     022D Rx 8  84 00 00 00 00 00 00 00 
   1545     12325.940 DT     0322 Rx 8  03 CF 00 00 37 FF FF FF 
   1546     12334.972 DT     0332 Rx 8  18 50 D8 40 5B 08 FF 00 
   1547     12342.700 DT     012B Rx 1  03 
   1548     12343.675 DT     0328 Rx 8  10 01 00 73 00 65 00 00 
   1549     12345.099 DT     024E Rx 8  FF FF 10 00 00 00 FF FF 
   1550     12346.090 DT     02FF Rx 8  00 91 00 00 FF FF FF FF 
   1551     12349.226 DT     033B Rx 8  00 FF 01 E7 00 00 E4 00 
   1552     12354.657 DT     01C0 Rx 6  00 00 00 00 00 00 
   1553     12355.617 DT     0252 Rx 8  03 00 0F F7 80 47 80 80 
   1554     12356.633 DT     0318 Rx 8  00 00 00 00 00 00 FF 00 
   1555     12364.985 DT     02C3 Rx 8  04 04 00 01 00 00 FF 00 
   1556     12373.257 DT     0328 Rx 8  00 01 00 00 00 00 00 00 
   1557     12374.745 DT     02C2 Rx 4  1A 97 8B 00 
   1558     12383.025 DT     03E0 Rx 8  00 31 43 34 48 4A 58 46 
   1559     12384.769 DT     0122 Rx 4  04 02 00 00 
   1560     12385.744 DT     0232 Rx 8  FF 64 00 FF 00 00 00 01 
   1561     12396.736 DT     0401 Rx 8  FD 03 04 0F 00 00 00 01 
   1562     12403.264 DT     0328 Rx 8  00 00 00 00 00 00 00 00 
   1563     12415.008 DT     0395 Rx 8  03 FF 07 FF 00 00 30 00 
   1564     12424.975 DT     0322 Rx 8  03 CC 00 00 37 FF FF FF 
   1565     12433.248 DT     0328 Rx 8  40 42 00 00 00 00 00 00 
   1566     12442.680 DT     012B Rx 1  03 
   1567     12445.071 DT     024E Rx 8  FF FF 10 00 00 00 FF FF 
   1568     12446.063 DT     02FF Rx 8  00 91 00 00 FF FF FF FF 
   1569     12449.479 DT     033B Rx 8  00 FF 01 E7 00 00 E4 00 
   1570     12454.943 DT     0252 Rx 8  03 00 0F F7 80 47 80 80 
   1571     12455.950 DT     0318 Rx 8  00 00 00 00 00 00 FF 00 
   1572     12463.246 DT     0328 Rx 8  30 02 00 00 00 00 00 00 
   1573     12465.022 DT     02C3 Rx 8  04 04 00 01 00 00 FF 00 
   1574     12483.014 DT     03E0 Rx 8  01 47 37 4A 57 33 31 32 
   1575     12484.782 DT     0122 Rx 4  04 02 00 00 
   1576     12485.774 DT     03CD Rx 8  40 00 00 00 00 00 00 00 
   1577     12493.277 DT     0328 Rx 8  20 02 00 00 00 00 00 00 
   1578     12494.525 DT     0403 Rx 8  FD 3C 3F FF FF FF FF FF 
   1579     12523.254 DT     0328 Rx 8  10 02 00 00 00 00 00 00 
   1580     12525.029 DT     0322 Rx 8  03 C4 00 00 37 FF FF FF 
   1581     12542.713 DT     012B Rx 1  03 
   1582     12545.088 DT     024E Rx 8  FF FF 10 00 00 00 FF FF 
   1583     12546.080 DT     02FF Rx 8  00 91 00 00 FF FF FF FF 
   1584     12549.847 DT     033B Rx 8  00 FF 01 E8 00 00 E4 00 
   1585     12553.303 DT     0328 Rx 8  00 02 00 00 00 00 00 00 
   1586     12554.703 DT     01C0 Rx 6  00 00 00 00 00 00 
   1587     12555.655 DT     0252 Rx 8  03 00 0F F7 80 47 80 80 
   1588     12556.662 DT     0318 Rx 8  00 00 00 00 00 00 FF 00 
   1589     12565.014 DT     02C3 Rx 8  04 04 00 01 00 00 FF 00 
   1590     12574.750 DT     02C2 Rx 4  1A 97 8C 00 
   1591     12577.693 DT     043C Rx 8  FD 3F 3F FF FF FF FF FF 
   1592     12583.084 DT     03E0 Rx 8  02 39 32 36 00 00 00 00 
   1593     12584.100 DT     0328 Rx 8  00 00 00 00 00 00 00 00 
   1594     12584.780 DT     0122 Rx 4  04 02 00 00 
   1595     12585.755 DT     0232 Rx 8  FF 64 00 FF 00 00 00 01 
   1596     12601.743 DT     031E Rx 6  00 80 00 C0 00 00 
   1597     12613.334 DT     0328 Rx 8  40 43 00 00 00 00 00 00 
   1598     12624.990 DT     0322 Rx 8  03 C9 00 00 37 FF FF FF 
   1599     12642.742 DT     012B Rx 1  03 
   1600     12643.758 DT     0328 Rx 8  30 03 00 00 00 00 00 00 
   1601     12645.150 DT     024E Rx 8  FF FF 10 00 00 00 FF FF 
   1602     12646.141 DT     02FF Rx 8  00 91 00 00 FF FF FF FF 
