;$FILEVERSION=2.0
;$STARTTIME=44447.380796956
;$COLUMNS=N,O,T,I,d,l,D
;
;   Start time: 9/8/2021 09:08:20.857.0
;   Generated by PCAN-View v4.3.4.615
;-------------------------------------------------------------------------------
;   Connection                 Bit rate
;   PCANLight_USB_16@pcan_usb  Nominal 500 kBit/s, Data 2 MBit/s
;-------------------------------------------------------------------------------
;   Message   Time    Type ID     Rx/Tx
;   Number    Offset  |    [hex]  |  Data Length
;   |         [ms]    |    |      |  |  Data [hex] ...
;   |         |       |    |      |  |  |
;---+-- ------+------ +- --+----- +- +- +- +- -- -- -- -- -- -- --
      1    231294.474 DT     0076 Rx 8  40 49 C0 00 0F FF 00 00 
      2    231302.021 DT     0077 Rx 8  06 32 08 4E 00 08 4A 19 
      3    231310.020 DT     0091 Rx 8  7E AB 80 13 70 CD F0 00 
      4    231318.028 DT     007D Rx 8  00 00 F3 C0 00 1F E7 E8 
      5    231326.021 DT     0213 Rx 8  FF FF 00 04 01 12 13 40 
      6    231334.027 DT     0214 Rx 8  6F 66 00 00 00 00 1E C0 
      7    231342.021 DT     0216 Rx 8  D7 2A A0 2E 82 00 00 00 
      8    231352.184 DT     0217 Rx 8  04 5C 04 6D 04 6D 04 6A 
      9    231360.013 DT     0415 Rx 8  06 32 F0 B8 88 4D 08 4D 
     10    231368.029 DT     0416 Rx 8  52 00 FC 04 00 00 0F FF 
     11    231376.037 DT     0041 Rx 8  00 00 00 00 00 00 00 00 
     12    231384.021 DT     0242 Rx 8  00 57 21 86 E4 00 00 01 
     13    231392.023 DT     0082 Rx 8  98 00 14 34 A6 00 40 FF 
     14    231400.019 DT     0085 Rx 8  7E 5A 80 00 15 30 7C 93 
     15    231408.028 DT     0333 Rx 8  00 02 00 00 00 00 00 00 
     16    231418.198 DT     0083 Rx 8  00 E0 80 00 00 02 00 00 
     17    231426.029 DT     0204 Rx 8  C0 69 7D 03 17 00 00 00 
     18    231434.037 DT     0047 Rx 8  20 00 00 00 00 00 00 00 
     19    231442.024 DT     0167 Rx 8  72 80 6F 10 00 1A 1B 00 
     20    231450.028 DT     0186 Rx 8  14 C5 01 60 81 F7 00 00 
     21    231458.032 DT     043D Rx 8  00 52 FE 3E 00 00 00 00 
     22    231466.022 DT     043E Rx 8  00 94 10 8B A1 38 10 E2 
     23    231474.028 DT     04B0 Rx 8  A1 00 00 00 C0 00 00 F3 
     24    231484.185 DT     0217 Rx 8  04 59 04 6A 04 68 04 74 
     25    231492.040 DT     041D Rx 8  00 00 00 00 00 00 00 00 
     26    231500.022 DT     03B4 Rx 8  40 11 11 FF 23 23 00 00 
     27    231508.024 DT     0085 Rx 8  7E 5A 80 00 14 40 7C 93 
     28    231516.039 DT     042C Rx 8  00 00 00 00 3E E0 00 00 
     29    231524.034 DT     004A Rx 8  02 00 00 00 00 00 00 C0 
     30    231532.034 DT     03A8 Rx 8  00 00 28 D9 00 00 00 00 
     31    231540.027 DT     004B Rx 8  00 C0 D8 D8 D8 D8 D8 00 
     32    231550.203 DT     004C Rx 8  20 6F FF 80 00 00 00 00 
     33    231558.032 DT     0165 Rx 8  50 C0 00 00 00 00 00 00 
     34    231566.022 DT     0167 Rx 8  72 80 6D 10 00 1A 1B 00 
     35    231574.034 DT     0171 Rx 8  35 61 A0 00 00 00 00 00 
     36    231582.037 DT     0200 Rx 8  00 00 7F 2F 81 18 00 00 
     37    231590.029 DT     0202 Rx 8  04 CD 48 00 60 00 06 20 
     38    231598.033 DT     0204 Rx 8  C0 69 7D 03 11 00 00 00 
     39    231606.035 DT     0230 Rx 8  31 06 00 00 94 00 00 00 
     40    231616.205 DT     03D4 Rx 8  FF C1 FE FF DF E0 00 00 
     41    231624.040 DT     042F Rx 8  00 00 00 00 00 00 03 20 
     42    231632.036 DT     0076 Rx 8  40 47 C0 00 0F FF 00 00 
     43    231640.025 DT     0077 Rx 8  06 38 08 4A 00 08 52 18 
     44    231648.037 DT     007D Rx 8  00 00 F2 D0 00 1F F7 E6 
     45    231656.032 DT     0213 Rx 8  FF FF 00 04 01 12 14 40 
     46    231664.031 DT     0214 Rx 8  6F 66 00 00 00 00 1D D0 
     47    231672.029 DT     0216 Rx 8  DB 2F A5 31 82 00 00 00 
     48    231682.190 DT     0217 Rx 8  04 59 04 6A 04 55 04 81 
     49    231690.022 DT     0415 Rx 8  06 37 F4 B2 88 4D 08 4D 
     50    231698.045 DT     0041 Rx 8  00 00 00 00 00 00 00 00 
     51    231706.041 DT     03A3 Rx 8  80 00 00 00 00 00 00 00 
     52    231714.036 DT     0332 Rx 8  00 30 A9 92 2E 00 00 00 
     53    231722.030 DT     0082 Rx 8  98 00 14 34 A6 00 40 FF 
     54    231730.030 DT     0085 Rx 8  7E 59 80 00 14 50 7C 93 
     55    231738.032 DT     0091 Rx 8  7E A4 80 09 77 D7 F0 00 
     56    231748.186 DT     03B5 Rx 8  00 E3 00 E6 00 DE 00 DC 
     57    231756.037 DT     0204 Rx 8  C0 69 7D 03 0D 00 00 00 
     58    231764.045 DT     0047 Rx 8  20 00 00 00 00 00 00 00 
     59    231772.031 DT     0167 Rx 8  72 80 6C 10 00 1A 1B 00 
     60    231780.034 DT     0186 Rx 8  14 C4 01 5F 81 F7 00 00 
     61    231788.026 DT     0092 Rx 8  6F F5 6F FA 73 60 9A DC 
     62    231796.041 DT     04B0 Rx 8  A1 00 00 00 D0 00 00 F2 
     63    231804.031 DT     0217 Rx 8  04 5C 04 70 04 55 04 83 
     64    231816.375 DT     041D Rx 8  00 00 00 00 00 00 00 00 
     65    231824.043 DT     0455 Rx 8  00 00 00 00 00 00 00 00 
     66    231832.032 DT     0085 Rx 8  7E 58 80 00 14 60 7C 93 
     67    231840.042 DT     03A8 Rx 8  00 00 28 D7 00 00 00 00 
     68    231848.038 DT     0165 Rx 8  50 C0 00 00 00 00 00 00 
     69    231856.035 DT     0167 Rx 8  72 80 6C 10 00 1A 1C 00 
     70    231864.041 DT     0200 Rx 8  00 00 7F 32 81 12 00 00 
     71    231874.200 DT     0202 Rx 8  04 C6 58 00 60 00 06 25 
     72    231882.041 DT     0204 Rx 8  C0 69 7D 03 08 00 00 00 
     73    231890.041 DT     0230 Rx 8  31 06 00 00 94 00 00 00 
     74    231898.042 DT     0076 Rx 8  40 46 C0 00 0F FF 00 00 
     75    231906.034 DT     0077 Rx 8  06 3E 08 4A 00 08 56 1A 
     76    231914.041 DT     007D Rx 8  00 00 F1 E0 00 1F D7 EC 
     77    231922.037 DT     0213 Rx 8  FF FF 00 04 01 12 14 40 
     78    231930.039 DT     0214 Rx 8  6F 66 00 00 00 00 1C E0 
     79    231940.202 DT     0216 Rx 8  E0 33 AA 36 82 00 00 00 
     80    231948.033 DT     0217 Rx 8  04 60 04 72 04 68 04 70 
     81    231956.032 DT     0415 Rx 8  06 37 F8 B1 88 4D 08 4D 
     82    231964.052 DT     0041 Rx 8  00 00 00 00 00 00 00 00 
     83    231972.037 DT     0242 Rx 8  00 57 21 85 E4 00 00 01 
     84    231980.051 DT     03C7 Rx 8  00 00 40 00 00 00 00 00 
     85    231988.037 DT     0082 Rx 8  98 00 14 34 A6 00 40 FF 
     86    231996.036 DT     0085 Rx 8  7E 56 80 00 15 70 7C 93 
     87    232006.212 DT     0204 Rx 8  C0 69 7D 03 01 00 00 00 
     88    232014.051 DT     0047 Rx 8  20 00 00 00 00 00 00 00 
     89    232022.036 DT     0167 Rx 8  72 80 6D 10 00 1A 1C 00 
     90    232030.045 DT     0171 Rx 8  35 61 A0 00 00 00 00 00 
     91    232038.041 DT     0186 Rx 8  14 C4 01 5F 81 F7 00 00 
     92    232046.050 DT     03D4 Rx 8  FF C1 FE FF DF E0 00 00 
     93    232054.048 DT     042F Rx 8  00 00 00 00 00 00 03 1F 
     94    232062.040 DT     0091 Rx 8  7E C7 80 05 49 E6 F0 00 
     95    232072.211 DT     04B0 Rx 8  A1 00 00 00 E0 00 00 F1 
     96    232080.035 DT     0217 Rx 8  04 60 04 70 04 6D 04 79 
     97    232088.053 DT     041D Rx 8  00 00 00 00 00 00 00 00 
     98    232096.037 DT     0085 Rx 8  7E 55 80 00 15 80 7C 93 
     99    232104.050 DT     03A8 Rx 8  00 00 28 D6 00 00 00 00 
    100    232112.046 DT     0165 Rx 8  50 C0 00 00 00 00 00 00 
    101    232120.048 DT     0156 Rx 8  9F 00 00 00 03 00 00 00 
    102    232128.045 DT     0166 Rx 8  75 00 00 02 80 00 1C 00 
    103    232138.205 DT     0167 Rx 8  72 80 6C 10 00 1A 1B 00 
    104    232146.045 DT     0178 Rx 8  00 00 01 E8 0E 8B CA 88 
    105    232154.044 DT     0179 Rx 8  00 00 00 00 8A 33 0A 48 
    106    232162.051 DT     0200 Rx 8  00 00 7F 34 81 0D 00 00 
    107    232170.024 DT     0202 Rx 8  04 BF 68 00 60 00 06 2A 
    108    232178.032 DT     0204 Rx 8  C0 69 7D 02 FD 00 00 00 
    109    232186.030 DT     0230 Rx 8  31 06 00 00 94 00 00 00 
    110    232194.029 DT     0076 Rx 8  40 43 C0 00 0F FF 00 00 
    111    232204.189 DT     0077 Rx 8  06 44 08 49 00 08 52 18 
    112    232212.032 DT     007D Rx 8  00 00 F0 F0 00 1F C7 F7 
    113    232220.030 DT     0263 Rx 8  F0 00 FF FF 01 00 00 00 
    114    232228.037 DT     037B Rx 8  00 00 08 00 00 00 00 00 
    115    232236.029 DT     0421 Rx 8  00 00 50 00 00 00 7A 2A 
    116    232244.027 DT     0213 Rx 8  FF FF 00 04 01 12 14 40 
    117    232252.039 DT     0424 Rx 8  00 00 00 01 00 00 00 00 
    118    232260.034 DT     0214 Rx 8  6F 66 00 00 00 00 1B F0 
    119    232270.198 DT     042D Rx 8  00 03 07 00 00 00 F0 00 
    120    232278.024 DT     0216 Rx 8  E5 37 AE 3B 82 00 00 00 
    121    232286.021 DT     0430 Rx 8  03 00 8A 8A 89 01 13 91 
    122    232294.021 DT     0217 Rx 8  04 63 04 79 04 6A 04 74 
    123    232302.020 DT     0415 Rx 8  06 3D FC AA 88 4D 08 4D 
    124    232310.027 DT     0434 Rx 8  23 E8 14 00 04 F7 00 63 
    125    232318.025 DT     0435 Rx 8  28 20 18 9F BC 20 09 02 
    126    232326.042 DT     0041 Rx 8  00 00 00 00 00 00 00 00 
    127    232338.352 DT     03B3 Rx 8  40 48 04 0D 10 05 00 02 
    128    232346.035 DT     03C3 Rx 8  70 C0 00 00 00 00 80 00 
    129    232354.028 DT     0082 Rx 8  98 00 14 34 A6 00 40 FF 
    130    232362.028 DT     0085 Rx 8  7E 53 80 00 16 90 7C 93 
    131    232370.034 DT     042B Rx 8  CB BE 80 00 00 00 00 00 
    132    232378.041 DT     042C Rx 8  00 00 00 00 3E E0 00 00 
    133    232386.036 DT     043D Rx 8  00 4E FE 3E 00 00 00 00 
    134    232396.191 DT     043E Rx 8  00 94 10 8B A1 38 60 E1 
    135    232404.029 DT     0186 Rx 8  14 C3 01 5E 81 F7 00 00 
    136    232412.036 DT     0204 Rx 8  C0 69 7D 02 F9 00 00 00 
    137    232420.042 DT     0047 Rx 8  20 00 00 00 00 00 00 00 
    138    232428.029 DT     0167 Rx 8  72 80 68 10 00 1A 1C 00 
    139    232436.039 DT     04B0 Rx 8  A1 00 00 00 F0 00 00 F0 
    140    232444.027 DT     0217 Rx 8  04 68 04 77 04 6A 04 83 
    141    232452.043 DT     041D Rx 8  00 00 00 00 00 00 00 00 
    142    232462.197 DT     0326 Rx 8  81 A0 25 B6 81 A0 00 00 
    143    232470.029 DT     0085 Rx 8  7E 52 80 00 16 A0 7C 93 
    144    232478.028 DT     0091 Rx 8  7E EA 80 07 1A F0 F0 00 
    145    232486.038 DT     03A8 Rx 8  00 00 28 D3 00 00 00 00 
    146    232494.041 DT     03AA Rx 8  00 20 00 00 00 00 00 00 
    147    232502.041 DT     03AB Rx 8  12 00 00 00 40 00 00 00 
    148    232510.037 DT     0165 Rx 8  50 C0 00 00 00 00 00 00 
    149    232518.030 DT     0167 Rx 8  72 80 67 10 00 1A 1C 00 
    150    232528.203 DT     0171 Rx 8  35 61 A0 00 00 00 00 00 
    151    232536.044 DT     0200 Rx 8  00 00 7F 38 81 07 00 00 
    152    232544.034 DT     0202 Rx 8  04 BA 78 00 60 00 06 2D 
    153    232552.041 DT     0204 Rx 8  C0 69 7D 02 F4 00 00 00 
    154    232560.041 DT     0230 Rx 8  31 06 00 00 94 00 00 00 
    155    232568.044 DT     03D4 Rx 8  FF C1 FE FF DF E0 00 00 
    156    232576.042 DT     042F Rx 8  00 00 00 00 00 00 03 1D 
    157    232584.042 DT     0076 Rx 8  40 40 C0 00 0F FF 00 00 
    158    232594.198 DT     0077 Rx 8  06 4A 08 4A 00 08 2E 17 
    159    232602.046 DT     007D Rx 8  00 00 FF 00 00 1F A8 00 
    160    232610.035 DT     0213 Rx 8  FF FF 00 04 01 12 14 40 
    161    232618.039 DT     0214 Rx 8  6F 66 00 00 00 00 2A 00 
    162    232626.035 DT     0216 Rx 8  E9 3B B3 3F 82 00 00 00 
    163    232634.036 DT     0217 Rx 8  04 68 04 7C 04 6A 04 83 
    164    232642.046 DT     0436 Rx 8  20 00 00 00 00 00 00 00 
    165    232650.029 DT     0415 Rx 8  06 48 C0 AE 88 4D 08 4D 
    166    232660.215 DT     0041 Rx 8  00 00 00 00 00 00 00 00 
    167    232668.036 DT     0242 Rx 8  00 57 21 84 E4 00 00 01 
    168    232676.045 DT     03A3 Rx 8  80 00 00 00 00 00 00 00 
    169    232684.035 DT     0082 Rx 8  99 00 14 34 A6 00 40 FF 
    170    232692.036 DT     0085 Rx 8  7E 4F 80 00 18 B0 7C 93 
    171    232700.042 DT     0204 Rx 8  C0 69 7D 02 EE 00 00 00 
    172    232708.050 DT     0047 Rx 8  20 00 00 00 00 00 00 00 
    173    232716.037 DT     0167 Rx 8  72 80 68 10 00 1A 1C 00 
    174    232726.201 DT     0186 Rx 8  14 C3 01 5D 81 F7 00 00 
    175    232734.047 DT     04B0 Rx 8  A1 00 00 00 00 00 00 FF 
    176    232742.033 DT     0217 Rx 8  04 68 04 81 04 72 04 8A 
    177    232750.052 DT     041D Rx 8  00 00 00 00 00 00 00 00 
    178    232758.036 DT     0085 Rx 8  7E 4E 80 00 18 C0 7C 93 
    179    232766.048 DT     03A8 Rx 8  00 00 28 D0 00 00 00 00 
    180    232774.043 DT     0165 Rx 8  50 C0 00 00 00 00 00 00 
    181    232782.035 DT     0167 Rx 8  72 80 67 10 00 1A 1C 00 
    182    232792.214 DT     0200 Rx 8  00 00 7F 3B 81 02 00 00 
    183    232800.038 DT     0202 Rx 8  04 C3 08 00 60 00 06 32 
    184    232808.044 DT     0204 Rx 8  C0 69 7D 02 E8 00 00 00 
    185    232816.046 DT     0230 Rx 8  31 06 00 00 94 00 00 00 
    186    232824.044 DT     0076 Rx 8  40 3C C0 00 0F FF 00 00 
    187    232832.039 DT     0077 Rx 8  06 50 08 4A 00 08 1A 15 
    188    232840.043 DT     0091 Rx 8  7F 1A 80 09 D8 FF F0 00 
    189    232848.048 DT     007D Rx 8  00 00 FE 10 00 20 08 0A 
    190    232860.370 DT     0213 Rx 8  FF FF 00 04 01 12 14 40 
    191    232868.045 DT     0214 Rx 8  6F 66 00 00 00 00 29 10 
    192    232876.040 DT     0216 Rx 8  EE 40 B8 44 82 00 00 00 
    193    232884.037 DT     0217 Rx 8  04 6A 04 86 04 6D 04 7C 
    194    232892.035 DT     0415 Rx 8  06 43 C4 B2 88 4E 08 4E 
    195    232900.048 DT     0416 Rx 8  53 00 FB 04 00 00 0F FF 
    196    232908.056 DT     0041 Rx 8  00 00 00 00 00 00 00 00 
    197    232918.208 DT     0082 Rx 8  98 00 14 38 A6 00 40 FF 
    198    232926.039 DT     0085 Rx 8  7E 4C 80 00 19 D0 7C 93 
    199    232934.055 DT     0333 Rx 8  00 02 00 00 00 00 00 00 
    200    232942.044 DT     0083 Rx 8  00 E0 80 00 00 02 00 00 
    201    232950.047 DT     0204 Rx 8  C0 69 7D 02 E5 00 00 00 
    202    232958.056 DT     0047 Rx 8  20 00 00 00 00 00 00 00 
    203    232966.042 DT     0167 Rx 8  72 80 64 10 00 1A 1D 00 
    204    232974.049 DT     0171 Rx 8  35 61 A0 00 00 00 00 00 
    205    232984.207 DT     0186 Rx 8  14 C3 01 5D 81 F7 00 00 
    206    232992.051 DT     042F Rx 8  00 00 00 00 00 00 03 14 
    207    233000.052 DT     043D Rx 8  00 4E FE 3E 00 00 00 00 
    208    233008.054 DT     03D4 Rx 8  FF C1 FE FF DF E0 00 00 
    209    233016.041 DT     043E Rx 8  00 94 10 8B A1 38 A8 DE 
    210    233024.052 DT     04B0 Rx 8  A1 00 00 00 10 00 00 FE 
    211    233032.042 DT     0217 Rx 8  04 72 04 83 04 6D 04 8D 
    212    233040.057 DT     041D Rx 8  00 00 00 00 00 00 00 00 
    213    233050.221 DT     042C Rx 8  00 00 00 00 3E E0 00 00 
    214    233058.041 DT     0085 Rx 8  7E 4A 80 00 1A E0 7C 93 
    215    233066.054 DT     004A Rx 8  02 00 00 00 00 00 00 C0 
    216    233074.046 DT     004B Rx 8  00 C0 D8 D8 D8 D8 D8 00 
    217    233082.057 DT     004C Rx 8  20 6F FF 80 00 00 00 00 
    218    233090.052 DT     03A8 Rx 8  00 00 28 CC 00 00 00 00 
    219    233098.051 DT     0165 Rx 8  50 C0 00 00 00 00 00 00 
    220    233106.041 DT     0167 Rx 8  72 80 66 10 00 1A 1D 00 
    221    233116.223 DT     0200 Rx 8  00 00 7F 3F 80 FD 00 00 
    222    233124.048 DT     0202 Rx 8  04 BB 18 00 60 00 06 38 
    223    233132.054 DT     0204 Rx 8  C0 69 7D 02 E1 00 00 00 
    224    233140.055 DT     0230 Rx 8  31 06 00 00 94 00 00 00 
    225    233148.055 DT     0076 Rx 8  40 39 C0 00 0F FF 00 00 
    226    233156.048 DT     0077 Rx 8  06 56 08 4E 00 08 26 1A 
    227    233164.055 DT     007D Rx 8  00 00 FD 20 00 20 28 0B 
    228    233172.050 DT     0213 Rx 8  FF FF 00 04 01 12 15 40 
    229    233182.224 DT     0214 Rx 8  6F 66 00 00 00 00 28 20 
    230    233190.048 DT     0216 Rx 8  F3 45 BC 49 82 00 00 00 
    231    233198.049 DT     0217 Rx 8  04 6A 04 81 04 74 04 8D 
    232    233206.047 DT     0415 Rx 8  06 54 C8 A0 88 4E 08 4E 
    233    233214.068 DT     0041 Rx 8  00 00 00 00 00 00 00 00 
    234    233222.054 DT     0242 Rx 8  00 57 21 84 E4 00 00 01 
    235    233230.057 DT     0332 Rx 8  00 30 A9 92 2E 00 00 00 
    236    233238.054 DT     0082 Rx 8  97 00 14 38 A6 00 40 FF 
    237    233248.220 DT     0085 Rx 8  7E 48 80 00 1B F0 7C 93 
    238    233256.053 DT     0091 Rx 8  7F 1D 80 13 C1 09 F0 00 
    239    233264.061 DT     0204 Rx 8  C0 69 7D 02 DC 00 00 00 
    240    233272.066 DT     0047 Rx 8  20 00 00 00 00 00 00 00 
    241    233280.052 DT     0167 Rx 8  72 80 65 10 00 1A 1D 00 
    242    233288.054 DT     0186 Rx 8  14 C3 01 5C 81 F7 00 00 
    243    233296.065 DT     04B0 Rx 8  A1 00 00 00 20 00 00 FD 
    244    233304.051 DT     0217 Rx 8  04 6A 04 88 04 79 04 86 
    245    233314.233 DT     041D Rx 8  00 00 00 00 00 00 00 00 
    246    233322.063 DT     03E2 Rx 8  00 00 08 1B 80 40 00 00 
    247    233330.070 DT     03EA Rx 8  00 00 00 00 00 00 60 00 
    248    233338.066 DT     0455 Rx 8  00 00 00 00 00 00 00 00 
    249    233346.056 DT     0085 Rx 8  7E 46 80 00 2C 00 7C 93 
    250    233354.047 DT     0092 Rx 8  6F D1 70 04 73 6F 72 0E 
    251    233362.064 DT     03A8 Rx 8  00 00 28 C9 00 00 00 00 
    252    233370.062 DT     0165 Rx 8  50 C0 00 00 00 00 00 00 
    253    233382.383 DT     0167 Rx 8  72 80 64 10 00 1A 1C 00 
    254    233390.064 DT     0171 Rx 8  35 61 A0 00 00 00 00 00 
    255    233398.068 DT     0200 Rx 8  00 00 7F 43 80 F8 00 00 
    256    233406.056 DT     0202 Rx 8  04 B6 28 00 60 00 06 3B 
    257    233414.063 DT     0204 Rx 8  C0 69 7D 02 D9 00 00 00 
    258    233422.065 DT     0230 Rx 8  31 06 00 00 94 00 00 00 
    259    233430.060 DT     03D4 Rx 8  FF C1 FE FF DF E0 00 00 
    260    233440.230 DT     042F Rx 8  00 00 00 00 00 00 03 0F 
    261    233448.065 DT     0076 Rx 8  40 35 C0 00 0F FF 00 00 
    262    233456.058 DT     0077 Rx 8  06 5C 08 54 00 08 2A 1C 
    263    233464.062 DT     007D Rx 8  00 00 FC 30 00 20 18 06 
    264    233472.057 DT     0213 Rx 8  FF FF 00 04 01 12 15 40 
    265    233480.063 DT     0214 Rx 8  6F 66 00 00 00 00 27 30 
    266    233488.058 DT     0216 Rx 8  F7 49 C1 4D 82 00 00 00 
    267    233496.056 DT     0217 Rx 8  04 77 04 8A 04 79 04 9A 
    268    233506.221 DT     0415 Rx 8  06 5F CC 94 88 4D 08 4D 
    269    233514.075 DT     0041 Rx 8  00 00 00 00 00 00 00 00 
    270    233522.069 DT     03A3 Rx 8  80 00 00 00 00 00 00 00 
    271    233530.061 DT     0082 Rx 8  97 00 14 30 A6 00 40 FF 
    272    233538.057 DT     0085 Rx 8  7E 43 80 00 2E 10 7C 93 
    273    233546.066 DT     0204 Rx 8  C0 69 7D 02 D5 00 00 00 
    274    233554.072 DT     0047 Rx 8  20 00 00 00 00 00 00 00 
    275    233562.061 DT     0167 Rx 8  72 80 60 10 00 1A 1B 00 
    276    233572.229 DT     0186 Rx 8  14 C3 01 5B 81 F7 00 00 
    277    233580.052 DT     0091 Rx 8  7F 05 80 2F AE 18 F0 00 
    278    233588.072 DT     04B0 Rx 8  A1 00 00 00 30 00 00 FC 
    279    233596.059 DT     0217 Rx 8  04 6A 04 90 04 7E 04 A3 
    280    233604.074 DT     041D Rx 8  00 00 00 00 00 00 00 00 
    281    233612.062 DT     0085 Rx 8  7E 40 80 00 30 20 7C 93 
    282    233620.071 DT     03A8 Rx 8  00 00 28 C5 00 00 00 00 
    283    233628.071 DT     0456 Rx 8  80 00 00 00 00 00 00 00 
    284    233638.233 DT     0165 Rx 8  50 C0 00 00 00 00 00 00 
    285    233646.070 DT     0156 Rx 8  9F 00 00 00 03 00 00 00 
    286    233654.066 DT     0166 Rx 8  75 00 00 02 80 00 1C 00 
    287    233662.061 DT     0167 Rx 8  72 80 5D 10 00 1A 1C 00 
    288    233670.062 DT     0178 Rx 8  00 00 01 EF 0E 8B CA 88 
    289    233678.063 DT     0179 Rx 8  00 00 00 00 8A 35 0A 51 
    290    233686.073 DT     0200 Rx 8  00 00 7F 48 80 F2 00 00 
    291    233694.064 DT     0202 Rx 8  04 AD 38 00 60 00 06 42 
    292    233704.236 DT     0204 Rx 8  C0 69 7D 02 D0 00 00 00 
    293    233712.072 DT     0230 Rx 8  31 06 00 00 94 00 00 00 
    294    233720.069 DT     0421 Rx 8  00 00 50 00 00 00 7A 2A 
    295    233728.073 DT     0076 Rx 8  40 30 C0 00 0F FF 00 00 
    296    233736.066 DT     0077 Rx 8  06 62 08 58 00 08 1E 17 
    297    233744.071 DT     0263 Rx 8  F0 00 FF FF 01 00 00 00 
    298    233752.078 DT     007D Rx 8  00 00 FB 40 00 1F D7 FF 
    299    233760.078 DT     037B Rx 8  00 00 08 00 00 00 00 00 
    300    233770.230 DT     0213 Rx 8  FF FF 00 04 01 12 15 40 
    301    233778.069 DT     0214 Rx 8  6F 66 00 00 00 00 26 40 
    302    233786.067 DT     0216 Rx 8  FC 4E C6 52 82 00 00 00 
    303    233794.064 DT     0217 Rx 8  04 72 04 92 04 79 04 7E 
    304    233802.080 DT     0424 Rx 8  00 00 00 01 00 00 00 00 
    305    233810.058 DT     0415 Rx 8  06 4E D0 A4 88 4D 08 4D 
    306    233818.074 DT     042D Rx 8  00 03 07 00 00 00 F0 00 
    307    233826.060 DT     0430 Rx 8  03 00 8A 8A 89 05 13 91 
    308    233836.233 DT     0434 Rx 8  23 E0 14 00 04 F7 00 63 
    309    233844.063 DT     0435 Rx 8  28 20 15 97 BC 20 09 02 
    310    233852.077 DT     043D Rx 8  00 49 FC 3E 00 00 00 00 
    311    233860.084 DT     0041 Rx 8  00 00 00 00 00 00 00 00 
    312    233868.070 DT     0242 Rx 8  00 57 21 84 E4 00 00 01 
    313    233876.068 DT     0082 Rx 8  95 00 14 38 A6 00 40 FF 
    314    233884.066 DT     0085 Rx 8  7E 3D 80 00 32 30 7C 93 
    315    233892.062 DT     040A Rx 8  C1 02 32 37 30 34 30 FF 
    316    233904.403 DT     042B Rx 8  CB BE 80 00 00 00 00 00 
    317    233912.081 DT     042C Rx 8  00 00 00 00 3E E0 00 00 
    318    233920.070 DT     043E Rx 8  00 94 10 8A A1 38 E0 DD 
    319    233928.086 DT     0468 Rx 8  00 00 00 00 00 00 00 00 
    320    233936.082 DT     0469 Rx 8  00 00 00 00 00 00 00 00 
    321    233944.073 DT     0186 Rx 8  14 C3 01 5B 81 F7 00 00 
    322    233952.082 DT     0047 Rx 8  20 00 00 00 00 00 00 00 
    323    233962.233 DT     0167 Rx 8  72 80 5E 10 00 1A 23 00 
    324    233970.077 DT     0171 Rx 8  35 61 A0 00 00 00 00 00 
    325    233978.075 DT     0204 Rx 8  C0 69 7D 02 CA 00 00 00 
    326    233986.080 DT     042F Rx 8  00 00 00 00 00 00 03 03 
    327    233994.082 DT     03D4 Rx 8  FF C1 FE FF DF E0 00 00 
    328    234002.055 DT     0217 Rx 8  04 74 04 8D 04 7E 04 9E 
    329    234010.085 DT     041D Rx 8  00 00 00 00 00 00 00 00 
    330    234018.078 DT     04B0 Rx 8  A1 00 00 00 40 00 00 FB 
    331    234028.239 DT     0326 Rx 8  81 A0 25 B5 81 A0 00 00 
    332    234036.069 DT     0085 Rx 8  7E 3B 80 00 33 40 7C 93 
    333    234044.066 DT     0091 Rx 8  7E EA 80 35 BA 22 F0 00 
    334    234052.082 DT     03A8 Rx 8  00 00 28 C0 00 00 00 00 
    335    234060.077 DT     0165 Rx 8  50 C0 00 00 00 00 00 00 
    336    234068.069 DT     0167 Rx 8  72 80 70 10 00 1A 25 00 
    337    234076.086 DT     0200 Rx 8  00 00 7F 4C 80 ED 00 00 
    338    234084.078 DT     0202 Rx 8  04 A3 48 00 60 00 06 4A 
    339    234094.244 DT     0204 Rx 8  C0 69 7D 02 C5 00 00 00 
    340    234102.080 DT     0230 Rx 8  31 06 00 00 94 00 00 00 
    341    234110.080 DT     0076 Rx 8  40 2A C0 00 0F FF 00 00 
    342    234118.073 DT     0077 Rx 8  06 67 08 58 00 08 1A 17 
    343    234126.085 DT     007D Rx 8  00 00 FA 50 00 1F 97 F9 
    344    234134.073 DT     0213 Rx 8  FF FF 00 04 01 12 15 40 
    345    234142.076 DT     0214 Rx 8  6F 66 00 00 00 00 25 50 
    346    234150.078 DT     0216 Rx 8  01 53 CA 57 82 00 00 00 
    347    234160.236 DT     0217 Rx 8  04 7C 04 8D 04 8D 04 AB 
    348    234168.088 DT     0415 Rx 8  06 75 D4 7C 88 4D 08 4D 
    349    234176.105 DT     0436 Rx 8  20 00 00 00 00 00 00 00 
    350    234184.109 DT     0041 Rx 8  00 00 00 00 00 00 00 00 
    351    234192.093 DT     0082 Rx 8  96 00 14 3C A6 00 40 FF 
    352    234200.094 DT     0085 Rx 8  7E 37 80 00 36 50 7C 93 
    353    234208.100 DT     0204 Rx 8  C0 69 7D 02 C2 00 00 00 
    354    234216.107 DT     0047 Rx 8  20 00 00 00 00 00 00 00 
    355    234226.257 DT     0167 Rx 8  72 80 75 10 00 1A 27 00 
    356    234234.095 DT     0186 Rx 8  14 C4 01 5A 81 F7 00 00 
    357    234242.103 DT     04B0 Rx 8  A1 00 00 00 50 00 00 FA 
    358    234250.093 DT     0217 Rx 8  04 81 04 94 04 86 04 86 
    359    234258.108 DT     041D Rx 8  00 00 00 00 00 00 00 00 
    360    234266.092 DT     0085 Rx 8  7E 35 80 00 37 60 7C 93 
    361    234274.105 DT     03A8 Rx 8  00 00 28 BA 00 00 00 00 
    362    234282.101 DT     0165 Rx 8  50 C0 00 00 00 00 00 00 
    363    234292.260 DT     0167 Rx 8  72 80 77 10 00 1A 29 00 
    364    234300.104 DT     0171 Rx 8  35 61 A0 00 00 00 00 00 
    365    234308.106 DT     0200 Rx 8  00 00 7F 51 80 E7 00 00 
    366    234316.100 DT     0202 Rx 8  04 A0 58 00 60 00 06 4B 
    367    234324.102 DT     0204 Rx 8  C0 69 7D 02 BD 00 00 00 
    368    234332.105 DT     0230 Rx 8  31 06 00 00 94 00 00 00 
    369    234340.109 DT     03D4 Rx 8  FF C1 FE FF DF E0 00 00 
    370    234348.111 DT     042F Rx 8  00 00 00 00 00 00 02 FB 
    371    234358.270 DT     0076 Rx 8  40 24 C0 00 0F FF 00 00 
    372    234366.094 DT     0091 Rx 8  7E EE 80 31 AB 31 F0 00 
    373    234374.097 DT     0077 Rx 8  06 6E 08 57 00 08 26 1B 
    374    234382.106 DT     007D Rx 8  00 00 F9 60 00 1F 77 FD 
    375    234390.098 DT     0213 Rx 8  FF FF 00 04 01 12 15 40 
    376    234398.103 DT     0214 Rx 8  6F 66 00 00 00 00 24 60 
    377    234406.101 DT     0216 Rx 8  05 57 CF 5B 82 00 00 00 
    378    234414.098 DT     0217 Rx 8  04 7C 04 9A 04 81 04 A3 
    379    234426.422 DT     0415 Rx 8  06 6A D8 86 88 4D 08 4D 
    380    234434.108 DT     0416 Rx 8  54 00 FA 04 00 00 0F FF 
    381    234442.115 DT     0041 Rx 8  00 00 00 00 00 00 00 00 
    382    234450.103 DT     0242 Rx 8  00 57 21 81 E4 00 00 01 
    383    234458.109 DT     03A3 Rx 8  80 00 00 00 00 00 00 00 
    384    234466.099 DT     0082 Rx 8  9A 00 14 34 A6 00 40 FF 
    385    234474.099 DT     0085 Rx 8  7E 31 80 00 3A 70 7C 93 
    386    234484.280 DT     0333 Rx 8  00 02 00 00 00 00 00 00 
    387    234492.110 DT     0083 Rx 8  00 E0 80 00 00 02 00 00 
    388    234500.107 DT     0204 Rx 8  C0 69 7D 02 BD 00 00 00 
    389    234508.115 DT     0047 Rx 8  20 00 00 00 00 00 00 00 
    390    234516.101 DT     0167 Rx 8  72 80 7C 10 00 1A 29 00 
    391    234524.103 DT     0186 Rx 8  14 C4 01 59 81 F7 00 00 
    392    234532.111 DT     043D Rx 8  00 49 FC 3E 00 00 00 00 
    393    234540.099 DT     043E Rx 8  00 94 10 8A A1 39 10 D9 
    394    234550.274 DT     04B0 Rx 8  A1 00 00 00 60 00 00 F9 
    395    234558.101 DT     0217 Rx 8  04 81 04 97 04 88 04 AD 
    396    234566.117 DT     041D Rx 8  00 00 00 00 00 00 00 00 
    397    234574.103 DT     0331 Rx 8  C0 00 A9 92 0A 9C 0C 00 
    398    234582.104 DT     0085 Rx 8  7E 2E 80 00 3C 80 7C 93 
    399    234590.114 DT     03B6 Rx 8  0C 00 0A 00 00 00 00 00 
    400    234598.106 DT     03B7 Rx 8  00 00 00 00 6C 16 54 13 
    401    234606.116 DT     042C Rx 8  00 00 00 00 3E E0 00 00 
    402    234616.279 DT     004A Rx 8  02 00 00 00 00 00 00 C0 
    403    234624.105 DT     004B Rx 8  00 C0 D8 D8 D8 D8 D8 00 
    404    234632.111 DT     03A8 Rx 8  00 00 28 B4 00 00 00 00 
    405    234640.116 DT     004C Rx 8  20 6F FF 80 00 00 00 00 
    406    234648.110 DT     0165 Rx 8  50 C0 00 00 00 00 00 00 
    407    234656.103 DT     0167 Rx 8  72 80 7B 10 00 1A 2A 00 
    408    234664.112 DT     0200 Rx 8  00 00 7F 55 80 E2 00 00 
    409    234672.106 DT     0202 Rx 8  04 92 68 00 60 00 06 57 
    410    234682.277 DT     0204 Rx 8  C0 69 7D 02 B6 00 00 00 
    411    234690.114 DT     0230 Rx 8  31 06 00 00 94 00 00 00 
    412    234698.116 DT     0076 Rx 8  40 1E C0 00 0F FF 00 00 
    413    234706.108 DT     0077 Rx 8  06 74 08 56 00 08 2A 19 
    414    234714.117 DT     007D Rx 8  00 00 F8 70 00 1F C8 02 
    415    234722.107 DT     0213 Rx 8  FF FF 00 04 01 12 15 40 
    416    234730.111 DT     0214 Rx 8  6F 66 00 00 00 00 23 70 
    417    234738.111 DT     0216 Rx 8  0A 5C D4 60 82 00 00 00 
    418    234748.269 DT     0217 Rx 8  04 81 04 A3 04 90 04 8A 
    419    234756.100 DT     0415 Rx 8  06 64 DC 8B 88 4C 08 4C 
    420    234764.122 DT     0041 Rx 8  00 00 00 00 00 00 00 00 
    421    234772.112 DT     0332 Rx 8  00 30 A9 92 2E 00 00 00 
    422    234780.109 DT     0082 Rx 8  99 00 14 38 A6 00 40 FF 
    423    234788.109 DT     0085 Rx 8  7E 2B 80 00 3E 90 7C 93 
    424    234796.106 DT     0091 Rx 8  7F 01 80 2D 91 3B F0 00 
    425    234804.116 DT     0204 Rx 8  C0 69 7D 02 B2 00 00 00 
    426    234814.287 DT     0047 Rx 8  20 00 00 00 00 00 00 00 
    427    234822.108 DT     0167 Rx 8  72 80 7D 10 00 1A 2D 00 
    428    234830.116 DT     0171 Rx 8  35 61 A0 00 00 00 00 00 
    429    234838.109 DT     0186 Rx 8  14 C4 01 58 81 F7 00 00 
    430    234846.119 DT     03D4 Rx 8  FF C1 FE FF DF E0 00 00 
    431    234854.120 DT     042F Rx 8  00 00 00 00 00 00 02 EC 
    432    234862.120 DT     04B0 Rx 8  A1 00 00 00 70 00 00 F8 
    433    234870.107 DT     0217 Rx 8  04 81 04 9A 04 8A 04 A1 
    434    234880.288 DT     041D Rx 8  00 00 00 00 00 00 00 00 
    435    234888.121 DT     0455 Rx 8  00 00 00 00 00 00 00 00 
    436    234896.109 DT     0085 Rx 8  7E 28 80 00 40 A0 7C 93 
    437    234904.121 DT     03A8 Rx 8  00 00 28 AE 00 00 00 00 
    438    234912.116 DT     0165 Rx 8  50 C0 00 00 00 00 00 00 
    439    234920.110 DT     0167 Rx 8  72 80 83 10 00 1A 2D 00 
    440    234928.119 DT     0200 Rx 8  00 00 7F 5A 80 DD 00 00 
    441    234936.111 DT     0202 Rx 8  04 8B 78 00 60 00 06 5C 
    442    234948.442 DT     0204 Rx 8  C0 69 7D 02 AD 00 00 00 
    443    234956.119 DT     0230 Rx 8  31 06 00 00 94 00 00 00 
    444    234964.117 DT     0076 Rx 8  40 18 C0 00 0F FF 00 00 
    445    234972.112 DT     0077 Rx 8  06 7A 08 53 00 08 3E 18 
    446    234980.102 DT     0092 Rx 8  6F E1 6F F7 73 61 47 45 
    447    234988.121 DT     007D Rx 8  00 00 F7 80 00 1F E8 01 
    448    234996.113 DT     0213 Rx 8  FF FF 00 04 01 12 15 40 
    449    235004.120 DT     0214 Rx 8  6F 66 00 00 00 00 22 80 
    450    235014.278 DT     0216 Rx 8  0F 61 D8 65 82 00 00 00 
    451    235022.110 DT     0217 Rx 8  04 90 04 A3 04 92 04 B4 
    452    235030.110 DT     0415 Rx 8  06 81 E0 6D 88 4C 08 4C 
    453    235038.128 DT     0041 Rx 8  00 00 00 00 00 00 00 00 
    454    235046.115 DT     0242 Rx 8  00 57 21 80 E4 00 00 01 
    455    235054.115 DT     0082 Rx 8  97 00 14 38 A6 00 40 FF 
    456    235062.111 DT     0085 Rx 8  7E 25 80 00 42 B0 7C 93 
    457    235072.280 DT     0186 Rx 8  14 C5 01 57 81 F7 00 00 
    458    235080.123 DT     0204 Rx 8  C0 69 7D 02 A6 00 00 00 
    459    235088.128 DT     0047 Rx 8  20 00 00 00 00 00 00 00 
    460    235096.112 DT     0167 Rx 8  72 80 81 10 00 1A 2D 00 
    461    235104.115 DT     0091 Rx 8  7F 01 80 21 8E 4A F0 00 
    462    235112.119 DT     04B0 Rx 8  A1 00 00 00 80 00 00 F7 
    463    235120.113 DT     0217 Rx 8  04 90 04 A3 04 94 04 94 
    464    235128.130 DT     041D Rx 8  00 00 00 00 00 00 00 00 
    465    235138.280 DT     0085 Rx 8  7E 23 80 00 43 C0 7C 93 
    466    235146.133 DT     03E0 Rx 8  00 00 00 00 80 00 00 00 
    467    235154.127 DT     03A8 Rx 8  00 00 28 A8 00 00 00 00 
    468    235162.121 DT     0165 Rx 8  50 C0 00 00 00 00 00 00 
    469    235170.108 DT     0156 Rx 8  9F 00 00 00 03 00 00 00 
    470    235178.105 DT     0166 Rx 8  74 00 00 02 80 00 1C 00 
    471    235186.101 DT     0167 Rx 8  72 80 7F 10 00 1A 30 00 
    472    235194.109 DT     0171 Rx 8  35 61 A0 00 00 00 00 00 
    473    235204.270 DT     0178 Rx 8  00 00 01 ED 0E 8B CA 88 
    474    235212.107 DT     0179 Rx 8  00 00 00 00 8A 37 0A 59 
    475    235220.117 DT     0200 Rx 8  00 00 7F 60 80 D8 00 00 
    476    235228.105 DT     0202 Rx 8  04 97 08 00 60 00 06 5E 
    477    235236.110 DT     0204 Rx 8  C0 69 7D 02 A3 00 00 00 
    478    235244.111 DT     0230 Rx 8  31 06 00 00 94 00 00 00 
    479    235252.111 DT     0076 Rx 8  40 12 C0 00 0F FF 00 00 
    480    235260.104 DT     0077 Rx 8  06 80 08 51 00 08 4A 17 
    481    235270.281 DT     007D Rx 8  00 00 F6 90 00 1F F8 02 
    482    235278.115 DT     03D4 Rx 8  FF C1 FE FF DF E0 00 00 
    483    235286.109 DT     0421 Rx 8  00 00 50 00 00 00 7A 2A 
    484    235294.106 DT     0213 Rx 8  FF FF 00 04 01 12 15 40 
    485    235302.108 DT     0214 Rx 8  6F 66 00 00 00 00 21 90 
    486    235310.111 DT     0263 Rx 8  F0 00 FF FF 01 00 00 00 
    487    235318.104 DT     0216 Rx 8  13 65 DD 69 82 00 00 00 
    488    235326.100 DT     0217 Rx 8  04 8D 04 A5 04 90 04 AB 
    489    235336.283 DT     037B Rx 8  00 00 08 00 00 00 00 00 
    490    235344.101 DT     0415 Rx 8  06 7B E4 72 88 4B 08 4B 
    491    235352.120 DT     0424 Rx 8  00 00 00 01 00 00 00 00 
    492    235360.116 DT     042D Rx 8  00 03 06 00 00 00 F0 00 
    493    235368.118 DT     042F Rx 8  00 00 00 00 00 00 02 E4 
    494    235376.123 DT     0041 Rx 8  00 00 00 00 00 00 00 00 
    495    235384.116 DT     03A3 Rx 8  80 00 00 00 00 00 00 00 
    496    235392.112 DT     042B Rx 8  CB BE 80 00 00 00 00 00 
    497    235402.285 DT     042C Rx 8  00 00 00 00 3E E0 00 00 
    498    235410.103 DT     0430 Rx 8  03 00 8A 8A 89 01 13 91 
    499    235418.108 DT     0434 Rx 8  23 53 14 00 04 F7 00 63 
    500    235426.108 DT     0082 Rx 8  99 00 14 34 A6 00 40 FF 
    501    235434.109 DT     0085 Rx 8  7E 1F 80 00 46 D0 7C 93 
    502    235442.099 DT     0435 Rx 8  28 20 18 9F BC 20 09 02 
    503    235450.122 DT     043D Rx 8  00 45 F6 3E 00 00 00 00 
    504    235458.107 DT     043E Rx 8  00 94 10 8A A1 39 50 D7 
    505    235470.438 DT     0186 Rx 8  14 C5 01 57 81 F7 00 00 
    506    235478.122 DT     0047 Rx 8  20 00 00 00 00 00 00 00 
    507    235486.107 DT     0167 Rx 8  72 80 85 10 00 1A 35 00 
    508    235494.117 DT     0204 Rx 8  C0 69 7D 02 A0 00 00 00 
    509    235502.115 DT     04B0 Rx 8  A1 00 00 00 90 00 00 F6 
    510    235510.106 DT     0217 Rx 8  04 90 04 AD 04 9E 04 B4 
    511    235518.125 DT     041D Rx 8  00 00 00 00 00 00 00 00 
    512    235526.112 DT     0326 Rx 8  81 A0 25 B5 81 A0 00 00 
    513    235536.278 DT     0085 Rx 8  7E 1D 80 00 47 E0 7C 93 
    514    235544.111 DT     0091 Rx 8  7E FE 80 1F 8A 54 F0 00 
    515    235552.119 DT     03A8 Rx 8  00 00 28 A2 00 00 00 00 
    516    235560.121 DT     03AA Rx 8  00 20 00 00 00 00 00 00 
    517    235568.122 DT     03AB Rx 8  12 00 00 00 40 00 00 00 
    518    235576.118 DT     0165 Rx 8  50 C0 00 00 00 00 00 00 
    519    235584.111 DT     0167 Rx 8  72 80 90 10 00 1A 3A 00 
    520    235594.286 DT     0200 Rx 8  00 00 7F 65 80 D2 00 00 
    521    235602.115 DT     0202 Rx 8  04 8B 18 00 60 00 06 68 
    522    235610.119 DT     0204 Rx 8  C0 69 7D 02 9C 00 00 00 
    523    235618.121 DT     0230 Rx 8  31 06 00 00 94 00 00 00 
    524    235626.122 DT     0076 Rx 8  40 0C C0 00 0F FF 00 00 
    525    235634.110 DT     0077 Rx 8  06 86 08 51 00 08 46 17 
    526    235642.126 DT     007D Rx 8  00 00 F5 A0 00 1F F8 01 
    527    235650.113 DT     0213 Rx 8  FF FF 00 04 01 12 15 40 
    528    235660.287 DT     0214 Rx 8  6F 66 00 00 00 00 20 A0 
    529    235668.117 DT     0216 Rx 8  18 6A E2 6E 82 00 00 00 
    530    235676.109 DT     0217 Rx 8  04 92 04 AB 04 9B 04 9E 
    531    235684.110 DT     0415 Rx 8  06 7B E8 71 88 4A 08 4A 
    532    235692.126 DT     0436 Rx 8  20 00 00 00 00 00 00 00 
    533    235700.130 DT     0041 Rx 8  00 00 00 00 00 00 00 00 
    534    235708.121 DT     0242 Rx 8  00 57 21 7F E4 00 00 01 
    535    235716.117 DT     0082 Rx 8  97 00 14 38 A6 00 40 FF 
    536    235726.279 DT     0085 Rx 8  7E 19 80 00 4A F0 7C 93 
    537    235734.127 DT     03DA Rx 8  00 00 00 00 00 00 00 00 
    538    235742.128 DT     0047 Rx 8  20 00 00 00 00 00 00 00 
    539    235750.114 DT     0167 Rx 8  72 80 9B 10 00 1A 43 00 
    540    235758.122 DT     0171 Rx 8  35 61 A0 00 00 00 00 00 
    541    235766.117 DT     0186 Rx 8  14 C5 01 56 81 F7 00 00 
    542    235774.123 DT     0204 Rx 8  C0 69 7D 02 98 00 00 00 
    543    235782.128 DT     03D4 Rx 8  FF C1 FE FF DF E0 00 00 
    544    235792.294 DT     042F Rx 8  00 00 00 00 00 00 02 D4 
    545    235800.125 DT     04B0 Rx 8  A1 00 00 00 A0 00 00 F5 
    546    235808.112 DT     0217 Rx 8  04 97 04 AD 04 9A 04 B4 
    547    235816.131 DT     041D Rx 8  00 00 00 00 00 00 00 00 
    548    235824.117 DT     0085 Rx 8  7E 17 80 00 5B 00 7C 93 
    549    235832.129 DT     03A8 Rx 8  00 00 28 9C 00 00 00 00 
    550    235840.124 DT     0165 Rx 8  50 C0 00 00 00 00 00 00 
    551    235848.116 DT     0167 Rx 8  72 80 AD 10 00 1A 48 00 
    552    235858.292 DT     0200 Rx 8  00 00 7F 69 80 CD 00 00 
    553    235866.119 DT     0202 Rx 8  04 84 28 00 60 00 06 6D 
    554    235874.117 DT     0204 Rx 8  C0 69 7D 02 92 00 00 00 
    555    235882.127 DT     0230 Rx 8  31 06 00 00 94 00 00 00 
    556    235890.131 DT     0076 Rx 8  40 06 C0 00 0F FF 00 00 
    557    235898.113 DT     0077 Rx 8  06 8D 08 4F 00 08 42 16 
    558    235906.118 DT     0091 Rx 8  7F 08 80 17 78 63 F0 00 
    559    235914.126 DT     007D Rx 8  00 00 F4 B0 00 1F B8 04 
    560    235924.287 DT     0213 Rx 8  FF FF 00 04 01 12 16 40 
    561    235932.129 DT     0214 Rx 8  6F 66 00 00 00 00 1F B0 
    562    235940.124 DT     0216 Rx 8  1E 6F E6 73 82 00 00 00 
    563    235948.117 DT     0217 Rx 8  04 94 04 B4 04 9B 04 BE 
    564    235956.114 DT     0415 Rx 8  06 8C EC 5F 88 49 08 49 
    565    235964.130 DT     0416 Rx 8  55 00 F9 04 00 00 0F FF 
    566    235972.136 DT     0041 Rx 8  00 00 00 00 00 00 00 00 
    567    235980.121 DT     0082 Rx 8  99 00 14 38 A6 00 40 FF 
    568    235992.447 DT     0085 Rx 8  7E 14 80 00 5D 10 7C 93 
    569    236000.136 DT     0333 Rx 8  00 02 00 00 00 00 00 00 
    570    236008.132 DT     0083 Rx 8  00 E0 80 00 00 02 00 00 
    571    236016.129 DT     0204 Rx 8  C0 69 7D 02 92 00 00 00 
    572    236024.136 DT     0047 Rx 8  20 00 00 00 00 00 00 00 
    573    236032.122 DT     0167 Rx 8  72 80 B8 10 00 1A 4B 00 
    574    236040.123 DT     0186 Rx 8  14 C5 01 56 81 F7 00 00 
    575    236048.131 DT     043D Rx 8  00 45 F6 3F 00 00 00 00 
    576    236058.285 DT     043E Rx 8  00 94 10 8A A1 39 88 D5 
    577    236066.130 DT     04B0 Rx 8  A1 00 00 00 B0 00 00 F4 
    578    236074.119 DT     0217 Rx 8  04 9E 04 AF 04 A1 04 A1 
    579    236082.139 DT     041D Rx 8  00 00 00 00 00 00 00 00 
    580    236090.136 DT     042C Rx 8  00 00 00 00 3E E0 00 00 
    581    236098.125 DT     0085 Rx 8  7E 11 80 00 5F 20 7C 93 
    582    236106.133 DT     004A Rx 8  02 00 00 00 00 00 00 C0 
    583    236116.290 DT     004B Rx 8  00 C0 D8 D8 D8 D8 D8 00 
    584    236124.138 DT     03A8 Rx 8  00 00 28 96 00 00 00 00 
    585    236132.137 DT     004C Rx 8  20 6F FF 80 00 00 00 00 
    586    236140.131 DT     0165 Rx 8  50 C0 00 00 00 00 00 00 
    587    236148.124 DT     0167 Rx 8  72 80 BD 10 00 1A 4C 00 
    588    236156.134 DT     0171 Rx 8  35 61 A0 00 00 00 00 00 
    589    236164.133 DT     0200 Rx 8  00 00 7F 6E 80 C8 00 00 
    590    236172.095 DT     0202 Rx 8  04 7E 38 00 60 00 06 71 
    591    236182.273 DT     0204 Rx 8  C0 69 7D 02 91 00 00 00 
    592    236190.109 DT     0230 Rx 8  31 06 00 00 94 00 00 00 
    593    236198.114 DT     03D4 Rx 8  FF C1 FE FF DF E0 00 00 
    594    236206.112 DT     042F Rx 8  00 00 00 00 00 00 02 CB 
    595    236214.113 DT     0076 Rx 8  40 01 C0 00 0F FF 00 00 
    596    236222.105 DT     0077 Rx 8  06 92 08 4B 00 08 3E 14 
    597    236230.109 DT     007D Rx 8  00 00 F3 C0 00 1F C8 03 
    598    236238.104 DT     0213 Rx 8  FF FF 00 04 01 12 15 40 
    599    236248.273 DT     0214 Rx 8  6F 66 00 00 00 00 1E C0 
    600    236256.104 DT     0216 Rx 8  22 73 EB 77 82 00 00 00 
    601    236264.098 DT     0217 Rx 8  04 A3 04 B7 04 A3 04 B4 
    602    236272.099 DT     0415 Rx 8  06 8C F0 5E 88 48 08 48 
    603    236280.119 DT     0041 Rx 8  00 00 00 00 00 00 00 00 
    604    236288.110 DT     0242 Rx 8  00 57 21 7F E4 00 00 01 
    605    236296.108 DT     0332 Rx 8  00 30 A9 92 2E 00 00 00 
    606    236304.104 DT     0082 Rx 8  99 00 14 38 A6 00 40 FF 
    607    236314.270 DT     0085 Rx 8  7E 0E 80 00 61 30 7C 93 
    608    236322.114 DT     03A3 Rx 8  80 00 00 00 00 00 00 00 
    609    236330.107 DT     0091 Rx 8  7F 05 80 0B 7D 6D F0 00 
    610    236338.111 DT     0204 Rx 8  C0 69 7D 02 8F 00 00 00 
    611    236346.119 DT     0047 Rx 8  20 00 00 00 00 00 00 00 
    612    236354.108 DT     0167 Rx 8  72 80 BC 10 00 1A 4B 00 
    613    236362.108 DT     0186 Rx 8  14 C6 01 55 81 F7 00 00 
    614    236370.111 DT     04B0 Rx 8  A1 00 00 00 C0 00 00 F3 
    615    236380.268 DT     0217 Rx 8  04 A1 04 B9 04 AB 04 BC 
    616    236388.120 DT     041D Rx 8  00 00 00 00 00 00 00 00 
    617    236396.117 DT     0455 Rx 8  00 00 00 00 00 00 00 00 
    618    236404.107 DT     0085 Rx 8  7E 0C 80 00 62 40 7C 93 
    619    236412.116 DT     03A8 Rx 8  00 00 28 91 00 00 00 00 
    620    236420.112 DT     0165 Rx 8  50 C0 00 00 00 00 00 00 
    621    236428.107 DT     0167 Rx 8  72 80 B8 10 00 1A 4B 00 
    622    236436.115 DT     0200 Rx 8  00 00 7F 72 80 C3 00 00 
    623    236446.277 DT     0202 Rx 8  04 75 48 00 60 00 06 78 
    624    236454.117 DT     0204 Rx 8  C0 69 7D 02 8C 00 00 00 
    625    236462.107 DT     0230 Rx 8  31 06 00 00 94 00 00 00 
    626    236470.118 DT     0076 Rx 8  3F FB C0 00 0F FF 00 00 
    627    236478.102 DT     0077 Rx 8  06 99 08 47 00 08 4A 14 
    628    236486.118 DT     007D Rx 8  00 00 F2 D0 00 20 07 FF 
    629    236494.111 DT     0213 Rx 8  FF FF 00 04 01 12 16 40 
    630    236502.111 DT     0214 Rx 8  6F 66 00 00 00 00 1D D0 
    631    236514.440 DT     0216 Rx 8  27 78 F1 7C 82 00 00 00 
    632    236522.109 DT     0217 Rx 8  04 9E 04 BE 04 AD 04 BE 
    633    236530.101 DT     0415 Rx 8  06 9D F4 4C 88 47 08 47 
    634    236538.124 DT     0041 Rx 8  00 00 00 00 00 00 00 00 
    635    236546.112 DT     0082 Rx 8  98 00 14 38 A6 00 40 FF 
    636    236554.113 DT     0085 Rx 8  7E 09 80 00 64 50 7C 93 
    637    236562.103 DT     0092 Rx 8  6F EC 6F E8 73 67 13 77 
    638    236570.117 DT     0204 Rx 8  C0 69 7D 02 8A 00 00 00 
    639    236580.288 DT     0047 Rx 8  20 00 00 00 00 00 00 00 
    640    236588.110 DT     0167 Rx 8  72 80 B5 10 00 1A 4B 00 
    641    236596.118 DT     0171 Rx 8  35 61 A0 00 00 00 00 00 
    642    236604.114 DT     0186 Rx 8  14 C7 01 54 81 F7 00 00 
    643    236612.122 DT     03D4 Rx 8  FF C1 FE FF DF E0 00 00 
    644    236620.125 DT     042F Rx 8  00 00 00 00 00 00 02 BE 
    645    236628.111 DT     0091 Rx 8  7E F1 7F FB 94 7C F0 00 
    646    236638.285 DT     04B0 Rx 8  A1 00 00 00 D0 00 00 F2 
    647    236646.106 DT     0217 Rx 8  04 A3 04 B7 04 A8 04 B7 
    648    236654.126 DT     041D Rx 8  00 00 00 00 00 00 00 00 
    649    236662.115 DT     0085 Rx 8  7E 06 80 00 66 60 7C 93 
    650    236670.124 DT     03A8 Rx 8  00 00 28 8B 00 00 00 00 
    651    236678.119 DT     0165 Rx 8  50 C0 00 00 00 00 00 00 
    652    236686.121 DT     0156 Rx 8  9F 00 00 00 03 00 00 00 
    653    236694.118 DT     0166 Rx 8  74 00 00 02 80 00 1C 00 
    654    236704.276 DT     0167 Rx 8  72 80 B4 10 00 1A 4B 00 
    655    236712.119 DT     0178 Rx 8  00 00 01 F8 0E 8B CA 88 
    656    236720.119 DT     0179 Rx 8  00 00 00 00 8A 3A 0A 60 
    657    236728.123 DT     0200 Rx 8  00 00 7F 76 80 BF 00 00 
    658    236736.117 DT     0202 Rx 8  04 6D 58 00 60 00 06 7E 
    659    236744.121 DT     0204 Rx 8  C0 69 7D 02 8A 00 00 00 
    660    236752.121 DT     0230 Rx 8  31 06 00 00 94 00 00 00 
    661    236760.118 DT     0421 Rx 8  00 00 50 00 00 00 7A 2A 
    662    236770.290 DT     0076 Rx 8  3F F6 C0 00 0F FF 00 00 
    663    236778.115 DT     0077 Rx 8  06 9F 08 47 00 08 52 16 
    664    236786.121 DT     0263 Rx 8  F0 00 FF FF 01 00 00 00 
    665    236794.123 DT     007D Rx 8  00 00 F1 E0 00 20 17 FD 
    666    236802.130 DT     037B Rx 8  00 00 08 00 00 00 00 00 
    667    236810.117 DT     0213 Rx 8  FF FF 00 04 01 12 16 40 
    668    236818.120 DT     0214 Rx 8  6F 66 00 00 00 00 1C E0 
    669    236826.126 DT     0216 Rx 8  2C 7D F5 81 82 00 00 00 
    670    236836.276 DT     0217 Rx 8  04 AD 04 B4 04 A8 04 B9 
    671    236844.131 DT     0424 Rx 8  00 00 00 01 00 00 00 00 
    672    236852.113 DT     0415 Rx 8  06 9D F8 4B 88 46 08 46 
    673    236860.128 DT     042D Rx 8  00 03 06 00 00 00 F0 00 
    674    236868.112 DT     0430 Rx 8  03 00 8A 8A 89 01 13 91 
    675    236876.120 DT     0434 Rx 8  23 9F 14 00 04 F7 00 67 
    676    236884.114 DT     0435 Rx 8  7C 70 10 D7 BC 20 09 02 
    677    236892.133 DT     0041 Rx 8  00 00 00 00 00 00 00 00 
    678    236902.287 DT     0242 Rx 8  00 57 21 7D E4 00 00 01 
    679    236910.116 DT     040A Rx 8  C1 04 01 63 09 9E 86 82 
    680    236918.112 DT     0082 Rx 8  97 00 14 38 A6 00 40 FF 
    681    236926.122 DT     0085 Rx 8  7E 03 80 00 68 70 7C 93 
    682    236934.127 DT     042B Rx 8  CB BE 80 00 00 00 00 00 
    683    236942.131 DT     042C Rx 8  00 00 00 00 3E E0 00 00 
    684    236950.123 DT     043D Rx 8  00 44 F6 3F 00 00 00 00 
    685    236958.117 DT     043E Rx 8  00 94 10 89 A1 39 B8 D3 
    686    236968.301 DT     0468 Rx 8  00 00 00 00 00 00 00 00 
    687    236976.132 DT     0469 Rx 8  00 00 00 00 00 00 00 00 
    688    236984.122 DT     0186 Rx 8  14 C7 01 54 81 F7 00 00 
    689    236992.135 DT     0047 Rx 8  20 00 00 00 00 00 00 00 
    690    237000.117 DT     0167 Rx 8  72 80 B3 10 00 1A 4B 00 
    691    237008.132 DT     0204 Rx 8  C0 69 7D 02 88 00 00 00 
    692    237016.128 DT     04B0 Rx 8  A1 00 00 00 E0 00 00 F1 
    693    237024.117 DT     0217 Rx 8  04 AB 04 BE 04 A3 04 B2 
    694    237036.464 DT     041D Rx 8  00 00 00 00 00 00 00 00 
    695    237044.122 DT     0326 Rx 8  81 A0 25 B4 81 A0 00 00 
    696    237052.122 DT     0085 Rx 8  7E 01 80 00 69 80 7C 93 
    697    237060.121 DT     0091 Rx 8  7E F1 80 01 83 86 F0 00 
    698    237068.133 DT     03A8 Rx 8  00 00 28 86 00 00 00 00 
    699    237076.128 DT     0165 Rx 8  50 C0 00 00 00 00 00 00 
    700    237084.122 DT     0167 Rx 8  72 80 B1 10 00 1A 4A 00 
    701    237092.131 DT     0171 Rx 8  35 61 A0 00 00 00 00 00 
    702    237102.296 DT     0200 Rx 8  00 00 7F 76 80 BD 00 00 
    703    237110.122 DT     0202 Rx 8  04 63 68 00 60 00 06 86 
    704    237118.133 DT     0204 Rx 8  C0 69 7D 02 88 00 00 00 
    705    237126.131 DT     0230 Rx 8  31 06 00 00 94 00 00 00 
    706    237134.135 DT     03D4 Rx 8  FF C1 FE FF DF E0 00 00 
    707    237142.134 DT     042F Rx 8  00 00 00 00 00 00 02 B9 
    708    237150.134 DT     0076 Rx 8  3F F0 C0 00 0F FF 00 00 
    709    237160.288 DT     0077 Rx 8  06 A5 08 49 00 08 46 16 
    710    237168.122 DT     007D Rx 8  00 00 F0 F0 00 20 27 FD 
    711    237176.121 DT     0213 Rx 8  FF FF 00 04 01 12 16 40 
    712    237184.127 DT     0214 Rx 8  6F 66 00 00 00 00 1B F0 
    713    237192.125 DT     0216 Rx 8  30 81 FA 85 82 00 00 00 
    714    237200.118 DT     0217 Rx 8  04 A8 04 C1 04 A8 04 BC 
    715    237208.112 DT     0415 Rx 8  06 97 FC 50 88 45 08 45 
    716    237216.131 DT     0436 Rx 8  20 00 00 00 00 00 00 00 
    717    237226.301 DT     0041 Rx 8  00 00 00 00 00 00 00 00 
    718    237234.130 DT     03A3 Rx 8  80 00 00 00 00 00 00 00 
    719    237242.123 DT     0082 Rx 8  98 00 14 38 A6 00 40 FF 
    720    237250.123 DT     0085 Rx 8  7D FE 80 00 6C 90 7C 93 
    721    237258.128 DT     0204 Rx 8  C0 69 7D 02 84 00 00 00 
    722    237266.134 DT     0047 Rx 8  20 00 00 00 00 00 00 00 
    723    237274.121 DT     0167 Rx 8  72 80 AF 10 00 1A 4A 00 
    724    237282.121 DT     0186 Rx 8  14 C7 01 53 81 F7 00 00 
    725    237292.296 DT     04B0 Rx 8  A1 00 00 00 F0 00 00 F0 
    726    237300.118 DT     0217 Rx 8  04 AF 04 C5 04 A5 04 B7 
    727    237308.136 DT     041D Rx 8  00 00 00 00 00 00 00 00 
    728    237316.124 DT     0085 Rx 8  7D FB 80 00 6E A0 7C 93 
    729    237324.134 DT     03A8 Rx 8  00 00 28 80 00 00 00 00 
    730    237332.126 DT     0165 Rx 8  50 C0 00 00 00 00 00 00 
    731    237340.123 DT     0167 Rx 8  72 80 AF 10 00 1A 4A 00 
    732    237348.131 DT     0200 Rx 8  00 00 7F 77 80 BD 00 00 
    733    237358.290 DT     0202 Rx 8  04 5A 78 00 60 00 06 8D 
    734    237366.132 DT     0204 Rx 8  C0 69 7D 02 81 00 00 00 
    735    237374.131 DT     0230 Rx 8  31 06 00 00 94 00 00 00 
    736    237382.134 DT     0076 Rx 8  3F EB C0 00 0F FF 00 00 
    737    237390.122 DT     0091 Rx 8  7E E3 7F FB 89 95 F0 00 
    738    237398.121 DT     0077 Rx 8  06 AB 08 46 00 08 32 12 
    739    237406.131 DT     007D Rx 8  00 00 FF 00 00 20 17 FA 
    740    237414.126 DT     0213 Rx 8  FF FF 00 04 01 12 16 40 
    741    237424.296 DT     0214 Rx 8  6F 66 00 00 00 00 2A 00 
    742    237432.128 DT     0216 Rx 8  35 86 FF 8A 82 00 00 00 
    743    237440.121 DT     0217 Rx 8  04 AD 04 C3 04 A5 04 BC 
    744    237448.121 DT     0415 Rx 8  06 91 C0 65 88 44 08 44 
    745    237456.133 DT     0416 Rx 8  56 00 F8 04 00 00 0F FF 
    746    237464.141 DT     0041 Rx 8  00 00 00 00 00 00 00 00 
    747    237472.130 DT     0242 Rx 8  00 57 21 7C E4 00 00 01 
    748    237480.128 DT     0082 Rx 8  97 00 14 3C A6 00 40 FF 
    749    237490.293 DT     0085 Rx 8  7D F8 80 00 70 B0 7C 93 
    750    237498.135 DT     0083 Rx 8  00 E0 80 00 00 02 00 00 
    751    237506.140 DT     0333 Rx 8  00 02 00 00 00 00 00 00 
    752    237514.132 DT     0186 Rx 8  14 C8 01 52 81 F7 00 00 
    753    237522.139 DT     0047 Rx 8  20 00 00 00 00 00 00 00 
    754    237530.126 DT     0167 Rx 8  72 80 AF 10 00 1A 49 00 
    755    237538.134 DT     0171 Rx 8  35 61 A0 00 00 00 00 00 
    756    237546.137 DT     0204 Rx 8  C0 69 7D 02 82 00 00 00 
    757    237558.467 DT     03D4 Rx 8  FF C1 FE FF DF E0 00 00 
    758    237566.138 DT     042F Rx 8  00 00 00 00 00 00 02 AE 
    759    237574.132 DT     043D Rx 8  00 44 F6 40 00 00 00 00 
    760    237582.129 DT     043E Rx 8  00 94 10 89 A1 39 B8 D1 
    761    237590.139 DT     04B0 Rx 8  A1 00 00 00 00 00 00 FF 
    762    237598.124 DT     0217 Rx 8  04 B2 04 C5 04 A5 04 C3 
    763    237606.143 DT     041D Rx 8  00 00 00 00 00 00 00 00 
    764    237614.131 DT     0085 Rx 8  7D F6 80 00 71 C0 7C 93 
    765    237624.306 DT     042C Rx 8  00 00 00 00 3E E0 00 00 
    766    237632.140 DT     004A Rx 8  02 00 00 00 00 00 00 C0 
    767    237640.131 DT     004B Rx 8  00 C0 D8 D8 D8 D8 D8 00 
    768    237648.141 DT     03A8 Rx 8  00 00 28 7B 00 00 00 00 
    769    237656.143 DT     004C Rx 8  20 6F FF 80 00 00 00 00 
    770    237664.135 DT     0165 Rx 8  50 C0 00 00 00 00 00 00 
    771    237672.129 DT     0167 Rx 8  72 80 AD 10 00 1A 48 00 
    772    237682.302 DT     0200 Rx 8  00 00 7F 77 80 BC 00 00 
    773    237690.136 DT     0202 Rx 8  04 66 08 00 60 00 06 8F 
    774    237698.138 DT     0204 Rx 8  C0 69 7D 02 80 00 00 00 
    775    237706.133 DT     0230 Rx 8  30 06 00 00 94 00 00 00 
    776    237714.143 DT     0076 Rx 8  3F E4 C0 00 0F FF 00 00 
    777    237722.132 DT     0077 Rx 8  06 AF 08 44 00 08 36 0E 
    778    237730.140 DT     007D Rx 8  00 00 FE 10 00 1F D7 F4 
    779    237738.131 DT     0213 Rx 8  FF FF 00 04 01 12 15 40 
    780    237748.302 DT     0214 Rx 8  6F 66 00 00 00 00 29 10 
    781    237756.134 DT     0216 Rx 8  3B 8C 03 90 82 00 00 00 
    782    237764.133 DT     0217 Rx 8  04 B4 04 BE 04 B4 04 C1 
    783    237772.123 DT     0415 Rx 8  06 A8 C4 4D 88 43 08 43 
    784    237780.150 DT     0041 Rx 8  00 00 00 00 00 00 00 00 
    785    237788.138 DT     0332 Rx 8  00 30 A9 92 2E 00 00 00 
    786    237796.137 DT     0082 Rx 8  98 00 14 38 A6 00 40 FF 
    787    237804.134 DT     0085 Rx 8  7D F2 80 00 74 D0 7C 93 
    788    237814.299 DT     0091 Rx 8  7E D2 7F F5 96 9F F0 00 
    789    237822.143 DT     0204 Rx 8  C0 69 7D 02 7F 00 00 00 
    790    237830.147 DT     0047 Rx 8  20 00 00 00 00 00 00 00 
    791    237838.136 DT     0167 Rx 8  72 80 AB 10 00 1A 48 00 
    792    237846.138 DT     0186 Rx 8  14 C9 01 51 81 F7 00 00 
    793    265959.292 DT     0076 Rx 8  40 49 C0 00 0F FF 00 00 
    794    265966.849 DT     0077 Rx 8  06 32 08 4E 00 08 4A 19 
    795    265974.848 DT     0091 Rx 8  7E AB 80 13 70 CD F0 00 
    796    265982.857 DT     007D Rx 8  00 00 F3 C0 00 1F E7 E8 
    797    265990.849 DT     0213 Rx 8  FF FF 00 04 01 12 13 40 
    798    265998.856 DT     0214 Rx 8  6F 66 00 00 00 00 1E C0 
    799    266006.850 DT     0216 Rx 8  D7 2A A0 2E 82 00 00 00 
    800    266017.011 DT     0217 Rx 8  04 5C 04 6D 04 6D 04 6A 
    801    266024.841 DT     0415 Rx 8  06 32 F0 B8 88 4D 08 4D 
    802    266032.857 DT     0416 Rx 8  52 00 FC 04 00 00 0F FF 
    803    266040.866 DT     0041 Rx 8  00 00 00 00 00 00 00 00 
    804    266048.849 DT     0242 Rx 8  00 57 21 86 E4 00 00 01 
    805    266056.850 DT     0082 Rx 8  98 00 14 34 A6 00 40 FF 
    806    266064.848 DT     0085 Rx 8  7E 5A 80 00 15 30 7C 93 
    807    266072.856 DT     0333 Rx 8  00 02 00 00 00 00 00 00 
    808    266083.027 DT     0083 Rx 8  00 E0 80 00 00 02 00 00 
    809    266090.857 DT     0204 Rx 8  C0 69 7D 03 17 00 00 00 
    810    266098.866 DT     0047 Rx 8  20 00 00 00 00 00 00 00 
    811    266106.852 DT     0167 Rx 8  72 80 6F 10 00 1A 1B 00 
    812    266114.857 DT     0186 Rx 8  14 C5 01 60 81 F7 00 00 
    813    266122.860 DT     043D Rx 8  00 52 FE 3E 00 00 00 00 
    814    266130.850 DT     043E Rx 8  00 94 10 8B A1 38 10 E2 
    815    266138.857 DT     04B0 Rx 8  A1 00 00 00 C0 00 00 F3 
    816    266149.013 DT     0217 Rx 8  04 59 04 6A 04 68 04 74 
    817    266156.867 DT     041D Rx 8  00 00 00 00 00 00 00 00 
    818    266164.852 DT     03B4 Rx 8  40 11 11 FF 23 23 00 00 
    819    266172.752 DT     0085 Rx 8  7E 5A 80 00 14 40 7C 93 
    820    266180.767 DT     042C Rx 8  00 00 00 00 3E E0 00 00 
    821    266188.764 DT     004A Rx 8  02 00 00 00 00 00 00 C0 
    822    266196.762 DT     03A8 Rx 8  00 00 28 D9 00 00 00 00 
    823    266204.757 DT     004B Rx 8  00 C0 D8 D8 D8 D8 D8 00 
    824    266214.931 DT     004C Rx 8  20 6F FF 80 00 00 00 00 
    825    266222.760 DT     0165 Rx 8  50 C0 00 00 00 00 00 00 
    826    266230.750 DT     0167 Rx 8  72 80 6D 10 00 1A 1B 00 
    827    266238.763 DT     0171 Rx 8  35 61 A0 00 00 00 00 00 
    828    266246.765 DT     0200 Rx 8  00 00 7F 2F 81 18 00 00 
    829    266254.758 DT     0202 Rx 8  04 CD 48 00 60 00 06 20 
    830    266262.761 DT     0204 Rx 8  C0 69 7D 03 11 00 00 00 
    831    266270.764 DT     0230 Rx 8  31 06 00 00 94 00 00 00 
    832    266280.932 DT     03D4 Rx 8  FF C1 FE FF DF E0 00 00 
    833    266288.768 DT     042F Rx 8  00 00 00 00 00 00 03 20 
    834    266296.765 DT     0076 Rx 8  40 47 C0 00 0F FF 00 00 
    835    266304.753 DT     0077 Rx 8  06 38 08 4A 00 08 52 18 
    836    266312.766 DT     007D Rx 8  00 00 F2 D0 00 1F F7 E6 
    837    266320.760 DT     0213 Rx 8  FF FF 00 04 01 12 14 40 
    838    266328.759 DT     0214 Rx 8  6F 66 00 00 00 00 1D D0 
    839    266336.758 DT     0216 Rx 8  DB 2F A5 31 82 00 00 00 
    840    266346.918 DT     0217 Rx 8  04 59 04 6A 04 55 04 81 
    841    266354.751 DT     0415 Rx 8  06 37 F4 B2 88 4D 08 4D 
    842    266362.773 DT     0041 Rx 8  00 00 00 00 00 00 00 00 
    843    266370.770 DT     03A3 Rx 8  80 00 00 00 00 00 00 00 
    844    266378.764 DT     0332 Rx 8  00 30 A9 92 2E 00 00 00 
    845    266386.758 DT     0082 Rx 8  98 00 14 34 A6 00 40 FF 
    846    266394.759 DT     0085 Rx 8  7E 59 80 00 14 50 7C 93 
    847    266402.760 DT     0091 Rx 8  7E A4 80 09 77 D7 F0 00 
    848    266412.915 DT     03B5 Rx 8  00 E3 00 E6 00 DE 00 DC 
    849    266420.765 DT     0204 Rx 8  C0 69 7D 03 0D 00 00 00 
    850    266428.773 DT     0047 Rx 8  20 00 00 00 00 00 00 00 
    851    266436.760 DT     0167 Rx 8  72 80 6C 10 00 1A 1B 00 
    852    266444.762 DT     0186 Rx 8  14 C4 01 5F 81 F7 00 00 
    853    266452.755 DT     0092 Rx 8  6F F5 6F FA 73 60 9A DC 
    854    266460.769 DT     04B0 Rx 8  A1 00 00 00 D0 00 00 F2 
    855    266468.759 DT     0217 Rx 8  04 5C 04 70 04 55 04 83 
    856    266481.103 DT     041D Rx 8  00 00 00 00 00 00 00 00 
    857    266488.772 DT     0455 Rx 8  00 00 00 00 00 00 00 00 
    858    266496.758 DT     0085 Rx 8  7E 58 80 00 14 60 7C 93 
    859    266504.770 DT     03A8 Rx 8  00 00 28 D7 00 00 00 00 
    860    266512.767 DT     0165 Rx 8  50 C0 00 00 00 00 00 00 
    861    266520.763 DT     0167 Rx 8  72 80 6C 10 00 1A 1C 00 
    862    266528.770 DT     0200 Rx 8  00 00 7F 32 81 12 00 00 
    863    266538.928 DT     0202 Rx 8  04 C6 58 00 60 00 06 25 
    864    266546.769 DT     0204 Rx 8  C0 69 7D 03 08 00 00 00 
    865    266554.770 DT     0230 Rx 8  31 06 00 00 94 00 00 00 
    866    266562.770 DT     0076 Rx 8  40 46 C0 00 0F FF 00 00 
    867    266570.761 DT     0077 Rx 8  06 3E 08 4A 00 08 56 1A 
    868    266578.769 DT     007D Rx 8  00 00 F1 E0 00 1F D7 EC 
    869    266586.766 DT     0213 Rx 8  FF FF 00 04 01 12 14 40 
    870    266594.768 DT     0214 Rx 8  6F 66 00 00 00 00 1C E0 
    871    266604.929 DT     0216 Rx 8  E0 33 AA 36 82 00 00 00 
    872    266612.762 DT     0217 Rx 8  04 60 04 72 04 68 04 70 
    873    266620.759 DT     0415 Rx 8  06 37 F8 B1 88 4D 08 4D 
    874    266628.779 DT     0041 Rx 8  00 00 00 00 00 00 00 00 
    875    266636.765 DT     0242 Rx 8  00 57 21 85 E4 00 00 01 
    876    266644.780 DT     03C7 Rx 8  00 00 40 00 00 00 00 00 
    877    266652.766 DT     0082 Rx 8  98 00 14 34 A6 00 40 FF 
    878    266660.763 DT     0085 Rx 8  7E 56 80 00 15 70 7C 93 
    879    266670.941 DT     0204 Rx 8  C0 69 7D 03 01 00 00 00 
    880    266678.779 DT     0047 Rx 8  20 00 00 00 00 00 00 00 
    881    266686.765 DT     0167 Rx 8  72 80 6D 10 00 1A 1C 00 
    882    266694.773 DT     0171 Rx 8  35 61 A0 00 00 00 00 00 
    883    266702.769 DT     0186 Rx 8  14 C4 01 5F 81 F7 00 00 
    884    266710.778 DT     03D4 Rx 8  FF C1 FE FF DF E0 00 00 
    885    266718.776 DT     042F Rx 8  00 00 00 00 00 00 03 1F 
    886    266726.769 DT     0091 Rx 8  7E C7 80 05 49 E6 F0 00 
    887    266736.939 DT     04B0 Rx 8  A1 00 00 00 E0 00 00 F1 
    888    266744.764 DT     0217 Rx 8  04 60 04 70 04 6D 04 79 
    889    266752.781 DT     041D Rx 8  00 00 00 00 00 00 00 00 
    890    266760.766 DT     0085 Rx 8  7E 55 80 00 15 80 7C 93 
    891    266768.778 DT     03A8 Rx 8  00 00 28 D6 00 00 00 00 
    892    266776.772 DT     0165 Rx 8  50 C0 00 00 00 00 00 00 
    893    266784.777 DT     0156 Rx 8  9F 00 00 00 03 00 00 00 
    894    266792.773 DT     0166 Rx 8  75 00 00 02 80 00 1C 00 
    895    266802.934 DT     0167 Rx 8  72 80 6C 10 00 1A 1B 00 
    896    266810.772 DT     0178 Rx 8  00 00 01 E8 0E 8B CA 88 
    897    266818.773 DT     0179 Rx 8  00 00 00 00 8A 33 0A 48 
    898    266826.778 DT     0200 Rx 8  00 00 7F 34 81 0D 00 00 
    899    266834.770 DT     0202 Rx 8  04 BF 68 00 60 00 06 2A 
    900    266842.777 DT     0204 Rx 8  C0 69 7D 02 FD 00 00 00 
    901    266850.777 DT     0230 Rx 8  31 06 00 00 94 00 00 00 
    902    266858.776 DT     0076 Rx 8  40 43 C0 00 0F FF 00 00 
    903    266868.936 DT     0077 Rx 8  06 44 08 49 00 08 52 18 
    904    266876.779 DT     007D Rx 8  00 00 F0 F0 00 1F C7 F7 
    905    266884.777 DT     0263 Rx 8  F0 00 FF FF 01 00 00 00 
    906    266892.783 DT     037B Rx 8  00 00 08 00 00 00 00 00 
    907    266900.775 DT     0421 Rx 8  00 00 50 00 00 00 7A 2A 
    908    266908.773 DT     0213 Rx 8  FF FF 00 04 01 12 14 40 
    909    266916.786 DT     0424 Rx 8  00 00 00 01 00 00 00 00 
    910    266924.778 DT     0214 Rx 8  6F 66 00 00 00 00 1B F0 
    911    266934.945 DT     042D Rx 8  00 03 07 00 00 00 F0 00 
    912    266942.771 DT     0216 Rx 8  E5 37 AE 3B 82 00 00 00 
    913    266950.767 DT     0430 Rx 8  03 00 8A 8A 89 01 13 91 
    914    266958.768 DT     0217 Rx 8  04 63 04 79 04 6A 04 74 
    915    266966.765 DT     0415 Rx 8  06 3D FC AA 88 4D 08 4D 
    916    266974.773 DT     0434 Rx 8  23 E8 14 00 04 F7 00 63 
    917    266982.772 DT     0435 Rx 8  28 20 18 9F BC 20 09 02 
    918    266990.788 DT     0041 Rx 8  00 00 00 00 00 00 00 00 
    919    267003.101 DT     03B3 Rx 8  40 48 04 0D 10 05 00 02 
    920    267010.781 DT     03C3 Rx 8  70 C0 00 00 00 00 80 00 
    921    267018.774 DT     0082 Rx 8  98 00 14 34 A6 00 40 FF 
    922    267026.774 DT     0085 Rx 8  7E 53 80 00 16 90 7C 93 
    923    267034.781 DT     042B Rx 8  CB BE 80 00 00 00 00 00 
    924    267042.786 DT     042C Rx 8  00 00 00 00 3E E0 00 00 
    925    267050.782 DT     043D Rx 8  00 4E FE 3E 00 00 00 00 
    926    267060.938 DT     043E Rx 8  00 94 10 8B A1 38 60 E1 
    927    267068.775 DT     0186 Rx 8  14 C3 01 5E 81 F7 00 00 
    928    267076.781 DT     0204 Rx 8  C0 69 7D 02 F9 00 00 00 
    929    267084.790 DT     0047 Rx 8  20 00 00 00 00 00 00 00 
    930    267092.776 DT     0167 Rx 8  72 80 68 10 00 1A 1C 00 
    931    267100.786 DT     04B0 Rx 8  A1 00 00 00 F0 00 00 F0 
    932    267108.772 DT     0217 Rx 8  04 68 04 77 04 6A 04 83 
    933    267116.790 DT     041D Rx 8  00 00 00 00 00 00 00 00 
    934    267126.943 DT     0326 Rx 8  81 A0 25 B6 81 A0 00 00 
    935    267134.775 DT     0085 Rx 8  7E 52 80 00 16 A0 7C 93 
    936    267142.774 DT     0091 Rx 8  7E EA 80 07 1A F0 F0 00 
    937    267150.786 DT     03A8 Rx 8  00 00 28 D3 00 00 00 00 
    938    267158.787 DT     03AA Rx 8  00 20 00 00 00 00 00 00 
    939    267166.687 DT     03AB Rx 8  12 00 00 00 40 00 00 00 
    940    267174.684 DT     0165 Rx 8  50 C0 00 00 00 00 00 00 
    941    267182.675 DT     0167 Rx 8  72 80 67 10 00 1A 1C 00 
    942    267192.849 DT     0171 Rx 8  35 61 A0 00 00 00 00 00 
    943    267200.690 DT     0200 Rx 8  00 00 7F 38 81 07 00 00 
    944    267208.680 DT     0202 Rx 8  04 BA 78 00 60 00 06 2D 
    945    267216.687 DT     0204 Rx 8  C0 69 7D 02 F4 00 00 00 
    946    267224.687 DT     0230 Rx 8  31 06 00 00 94 00 00 00 
    947    267232.689 DT     03D4 Rx 8  FF C1 FE FF DF E0 00 00 
    948    267240.688 DT     042F Rx 8  00 00 00 00 00 00 03 1D 
    949    267248.687 DT     0076 Rx 8  40 40 C0 00 0F FF 00 00 
    950    267258.846 DT     0077 Rx 8  06 4A 08 4A 00 08 2E 17 
    951    267266.692 DT     007D Rx 8  00 00 FF 00 00 1F A8 00 
    952    267274.683 DT     0213 Rx 8  FF FF 00 04 01 12 14 40 
    953    267282.687 DT     0214 Rx 8  6F 66 00 00 00 00 2A 00 
    954    267290.681 DT     0216 Rx 8  E9 3B B3 3F 82 00 00 00 
    955    267298.682 DT     0217 Rx 8  04 68 04 7C 04 6A 04 83 
    956    267306.692 DT     0436 Rx 8  20 00 00 00 00 00 00 00 
    957    267314.675 DT     0415 Rx 8  06 48 C0 AE 88 4D 08 4D 
    958    267324.860 DT     0041 Rx 8  00 00 00 00 00 00 00 00 
    959    267332.682 DT     0242 Rx 8  00 57 21 84 E4 00 00 01 
    960    267340.691 DT     03A3 Rx 8  80 00 00 00 00 00 00 00 
    961    267348.681 DT     0082 Rx 8  99 00 14 34 A6 00 40 FF 
    962    267356.682 DT     0085 Rx 8  7E 4F 80 00 18 B0 7C 93 
    963    267364.688 DT     0204 Rx 8  C0 69 7D 02 EE 00 00 00 
    964    267372.697 DT     0047 Rx 8  20 00 00 00 00 00 00 00 
    965    267380.683 DT     0167 Rx 8  72 80 68 10 00 1A 1C 00 
    966    267390.848 DT     0186 Rx 8  14 C3 01 5D 81 F7 00 00 
    967    267398.693 DT     04B0 Rx 8  A1 00 00 00 00 00 00 FF 
    968    267406.679 DT     0217 Rx 8  04 68 04 81 04 72 04 8A 
    969    267414.698 DT     041D Rx 8  00 00 00 00 00 00 00 00 
    970    267422.682 DT     0085 Rx 8  7E 4E 80 00 18 C0 7C 93 
    971    267430.694 DT     03A8 Rx 8  00 00 28 D0 00 00 00 00 
    972    267438.689 DT     0165 Rx 8  50 C0 00 00 00 00 00 00 
    973    267446.681 DT     0167 Rx 8  72 80 67 10 00 1A 1C 00 
    974    267456.860 DT     0200 Rx 8  00 00 7F 3B 81 02 00 00 
    975    267464.683 DT     0202 Rx 8  04 C3 08 00 60 00 06 32 
    976    267472.690 DT     0204 Rx 8  C0 69 7D 02 E8 00 00 00 
    977    267480.692 DT     0230 Rx 8  31 06 00 00 94 00 00 00 
    978    267488.690 DT     0076 Rx 8  40 3C C0 00 0F FF 00 00 
    979    267496.687 DT     0077 Rx 8  06 50 08 4A 00 08 1A 15 
    980    267504.689 DT     0091 Rx 8  7F 1A 80 09 D8 FF F0 00 
    981    267512.694 DT     007D Rx 8  00 00 FE 10 00 20 08 0A 
    982    267525.016 DT     0213 Rx 8  FF FF 00 04 01 12 14 40 
    983    267532.689 DT     0214 Rx 8  6F 66 00 00 00 00 29 10 
    984    267540.686 DT     0216 Rx 8  EE 40 B8 44 82 00 00 00 
    985    267548.682 DT     0217 Rx 8  04 6A 04 86 04 6D 04 7C 
    986    267556.683 DT     0415 Rx 8  06 43 C4 B2 88 4E 08 4E 
    987    267564.693 DT     0416 Rx 8  53 00 FB 04 00 00 0F FF 
    988    267572.703 DT     0041 Rx 8  00 00 00 00 00 00 00 00 
    989    267582.856 DT     0082 Rx 8  98 00 14 38 A6 00 40 FF 
    990    267590.686 DT     0085 Rx 8  7E 4C 80 00 19 D0 7C 93 
    991    267598.702 DT     0333 Rx 8  00 02 00 00 00 00 00 00 
    992    267606.690 DT     0083 Rx 8  00 E0 80 00 00 02 00 00 
    993    267614.694 DT     0204 Rx 8  C0 69 7D 02 E5 00 00 00 
    994    267622.701 DT     0047 Rx 8  20 00 00 00 00 00 00 00 
    995    267630.687 DT     0167 Rx 8  72 80 64 10 00 1A 1D 00 
    996    267638.695 DT     0171 Rx 8  35 61 A0 00 00 00 00 00 
    997    267648.854 DT     0186 Rx 8  14 C3 01 5D 81 F7 00 00 
    998    267656.697 DT     042F Rx 8  00 00 00 00 00 00 03 14 
    999    267664.697 DT     043D Rx 8  00 4E FE 3E 00 00 00 00 
   1000    267672.700 DT     03D4 Rx 8  FF C1 FE FF DF E0 00 00 
   1001    267680.687 DT     043E Rx 8  00 94 10 8B A1 38 A8 DE 
   1002    267688.697 DT     04B0 Rx 8  A1 00 00 00 10 00 00 FE 
   1003    267696.688 DT     0217 Rx 8  04 72 04 83 04 6D 04 8D 
   1004    267704.704 DT     041D Rx 8  00 00 00 00 00 00 00 00 
   1005    267714.866 DT     042C Rx 8  00 00 00 00 3E E0 00 00 
   1006    267722.689 DT     0085 Rx 8  7E 4A 80 00 1A E0 7C 93 
   1007    267730.701 DT     004A Rx 8  02 00 00 00 00 00 00 C0 
   1008    267738.694 DT     004B Rx 8  00 C0 D8 D8 D8 D8 D8 00 
   1009    267746.703 DT     004C Rx 8  20 6F FF 80 00 00 00 00 
   1010    267754.700 DT     03A8 Rx 8  00 00 28 CC 00 00 00 00 
   1011    267762.696 DT     0165 Rx 8  50 C0 00 00 00 00 00 00 
   1012    267770.686 DT     0167 Rx 8  72 80 66 10 00 1A 1D 00 
   1013    267780.869 DT     0200 Rx 8  00 00 7F 3F 80 FD 00 00 
   1014    267788.694 DT     0202 Rx 8  04 BB 18 00 60 00 06 38 
   1015    267796.700 DT     0204 Rx 8  C0 69 7D 02 E1 00 00 00 
   1016    267804.700 DT     0230 Rx 8  31 06 00 00 94 00 00 00 
   1017    267812.700 DT     0076 Rx 8  40 39 C0 00 0F FF 00 00 
   1018    267820.694 DT     0077 Rx 8  06 56 08 4E 00 08 26 1A 
   1019    267828.700 DT     007D Rx 8  00 00 FD 20 00 20 28 0B 
   1020    267836.693 DT     0213 Rx 8  FF FF 00 04 01 12 15 40 
   1021    267846.865 DT     0214 Rx 8  6F 66 00 00 00 00 28 20 
   1022    267854.692 DT     0216 Rx 8  F3 45 BC 49 82 00 00 00 
   1023    267862.692 DT     0217 Rx 8  04 6A 04 81 04 74 04 8D 
   1024    267870.690 DT     0415 Rx 8  06 54 C8 A0 88 4E 08 4E 
   1025    267878.711 DT     0041 Rx 8  00 00 00 00 00 00 00 00 
   1026    267886.696 DT     0242 Rx 8  00 57 21 84 E4 00 00 01 
   1027    267894.699 DT     0332 Rx 8  00 30 A9 92 2E 00 00 00 
   1028    267902.697 DT     0082 Rx 8  97 00 14 38 A6 00 40 FF 
   1029    267912.863 DT     0085 Rx 8  7E 48 80 00 1B F0 7C 93 
   1030    267920.696 DT     0091 Rx 8  7F 1D 80 13 C1 09 F0 00 
   1031    267928.704 DT     0204 Rx 8  C0 69 7D 02 DC 00 00 00 
   1032    267936.709 DT     0047 Rx 8  20 00 00 00 00 00 00 00 
   1033    267944.693 DT     0167 Rx 8  72 80 65 10 00 1A 1D 00 
   1034    267952.697 DT     0186 Rx 8  14 C3 01 5C 81 F7 00 00 
   1035    267960.705 DT     04B0 Rx 8  A1 00 00 00 20 00 00 FD 
   1036    267968.694 DT     0217 Rx 8  04 6A 04 88 04 79 04 86 
   1037    267978.874 DT     041D Rx 8  00 00 00 00 00 00 00 00 
   1038    267986.705 DT     03E2 Rx 8  00 00 08 1B 80 40 00 00 
   1039    267994.713 DT     03EA Rx 8  00 00 00 00 00 00 60 00 
   1040    268002.709 DT     0455 Rx 8  00 00 00 00 00 00 00 00 
   1041    268010.700 DT     0085 Rx 8  7E 46 80 00 2C 00 7C 93 
   1042    268018.690 DT     0092 Rx 8  6F D1 70 04 73 6F 72 0E 
   1043    268026.706 DT     03A8 Rx 8  00 00 28 C9 00 00 00 00 
   1044    268034.702 DT     0165 Rx 8  50 C0 00 00 00 00 00 00 
   1045    268047.025 DT     0167 Rx 8  72 80 64 10 00 1A 1C 00 
   1046    268054.705 DT     0171 Rx 8  35 61 A0 00 00 00 00 00 
   1047    268062.709 DT     0200 Rx 8  00 00 7F 43 80 F8 00 00 
   1048    268070.698 DT     0202 Rx 8  04 B6 28 00 60 00 06 3B 
   1049    268078.704 DT     0204 Rx 8  C0 69 7D 02 D9 00 00 00 
   1050    268086.707 DT     0230 Rx 8  31 06 00 00 94 00 00 00 
   1051    268094.702 DT     03D4 Rx 8  FF C1 FE FF DF E0 00 00 
   1052    268104.871 DT     042F Rx 8  00 00 00 00 00 00 03 0F 
   1053    268112.705 DT     0076 Rx 8  40 35 C0 00 0F FF 00 00 
   1054    268120.700 DT     0077 Rx 8  06 5C 08 54 00 08 2A 1C 
   1055    268128.706 DT     007D Rx 8  00 00 FC 30 00 20 18 06 
   1056    268136.700 DT     0213 Rx 8  FF FF 00 04 01 12 15 40 
   1057    268144.707 DT     0214 Rx 8  6F 66 00 00 00 00 27 30 
   1058    268152.701 DT     0216 Rx 8  F7 49 C1 4D 82 00 00 00 
   1059    268160.697 DT     0217 Rx 8  04 77 04 8A 04 79 04 9A 
   1060    268170.763 DT     0415 Rx 8  06 5F CC 94 88 4D 08 4D 
   1061    268178.616 DT     0041 Rx 8  00 00 00 00 00 00 00 00 
   1062    268186.612 DT     03A3 Rx 8  80 00 00 00 00 00 00 00 
   1063    268194.604 DT     0082 Rx 8  97 00 14 30 A6 00 40 FF 
   1064    268202.601 DT     0085 Rx 8  7E 43 80 00 2E 10 7C 93 
   1065    268210.607 DT     0204 Rx 8  C0 69 7D 02 D5 00 00 00 
   1066    268218.615 DT     0047 Rx 8  20 00 00 00 00 00 00 00 
   1067    268226.602 DT     0167 Rx 8  72 80 60 10 00 1A 1B 00 
   1068    268236.769 DT     0186 Rx 8  14 C3 01 5B 81 F7 00 00 
   1069    268244.594 DT     0091 Rx 8  7F 05 80 2F AE 18 F0 00 
   1070    268252.612 DT     04B0 Rx 8  A1 00 00 00 30 00 00 FC 
   1071    268260.601 DT     0217 Rx 8  04 6A 04 90 04 7E 04 A3 
   1072    268268.617 DT     041D Rx 8  00 00 00 00 00 00 00 00 
   1073    268276.606 DT     0085 Rx 8  7E 40 80 00 30 20 7C 93 
   1074    268284.612 DT     03A8 Rx 8  00 00 28 C5 00 00 00 00 
   1075    268292.614 DT     0456 Rx 8  80 00 00 00 00 00 00 00 
   1076    268302.775 DT     0165 Rx 8  50 C0 00 00 00 00 00 00 
   1077    268310.612 DT     0156 Rx 8  9F 00 00 00 03 00 00 00 
   1078    268318.609 DT     0166 Rx 8  75 00 00 02 80 00 1C 00 
   1079    268326.603 DT     0167 Rx 8  72 80 5D 10 00 1A 1C 00 
   1080    268334.605 DT     0178 Rx 8  00 00 01 EF 0E 8B CA 88 
   1081    268342.606 DT     0179 Rx 8  00 00 00 00 8A 35 0A 51 
   1082    268350.616 DT     0200 Rx 8  00 00 7F 48 80 F2 00 00 
   1083    268358.607 DT     0202 Rx 8  04 AD 38 00 60 00 06 42 
   1084    268368.777 DT     0204 Rx 8  C0 69 7D 02 D0 00 00 00 
   1085    268376.613 DT     0230 Rx 8  31 06 00 00 94 00 00 00 
   1086    268384.609 DT     0421 Rx 8  00 00 50 00 00 00 7A 2A 
   1087    268392.613 DT     0076 Rx 8  40 30 C0 00 0F FF 00 00 
   1088    268400.608 DT     0077 Rx 8  06 62 08 58 00 08 1E 17 
   1089    268408.614 DT     0263 Rx 8  F0 00 FF FF 01 00 00 00 
   1090    268416.619 DT     007D Rx 8  00 00 FB 40 00 1F D7 FF 
   1091    268424.619 DT     037B Rx 8  00 00 08 00 00 00 00 00 
   1092    268434.773 DT     0213 Rx 8  FF FF 00 04 01 12 15 40 
   1093    268442.612 DT     0214 Rx 8  6F 66 00 00 00 00 26 40 
   1094    268450.609 DT     0216 Rx 8  FC 4E C6 52 82 00 00 00 
   1095    268458.605 DT     0217 Rx 8  04 72 04 92 04 79 04 7E 
   1096    268466.622 DT     0424 Rx 8  00 00 00 01 00 00 00 00 
   1097    268474.598 DT     0415 Rx 8  06 4E D0 A4 88 4D 08 4D 
   1098    268482.617 DT     042D Rx 8  00 03 07 00 00 00 F0 00 
   1099    268490.603 DT     0430 Rx 8  03 00 8A 8A 89 05 13 91 
   1100    268500.776 DT     0434 Rx 8  23 E0 14 00 04 F7 00 63 
   1101    268508.606 DT     0435 Rx 8  28 20 15 97 BC 20 09 02 
   1102    268516.619 DT     043D Rx 8  00 49 FC 3E 00 00 00 00 
   1103    268524.624 DT     0041 Rx 8  00 00 00 00 00 00 00 00 
   1104    268532.611 DT     0242 Rx 8  00 57 21 84 E4 00 00 01 
   1105    268540.609 DT     0082 Rx 8  95 00 14 38 A6 00 40 FF 
   1106    268548.607 DT     0085 Rx 8  7E 3D 80 00 32 30 7C 93 
   1107    268556.606 DT     040A Rx 8  C1 02 32 37 30 34 30 FF 
   1108    268568.946 DT     042B Rx 8  CB BE 80 00 00 00 00 00 
   1109    268576.623 DT     042C Rx 8  00 00 00 00 3E E0 00 00 
   1110    268584.611 DT     043E Rx 8  00 94 10 8A A1 38 E0 DD 
   1111    268592.627 DT     0468 Rx 8  00 00 00 00 00 00 00 00 
   1112    268600.623 DT     0469 Rx 8  00 00 00 00 00 00 00 00 
   1113    268608.613 DT     0186 Rx 8  14 C3 01 5B 81 F7 00 00 
   1114    268616.624 DT     0047 Rx 8  20 00 00 00 00 00 00 00 
   1115    268626.774 DT     0167 Rx 8  72 80 5E 10 00 1A 23 00 
   1116    268634.619 DT     0171 Rx 8  35 61 A0 00 00 00 00 00 
   1117    268642.619 DT     0204 Rx 8  C0 69 7D 02 CA 00 00 00 
   1118    268650.623 DT     042F Rx 8  00 00 00 00 00 00 03 03 
   1119    268658.623 DT     03D4 Rx 8  FF C1 FE FF DF E0 00 00 
   1120    268666.595 DT     0217 Rx 8  04 74 04 8D 04 7E 04 9E 
   1121    268674.626 DT     041D Rx 8  00 00 00 00 00 00 00 00 
   1122    268682.620 DT     04B0 Rx 8  A1 00 00 00 40 00 00 FB 
   1123    268692.781 DT     0326 Rx 8  81 A0 25 B5 81 A0 00 00 
   1124    268700.611 DT     0085 Rx 8  7E 3B 80 00 33 40 7C 93 
   1125    268708.608 DT     0091 Rx 8  7E EA 80 35 BA 22 F0 00 
   1126    268716.624 DT     03A8 Rx 8  00 00 28 C0 00 00 00 00 
   1127    268724.620 DT     0165 Rx 8  50 C0 00 00 00 00 00 00 
   1128    268732.612 DT     0167 Rx 8  72 80 70 10 00 1A 25 00 
   1129    268740.626 DT     0200 Rx 8  00 00 7F 4C 80 ED 00 00 
   1130    268748.619 DT     0202 Rx 8  04 A3 48 00 60 00 06 4A 
   1131    268758.785 DT     0204 Rx 8  C0 69 7D 02 C5 00 00 00 
   1132    268766.623 DT     0230 Rx 8  31 06 00 00 94 00 00 00 
   1133    268774.622 DT     0076 Rx 8  40 2A C0 00 0F FF 00 00 
   1134    268782.614 DT     0077 Rx 8  06 67 08 58 00 08 1A 17 
   1135    268790.627 DT     007D Rx 8  00 00 FA 50 00 1F 97 F9 
   1136    268798.616 DT     0213 Rx 8  FF FF 00 04 01 12 15 40 
   1137    268806.616 DT     0214 Rx 8  6F 66 00 00 00 00 25 50 
   1138    268814.621 DT     0216 Rx 8  01 53 CA 57 82 00 00 00 
   1139    268824.779 DT     0217 Rx 8  04 7C 04 8D 04 8D 04 AB 
   1140    268832.612 DT     0415 Rx 8  06 75 D4 7C 88 4D 08 4D 
   1141    268840.628 DT     0436 Rx 8  20 00 00 00 00 00 00 00 
   1142    268848.632 DT     0041 Rx 8  00 00 00 00 00 00 00 00 
   1143    268856.617 DT     0082 Rx 8  96 00 14 3C A6 00 40 FF 
