;$FILEVERSION=2.0
;$STARTTIME=44467.4672237037
;$COLUMNS=N,O,T,I,d,l,D
;
;   Start time: 9/28/2021 11:12:48.128.0
;   Generated by PCAN-View v4.3.4.615
;-------------------------------------------------------------------------------
;   Connection                 Bit rate
;   PCANLight_USB_16@pcan_usb  Nominal 500 kBit/s, Data 2 MBit/s
;-------------------------------------------------------------------------------
;   Message   Time    Type ID     Rx/Tx
;   Number    Offset  |    [hex]  |  Data Length
;   |         [ms]    |    |      |  |  Data [hex] ...
;   |         |       |    |      |  |  |
;---+-- ------+------ +- --+----- +- +- +- +- -- -- -- -- -- -- --
      1         0.129 DT     0121 Rx 8  00 00 00 00 00 00 00 00 
      2         0.375 DT     019D Rx 8  00 00 00 00 00 07 C4 FF 
      3         0.540 DT     01A6 Rx 4  44 06 A0 3C 
      4         0.784 DT     01AF Rx 8  00 00 80 00 00 37 00 FF 
      5         1.021 DT     0137 Rx 8  0C 01 9E 6A 07 05 40 0D 
      6         1.241 DT     01A1 Rx 7  00 20 01 40 44 44 00 
      7         1.355 DT     01A3 Rx 1  80 
      8         1.574 DT     01AA Rx 7  40 5F E6 4E 6C D0 00 
      9         1.802 DT     01BA Rx 8  06 B1 6B 16 40 6B 18 B3 
     10         2.039 DT     01C3 Rx 8  06 B2 06 B1 FF 30 00 01 
     11         2.277 DT     01C4 Rx 8  27 62 C2 47 02 00 07 FF 
     12         2.471 DT     01C5 Rx 6  2C 5B 2C 5B 38 1E 
     13         2.622 DT     01DF Rx 3  85 18 00 
     14         2.856 DT     01E7 Rx 8  60 E6 01 55 40 00 70 DE 
     15         3.086 DT     01ED Rx 8  60 E6 01 55 01 A8 70 DE 
     16         3.317 DT     00C1 Rx 8  D0 06 BD 48 D0 04 ED 4E 
     17         3.549 DT     00C5 Rx 8  50 0E 65 37 D0 21 80 86 
     18         3.772 DT     00D1 Rx 7  40 00 7F FF 00 FF 33 
     19         4.020 DT     01C8 Rx 8  00 00 06 A0 F9 60 00 00 
     20         4.206 DT     01CC Rx 5  00 63 00 40 24 
     21         4.433 DT     01E1 Rx 7  00 00 00 00 00 10 F0 
     22         4.667 DT     01E5 Rx 8  5C 01 D5 30 00 00 01 9E 
     23         4.915 DT     01E9 Rx 8  00 04 00 0E 00 00 00 00 
     24         5.128 DT     01F4 Rx 6  00 00 00 20 00 00 
     25         5.374 DT     01F5 Rx 8  0F 0F 00 01 00 00 08 00 
     26         5.513 DT     01F8 Rx 2  FF FF 
     27         5.753 DT     01FC Rx 8  00 68 00 34 00 00 50 E5 
     28         5.954 DT     0287 Rx 6  00 00 00 08 B3 D9 
     29         6.188 DT     02C3 Rx 8  09 C7 06 B1 00 00 49 10 
     30         6.360 DT     02DA Rx 4  00 00 02 FE 
     31         6.607 DT     03C1 Rx 8  07 65 F7 00 00 00 00 00 
     32         6.769 DT     03C7 Rx 4  18 8A 07 75 
     33         7.007 DT     03D1 Rx 8  01 0E 80 00 20 37 00 7F 
     34         7.252 DT     03D3 Rx 8  00 88 20 00 00 00 4D 00 
     35         7.442 DT     03D9 Rx 5  02 00 00 00 00 
     36         7.695 DT     03E9 Rx 8  00 00 00 00 00 00 00 05 
     37         7.931 DT     03F1 Rx 8  00 9F 5A 28 05 FF 0A 8C 
     38         8.113 DT     04A3 Rx 5  FE 32 10 05 00 
     39         8.352 DT     01C6 Rx 8  00 00 2C 5F 00 C3 4E 81 
     40         8.556 DT     00F1 Rx 6  34 02 00 41 FB FC 
     41         8.744 DT     0210 Rx 5  02 00 01 FF 00 
     42         8.983 DT     04C1 Rx 8  10 C9 77 4D 8C 18 00 00 
     43         9.131 DT     04C7 Rx 3  10 2B 00 
     44         9.356 DT     04C9 Rx 7  40 52 00 00 00 00 00 
     45         9.594 DT     04D1 Rx 8  00 65 4A 02 D6 27 00 00 
     46         9.828 DT     04EB Rx 8  C0 00 D4 5B 00 00 F8 CA 
     47        10.001 DT     00C7 Rx 4  00 00 00 00 
     48        10.251 DT     00F9 Rx 8  00 00 40 00 00 00 00 00 
     49        10.470 DT     04ED Rx 7  A0 22 CC 0E 5F FF 40 
     50        10.634 DT     04EF Rx 4  80 97 F3 AB 
     51        10.864 DT     00AA Rx 8  2C 5B 2D 18 40 52 E8 00 
     52        11.071 DT     00BE Rx 6  0C 01 00 03 E9 FC 
     53        11.311 DT     00C9 Rx 8  84 08 9C 0D 00 10 18 00 
     54        11.440 DT     00D3 Rx 2  2C 5E 
     55        11.686 DT     0139 Rx 8  00 48 00 00 00 00 00 00 
     56        11.920 DT     018E Rx 8  00 00 00 6B 26 B1 06 B1 
     57        12.157 DT     0191 Rx 8  06 B2 06 CD 06 B1 00 00 
     58        12.391 DT     01E7 Rx 8  60 E6 01 55 40 00 70 DE 
     59        12.622 DT     01ED Rx 8  60 E6 01 55 01 A8 70 DE 
     60        12.856 DT     04F1 Rx 8  42 52 02 52 00 7A 00 2B 
     61        13.088 DT     00C1 Rx 8  E0 06 BD 48 E0 04 ED 4E 
     62        13.323 DT     00C5 Rx 8  60 0E 65 37 E0 21 80 86 
     63        13.543 DT     00D1 Rx 7  80 00 BF FE 00 FE 53 
     64        13.760 DT     01C7 Rx 7  06 AE 39 52 00 00 3F 
     65        14.000 DT     01C8 Rx 8  40 00 06 A0 F9 5F 3F FF 
     66        14.238 DT     01E5 Rx 8  5C 01 D5 50 00 00 01 BE 
     67        14.393 DT     01F3 Rx 3  80 A0 00 
     68        14.599 DT     0214 Rx 6  02 00 23 FF 24 1F 
     69        14.711 DT     04F3 Rx 1  68 
     70        14.846 DT     04F4 Rx 2  00 5F 
     71        15.094 DT     04F7 Rx 8  00 00 00 20 00 00 7F FF 
     72        15.323 DT     0589 Rx 8  40 5D A3 D6 A6 60 60 C7 
     73        15.551 DT     0772 Rx 7  00 11 00 00 00 00 00 
     74        17.818 DT     01CE Rx 4  18 00 07 FD 
     75        18.146 DT     0230 Rx 8  00 00 10 00 00 00 1F FF 
     76        18.357 DT     00F1 Rx 6  00 02 00 41 FB FF 
     77        20.001 DT     0121 Rx 8  00 00 00 00 00 00 00 00 
     78        20.132 DT     0124 Rx 2  1E DF 
     79        20.790 DT     032A Rx 8  07 8D F6 83 6C BA 36 2A 
     80        22.132 DT     00C7 Rx 4  00 00 00 00 
     81        22.466 DT     00F9 Rx 8  00 00 40 00 00 00 00 00 
     82        22.695 DT     00AA Rx 8  2C 5B 2D 18 42 52 E7 00 
     83        22.903 DT     00BE Rx 6  00 01 00 03 E9 FF 
     84        23.131 DT     00C1 Rx 8  F0 06 BD 48 F0 04 ED 4E 
     85        23.364 DT     00C5 Rx 8  70 0E 65 37 F0 21 80 86 
     86        23.602 DT     00C9 Rx 8  84 08 8E 00 00 10 18 00 
     87        23.827 DT     00D1 Rx 7  C0 00 FF FD 00 FD 73 
     88        23.955 DT     00D3 Rx 2  2C 5E 
     89        24.178 DT     0189 Rx 7  4F FF 0F FF 30 00 00 
     90        24.412 DT     018E Rx 8  00 00 00 6B 26 B3 06 B3 
     91        24.648 DT     0191 Rx 8  06 B2 06 CD 06 B3 00 00 
     92        24.869 DT     0197 Rx 7  3F FF 25 00 0F 02 7D 
     93        25.113 DT     019D Rx 8  40 00 3F FF 00 07 C5 FF 
     94        25.277 DT     01A6 Rx 4  44 06 A0 39 
     95        25.520 DT     01AF Rx 8  00 00 80 00 00 37 00 FF 
     96        25.740 DT     01A1 Rx 7  00 20 01 40 44 44 00 
     97        25.855 DT     01A3 Rx 1  80 
     98        26.073 DT     01AA Rx 7  60 5F E6 4E 6C D0 00 
     99        26.301 DT     01BA Rx 8  06 B1 6B 16 40 6B 18 B3 
    100        26.540 DT     01C3 Rx 8  06 B2 06 B1 FF 00 00 00 
    101        26.774 DT     01C4 Rx 8  4A 62 C2 47 04 00 05 FE 
    102        26.968 DT     01C5 Rx 6  2C 5B 2C 5B 38 1E 
    103        27.211 DT     01C8 Rx 8  80 00 06 A0 F9 5E 3F FE 
    104        27.393 DT     01CC Rx 5  00 63 00 40 32 
    105        27.540 DT     01CF Rx 3  33 08 05 
    106        27.690 DT     01DF Rx 3  85 18 00 
    107        27.924 DT     01E5 Rx 8  5C 01 D5 70 00 00 01 DE 
    108        28.157 DT     01E7 Rx 8  60 E6 01 54 40 00 70 DE 
    109        28.361 DT     00F1 Rx 6  1C 02 00 41 FB FE 
    110        28.608 DT     01E9 Rx 8  00 00 00 0E 00 01 00 00 
    111        28.838 DT     01ED Rx 8  60 E6 01 54 01 A0 70 DE 
    112        29.082 DT     01F5 Rx 8  0F 0F 00 01 00 00 08 00 
    113        29.221 DT     01F8 Rx 2  FF FF 
    114        29.453 DT     0232 Rx 8  C1 00 A1 08 00 52 00 AA 
    115        29.651 DT     0287 Rx 6  43 00 00 08 B3 D9 
    116        29.874 DT     02F9 Rx 7  B0 00 07 08 0F 00 25 
    117        30.824 DT     0142 Rx 7  00 00 00 00 00 00 00 
    118        31.397 DT     0170 Rx 3  00 00 00 
    119        32.968 DT     00C1 Rx 8  C0 06 BD 48 C0 04 ED 4E 
    120        33.202 DT     00C5 Rx 8  40 0E 65 37 C0 21 80 86 
    121        33.432 DT     00D1 Rx 7  00 00 00 00 00 00 13 
    122        33.673 DT     01C6 Rx 8  00 00 2C 5F 00 03 4E 84 
    123        33.889 DT     01C7 Rx 7  06 AE 79 51 00 00 3F 
    124        34.130 DT     01C8 Rx 8  C0 00 06 A0 F9 5D 3F FD 
    125        34.352 DT     01E1 Rx 7  00 00 00 00 01 14 E0 
    126        34.590 DT     01E5 Rx 8  5C 01 D5 10 01 00 01 7F 
    127        34.743 DT     0149 Rx 3  00 00 00 
    128        34.915 DT     00C7 Rx 4  00 00 00 00 
    129        35.165 DT     00F9 Rx 8  00 00 40 00 00 00 00 00 
    130        35.392 DT     00AA Rx 8  2C 66 2D 1D 44 52 E1 00 
    131        35.598 DT     00BE Rx 6  04 01 00 03 E9 FE 
    132        35.837 DT     00C9 Rx 8  84 08 8C 07 00 10 18 00 
    133        35.965 DT     00D3 Rx 2  2C 5E 
    134        36.199 DT     018E Rx 8  00 00 00 6B 26 B3 06 B3 
    135        36.436 DT     0191 Rx 8  06 B2 06 CD 06 B3 00 00 
    136        36.668 DT     01E7 Rx 8  60 E6 01 54 40 00 70 DE 
    137        36.899 DT     01ED Rx 8  60 E6 01 54 01 A0 70 DE 
    138        37.091 DT     0348 Rx 5  00 00 00 00 00 
    139        37.879 DT     01CE Rx 4  00 00 00 00 
    140        38.092 DT     034A Rx 5  00 00 00 00 00 
    141        38.318 DT     00F1 Rx 6  28 02 00 41 FB FD 
    142        40.005 DT     0121 Rx 8  00 00 00 00 00 00 00 00 
    143        40.625 DT     01F3 Rx 3  C0 E0 00 
    144        42.924 DT     00C1 Rx 8  D0 06 BD 48 D0 04 ED 4E 
    145        43.159 DT     00C5 Rx 8  50 0E 65 37 D0 21 80 86 
    146        43.381 DT     00D1 Rx 7  40 00 7F FF 00 FF 33 
    147        43.638 DT     01C8 Rx 8  00 00 06 A0 F9 60 00 00 
    148        43.824 DT     01CC Rx 5  00 63 00 40 00 
    149        44.058 DT     01E5 Rx 8  5C 01 D5 30 00 00 01 9E 
    150        44.309 DT     01E9 Rx 8  00 00 00 0E 00 01 00 00 
    151        44.551 DT     034C Rx 8  E8 9D 10 01 00 06 00 00 
    152        44.725 DT     0350 Rx 4  00 00 00 00 
    153        47.138 DT     0451 Rx 5  00 00 00 00 5A 
    154        47.413 DT     00AA Rx 8  2C 66 2D 1D 46 52 E0 00 
    155        47.621 DT     00BE Rx 6  08 01 00 03 E9 FD 
    156        47.793 DT     00C7 Rx 4  00 00 00 00 
    157        48.034 DT     00C9 Rx 8  84 08 93 0A 00 10 18 00 
    158        48.162 DT     00D3 Rx 2  2C 5E 
    159        48.366 DT     00F1 Rx 6  34 02 00 41 FB FC 
    160        48.633 DT     00F9 Rx 8  00 00 40 00 00 00 00 00 
    161        48.856 DT     0189 Rx 7  8F FF 0F FF 2F FF 00 
    162        49.091 DT     018E Rx 8  00 00 00 6B 26 B4 06 B4 
    163        49.325 DT     0191 Rx 8  06 B2 06 CD 06 B4 00 00 
    164        49.541 DT     0197 Rx 7  3F FF 49 00 0E 02 BC 
    165        49.790 DT     019D Rx 8  80 00 3F FE 00 07 C0 FF 
    166        49.954 DT     01A6 Rx 4  44 06 A0 36 
    167        50.174 DT     01A1 Rx 7  00 20 01 40 44 44 00 
    168        50.289 DT     01A3 Rx 1  80 
    169        50.507 DT     01AA Rx 7  00 5F E6 4D 6C D0 00 
    170        50.752 DT     01AF Rx 8  00 00 80 00 00 36 00 FF 
    171        50.980 DT     01BA Rx 8  06 B3 6B 36 3F 6B 38 B1 
    172        51.216 DT     01C3 Rx 8  06 B2 06 B3 FF 10 00 03 
    173        51.449 DT     0260 Rx 8  02 BE 4F 00 0C F3 52 64 
    174        51.683 DT     01C4 Rx 8  6D 62 C2 47 06 00 03 FD 
    175        51.875 DT     01C5 Rx 6  2C 64 2C 64 38 14 
    176        52.026 DT     01DF Rx 3  85 18 00 
    177        52.260 DT     01E7 Rx 8  60 E6 01 52 40 00 70 DE 
    178        52.459 DT     0261 Rx 6  07 8D F6 83 02 59 
    179        52.689 DT     01ED Rx 8  60 E6 01 52 01 A0 70 DE 
    180        52.883 DT     0262 Rx 6  6C BA 36 2A 01 D2 
    181        53.126 DT     01F1 Rx 8  A2 12 00 00 08 00 90 7A 
    182        53.338 DT     01F4 Rx 6  00 00 00 20 00 00 
    183        53.583 DT     01F5 Rx 8  0F 0F 00 01 00 00 08 00 
    184        53.721 DT     01F8 Rx 2  FF FF 
    185        53.953 DT     00C1 Rx 8  E0 06 BD 48 E0 04 ED 4E 
    186        54.188 DT     00C5 Rx 8  60 0E 65 37 E0 21 80 86 
    187        54.408 DT     00D1 Rx 7  80 00 BF FE 00 FE 53 
    188        54.627 DT     01C7 Rx 7  06 AE B9 50 00 00 3F 
    189        54.831 DT     0263 Rx 6  00 00 00 00 80 5C 
    190        55.071 DT     01C8 Rx 8  40 00 06 A0 F9 5F 3F FF 
    191        55.314 DT     0264 Rx 8  00 0F 0E 6F 54 0B E1 53 
    192        55.552 DT     01E5 Rx 8  5C 01 D5 50 01 00 01 BF 
    193        55.798 DT     01FC Rx 8  00 9C 00 00 00 00 A0 EF 
    194        56.039 DT     0265 Rx 8  18 00 00 80 0B 03 58 FD 
    195        56.239 DT     0287 Rx 6  82 00 00 08 B1 D9 
    196        56.474 DT     02C3 Rx 8  09 C5 06 B3 00 00 49 10 
    197        56.644 DT     02DA Rx 4  00 00 03 FD 
    198        56.844 DT     03F3 Rx 6  C0 20 37 B8 35 E3 
    199        57.077 DT     03F9 Rx 8  00 08 C9 88 5A 6A FC 53 
    200        57.211 DT     03FB Rx 2  02 19 
    201        57.443 DT     03FC Rx 8  48 2A 44 93 8C 20 93 8C 
    202        58.042 DT     00D0 Rx 8  80 00 80 00 80 00 80 00 
    203        58.274 DT     01C6 Rx 8  00 00 2C 6B 00 43 4E 53 
    204        58.485 DT     00F1 Rx 6  00 02 00 41 FB FF 
    205        58.659 DT     01CE Rx 4  08 00 07 FF 
    206        58.851 DT     0210 Rx 5  04 00 01 FE 00 
    207        59.674 DT     00C7 Rx 4  00 00 00 00 
    208        60.004 DT     0121 Rx 8  00 00 00 00 00 00 00 00 
    209        60.255 DT     00F9 Rx 8  00 00 40 00 00 00 00 00 
    210        60.487 DT     00AA Rx 8  2C 69 2D 1F 40 52 E1 00 
    211        60.693 DT     00BE Rx 6  0C 01 00 03 E9 FC 
    212        60.930 DT     00C9 Rx 8  84 08 94 0D 00 10 18 00 
    213        61.058 DT     00D3 Rx 2  2C 6C 
    214        61.293 DT     018E Rx 8  00 00 00 6B 46 B4 06 B4 
    215        61.529 DT     0191 Rx 8  06 B4 06 CD 06 B4 00 00 
    216        61.751 DT     01E1 Rx 7  00 00 00 00 02 18 D0 
    217        61.986 DT     01E7 Rx 8  60 E6 01 52 40 00 70 DE 
    218        62.216 DT     01ED Rx 8  60 E6 01 52 01 A0 70 DE 
    219        62.983 DT     00C1 Rx 8  F0 06 BD 48 F0 04 ED 4E 
    220        63.215 DT     00C5 Rx 8  70 0E 65 37 F0 21 80 86 
    221        63.439 DT     00D1 Rx 7  C0 00 FF FD 00 FD 73 
    222        63.680 DT     017D Rx 8  22 24 42 FF 00 00 00 14 
    223        63.924 DT     01C8 Rx 8  80 00 06 A0 F9 5E 3F FE 
    224        64.107 DT     01CC Rx 5  00 63 00 40 16 
    225        64.341 DT     01E5 Rx 8  5C 01 D5 70 00 00 01 DE 
    226        64.591 DT     01E9 Rx 8  00 00 00 0E 00 01 00 00 
    227        64.794 DT     0214 Rx 6  04 00 43 FE 48 2A 
    228        65.040 DT     03C9 Rx 8  07 06 00 00 00 00 00 00 
    229        66.295 DT     03CF Rx 2  D8 D8 
    230        68.004 DT     0182 Rx 8  67 79 01 00 00 00 00 00 
    231        68.254 DT     0230 Rx 8  00 00 20 00 00 00 1F FE 
    232        68.458 DT     00F1 Rx 6  1C 02 00 41 FB FE 
    233        70.685 DT     0160 Rx 5  99 81 67 79 03 
    234        72.120 DT     00C7 Rx 4  00 00 00 00 
    235        72.454 DT     00F9 Rx 8  00 00 40 00 00 00 00 00 
    236        72.686 DT     00AA Rx 8  2C 69 2D 1F 42 52 E0 00 
    237        72.895 DT     00BE Rx 6  00 01 00 03 E9 FF 
    238        73.127 DT     00C1 Rx 8  C0 06 BD 48 C0 04 ED 4E 
    239        73.360 DT     00C5 Rx 8  40 0E 65 37 C0 21 80 86 
    240        73.598 DT     00C9 Rx 8  84 08 98 00 00 10 18 00 
    241        73.826 DT     00D1 Rx 7  00 00 00 00 00 00 13 
    242        73.955 DT     00D3 Rx 2  2C 6C 
    243        74.179 DT     0189 Rx 7  CF FF 0F FF 2F FE 00 
    244        74.414 DT     018E Rx 8  00 00 00 6B 46 B3 06 B3 
    245        74.648 DT     0191 Rx 8  06 B4 06 CD 06 B3 00 00 
    246        74.868 DT     0197 Rx 7  3F FF 6D 00 0D 02 FB 
    247        75.107 DT     019D Rx 8  C0 00 3F FD 00 07 B8 FF 
    248        75.327 DT     01A1 Rx 7  00 20 01 40 44 44 00 
    249        75.441 DT     01A3 Rx 1  80 
    250        75.608 DT     01A6 Rx 4  44 06 A0 33 
    251        75.828 DT     01AA Rx 7  20 5F E6 4D 6C D0 00 
    252        76.073 DT     01AF Rx 8  00 00 80 00 00 36 00 FF 
    253        76.302 DT     01BA Rx 8  06 B3 6B 36 3F 6B 38 B1 
    254        76.540 DT     01C3 Rx 8  06 B4 06 B3 FF 20 00 02 
    255        76.783 DT     01C4 Rx 8  00 62 C2 47 00 00 00 00 
    256        76.977 DT     01C5 Rx 6  2C 64 2C 64 38 11 
    257        77.195 DT     01C7 Rx 7  06 B0 F9 4D 00 00 3F 
    258        77.434 DT     01C8 Rx 8  C0 00 06 A0 F9 5D 3F FD 
    259        77.584 DT     01DF Rx 3  85 18 00 
    260        77.823 DT     01E5 Rx 8  5C 01 D5 10 00 00 01 7E 
    261        78.057 DT     01E7 Rx 8  60 E6 01 53 40 00 70 DE 
    262        78.287 DT     01ED Rx 8  60 E6 01 53 01 A0 70 DE 
    263        78.460 DT     01CE Rx 4  10 00 07 FE 
    264        78.616 DT     01F3 Rx 3  00 20 00 
    265        78.860 DT     01F5 Rx 8  0F 0F 00 01 00 00 08 00 
    266        78.999 DT     01F8 Rx 2  FF FF 
    267        79.231 DT     0232 Rx 8  C1 00 A1 08 00 52 00 AA 
    268        79.418 DT     0234 Rx 5  00 40 3D 40 00 
    269        79.620 DT     0287 Rx 6  C1 00 00 08 B1 D9 
    270        79.842 DT     02F9 Rx 7  B8 00 0A 08 16 00 28 
    271        80.091 DT     0121 Rx 8  00 00 00 00 00 00 00 00 
    272        80.805 DT     00F1 Rx 6  28 02 00 41 FB FD 
    273        81.474 DT     03ED Rx 6  00 00 00 00 00 FF 
    274        82.934 DT     00C1 Rx 8  D0 06 BD 48 D0 04 ED 4E 
    275        83.169 DT     00C5 Rx 8  50 0E 65 37 D0 21 80 86 
    276        83.391 DT     00D1 Rx 7  40 00 7F FF 00 FF 33 
    277        83.629 DT     012A Rx 8  10 E2 70 6B 00 00 10 B5 
    278        83.864 DT     01C6 Rx 8  00 00 2C 6B 00 83 4E 52 
    279        84.118 DT     01C8 Rx 8  00 00 06 A0 F9 60 00 00 
    280        84.305 DT     01CC Rx 5  00 63 00 40 24 
    281        84.539 DT     01E5 Rx 8  5C 01 D5 30 00 00 01 9E 
    282        84.711 DT     00C7 Rx 4  00 00 00 00 
    283        84.966 DT     00F9 Rx 8  00 00 40 00 00 00 00 00 
    284        85.192 DT     00AA Rx 8  2C 66 2D 1D 44 52 E1 00 
    285        85.398 DT     00BE Rx 6  04 01 00 03 E9 FE 
    286        85.637 DT     00C9 Rx 8  84 08 9C 07 00 10 18 00 
    287        85.765 DT     00D3 Rx 2  2C 6A 
    288        86.000 DT     018E Rx 8  00 00 00 6B 46 B3 06 B3 
    289        86.234 DT     0191 Rx 8  06 B4 06 CD 06 B3 00 00 
    290        86.468 DT     01E7 Rx 8  60 E6 01 53 40 00 70 DE 
    291        86.713 DT     01E9 Rx 8  00 04 00 0E 00 01 00 00 
    292        86.943 DT     01ED Rx 8  60 E6 01 53 01 A0 70 DE 
    293        87.090 DT     022A Rx 3  8D 88 2A 
    294        87.282 DT     0348 Rx 5  00 00 00 00 00 
    295        87.990 DT     034A Rx 5  00 00 00 00 00 
    296        88.281 DT     00F1 Rx 6  34 02 00 41 FB FC 
    297        90.810 DT     0135 Rx 8  00 00 1C 72 99 15 15 2F 
    298        92.904 DT     00C1 Rx 8  E0 06 BD 48 E0 04 ED 4E 
    299        93.141 DT     00C5 Rx 8  60 0E 65 37 E0 21 80 86 
    300        93.361 DT     00D1 Rx 7  80 00 BF FE 00 FE 53 
    301        93.582 DT     01C7 Rx 7  06 B0 39 50 00 00 3F 
    302        93.826 DT     01C8 Rx 8  40 00 06 A0 F9 5F 3F FF 
    303        94.048 DT     01E1 Rx 7  00 00 00 00 03 1C C0 
    304        94.289 DT     01E5 Rx 8  5C 01 D5 50 00 00 01 BE 
    305        94.535 DT     034C Rx 8  F0 A0 10 01 00 04 00 04 
    306        94.707 DT     0350 Rx 4  00 00 00 38 
    307        97.106 DT     00C7 Rx 4  00 00 00 00 
    308        97.437 DT     00F9 Rx 8  00 00 40 00 00 00 00 00 
    309        97.667 DT     00AA Rx 8  2C 66 2D 1D 46 52 E0 00 
    310        97.876 DT     00BE Rx 6  08 01 00 03 E9 FD 
    311        98.112 DT     00C9 Rx 8  84 08 9E 0A 00 10 18 00 
    312        98.240 DT     00D3 Rx 2  2C 6A 
    313        98.451 DT     00F1 Rx 6  00 02 00 41 FB FF 
    314        98.673 DT     0189 Rx 7  0F FF 0F FF 30 01 00 
    315        98.907 DT     018E Rx 8  00 00 00 6B 46 B2 06 B2 
    316        99.142 DT     0191 Rx 8  06 B4 06 CD 06 B2 00 00 
    317        99.366 DT     0197 Rx 7  3F FF 01 00 00 02 3E 
    318        99.609 DT     019D Rx 8  00 00 00 00 00 07 B8 FF 
    319        99.773 DT     01A6 Rx 4  44 06 A0 3C 
    320       100.021 DT     0121 Rx 8  00 00 00 00 00 00 00 00 
    321       100.266 DT     01AF Rx 8  00 00 80 00 00 36 00 FF 
    322       100.436 DT     01CE Rx 4  18 00 07 FD 
    323       100.656 DT     01A1 Rx 7  00 20 01 40 44 44 00 
    324       100.771 DT     01A3 Rx 1  80 
    325       101.007 DT     0137 Rx 8  0C 01 9E 6A 07 05 40 0D 
    326       101.226 DT     01AA Rx 7  40 5F E6 4D 6C D0 00 
    327       101.454 DT     01BA Rx 8  06 B3 6B 36 3F 6B 38 B1 
    328       101.690 DT     01C3 Rx 8  06 B4 06 B3 FF 30 00 01 
    329       101.927 DT     01C4 Rx 8  27 62 C2 47 02 00 07 FF 
    330       102.119 DT     01C5 Rx 6  2C 64 2C 64 38 14 
    331       102.269 DT     01DF Rx 3  85 18 00 
    332       102.504 DT     01E7 Rx 8  60 E6 01 53 40 00 70 DE 
    333       102.734 DT     01ED Rx 8  60 E6 01 53 01 A0 70 DE 
    334       102.947 DT     01F4 Rx 6  00 00 00 20 00 00 
    335       103.191 DT     01F5 Rx 8  0F 0F 00 01 00 00 08 00 
    336       103.419 DT     00C1 Rx 8  F0 06 BD 48 F0 04 ED 4E 
    337       103.652 DT     00C5 Rx 8  70 0E 65 37 F0 21 80 86 
    338       103.877 DT     00D1 Rx 7  C0 00 FF FD 00 FD 73 
    339       104.120 DT     01C8 Rx 8  80 00 06 A0 F9 5E 3F FE 
    340       104.302 DT     01CC Rx 5  00 63 00 40 32 
    341       104.540 DT     01E5 Rx 8  5C 01 D5 70 01 00 01 DF 
    342       104.785 DT     01E9 Rx 8  00 04 00 0E 00 01 00 00 
    343       104.939 DT     01F3 Rx 3  40 60 00 
    344       105.077 DT     01F8 Rx 2  FF FF 
    345       105.322 DT     01FC Rx 8  00 75 00 34 00 00 F1 06 
    346       105.522 DT     0287 Rx 6  00 00 00 08 B1 D9 
    347       105.757 DT     02C3 Rx 8  09 C5 06 B3 00 00 49 10 
    348       105.933 DT     02DA Rx 4  00 00 00 00 
    349       106.177 DT     03C1 Rx 8  07 65 F7 00 00 00 00 00 
    350       106.338 DT     03C7 Rx 4  28 89 07 75 
    351       106.576 DT     03D1 Rx 8  01 0E 80 00 20 49 00 7F 
    352       106.818 DT     03D3 Rx 8  00 88 20 00 3F FF 4D 47 
    353       107.009 DT     03D9 Rx 5  02 00 00 00 00 
    354       107.259 DT     03E9 Rx 8  00 00 00 00 00 00 00 05 
    355       108.040 DT     01C6 Rx 8  00 00 2C 6B 00 C3 4E 51 
    356       108.228 DT     0210 Rx 5  06 00 01 FD 00 
    357       108.432 DT     00F1 Rx 6  1C 02 00 41 FB FE 
    358       109.745 DT     00C7 Rx 4  00 00 00 00 
    359       110.077 DT     00F9 Rx 8  00 00 40 00 00 00 00 00 
    360       110.656 DT     00AA Rx 8  2C 62 2D 1B 40 52 E5 00 
    361       110.862 DT     00BE Rx 6  0C 01 00 03 E9 FC 
    362       111.113 DT     00C9 Rx 8  84 08 9F 0D 00 10 18 00 
    363       111.241 DT     00D3 Rx 2  2C 65 
    364       111.496 DT     0139 Rx 8  00 48 00 00 00 00 00 00 
    365       111.730 DT     018E Rx 8  00 00 00 6B 36 B2 06 B2 
    366       111.964 DT     0191 Rx 8  06 B3 06 CD 06 B2 00 00 
    367       112.199 DT     01E7 Rx 8  60 E6 01 53 40 00 70 DE 
    368       112.429 DT     01ED Rx 8  60 E6 01 53 01 A0 70 DE 
    369       112.976 DT     00C1 Rx 8  C0 06 BD 48 C0 04 ED 4E 
    370       113.210 DT     00C5 Rx 8  40 0E 65 37 C0 21 80 86 
    371       113.438 DT     00D1 Rx 7  00 00 00 00 00 00 13 
    372       113.661 DT     01C7 Rx 7  06 B0 79 4F 00 00 3F 
    373       113.901 DT     01C8 Rx 8  C0 00 06 A0 F9 5D 3F FD 
    374       114.142 DT     01E5 Rx 8  5C 01 D5 10 00 00 01 7E 
    375       114.342 DT     0214 Rx 6  06 00 63 FD 6C 35 
    376       117.807 DT     01CE Rx 4  00 00 00 00 
    377       118.121 DT     0230 Rx 8  00 00 30 00 00 00 1F FD 
    378       118.324 DT     00F1 Rx 6  28 02 00 41 FB FD 
    379       120.024 DT     0121 Rx 8  00 00 00 00 00 00 00 00 
    380       120.157 DT     0124 Rx 2  1E 22 
    381       120.807 DT     01E1 Rx 7  00 00 00 00 00 10 F0 
    382       122.102 DT     00C7 Rx 4  00 00 00 00 
    383       122.436 DT     00F9 Rx 8  00 00 40 00 00 00 00 00 
    384       122.665 DT     00AA Rx 8  2C 62 2D 1B 42 52 E4 00 
    385       122.873 DT     00BE Rx 6  00 01 00 03 E9 FF 
    386       123.103 DT     00C1 Rx 8  D0 06 BD 48 D0 04 ED 4E 
    387       123.336 DT     00C5 Rx 8  50 0E 65 37 D0 21 80 86 
    388       123.572 DT     00C9 Rx 8  84 08 A3 00 00 10 18 00 
    389       123.794 DT     00D1 Rx 7  40 00 7F FF 00 FF 33 
    390       123.923 DT     00D3 Rx 2  2C 65 
    391       124.145 DT     0189 Rx 7  4F FF 0F FF 30 00 00 
    392       124.380 DT     018E Rx 8  00 00 00 6B 36 B2 06 B2 
    393       124.614 DT     0191 Rx 8  06 B3 06 CD 06 B2 00 00 
    394       124.834 DT     0197 Rx 7  3F FF 25 00 0F 02 7D 
    395       125.075 DT     019D Rx 8  40 00 3F FF 00 07 BE FF 
    396       125.295 DT     01A1 Rx 7  00 20 01 40 44 44 00 
    397       125.409 DT     01A3 Rx 1  80 
    398       125.574 DT     01A6 Rx 4  44 06 A0 39 
    399       125.792 DT     01AA Rx 7  60 5F E6 4E 6C D0 00 
    400       126.037 DT     01AF Rx 8  00 00 80 00 00 36 00 FF 
    401       126.263 DT     01BA Rx 8  06 B2 6B 26 3F 6B 28 B2 
    402       126.501 DT     01C3 Rx 8  06 B3 06 B2 FF 00 00 00 
    403       126.736 DT     01C4 Rx 8  4A 62 C2 47 04 00 05 FE 
    404       126.930 DT     01C5 Rx 6  2C 62 2C 62 38 18 
    405       127.176 DT     01C8 Rx 8  00 00 06 A0 F9 60 00 00 
    406       127.363 DT     01CC Rx 5  00 63 00 40 00 
    407       127.511 DT     01CF Rx 3  03 08 05 
    408       127.662 DT     01DF Rx 3  85 18 00 
    409       127.896 DT     01E5 Rx 8  5C 01 D5 30 00 00 01 9E 
    410       128.130 DT     01E7 Rx 8  60 E6 01 53 40 00 70 DE 
    411       128.375 DT     01E9 Rx 8  00 04 00 0E 00 01 00 00 
    412       128.605 DT     01ED Rx 8  60 E6 01 53 01 A0 70 DE 
    413       128.849 DT     01F5 Rx 8  0F 0F 00 01 00 00 08 00 
    414       128.988 DT     01F8 Rx 2  FF FF 
    415       129.220 DT     0232 Rx 8  C1 00 A1 08 00 52 00 AA 
    416       129.419 DT     0287 Rx 6  43 00 00 08 B2 D9 
    417       129.643 DT     02F9 Rx 7  C0 00 0D 08 1D 00 2F 
    418       129.871 DT     032A Rx 8  07 8D F6 83 6C BA 36 2A 
    419       130.772 DT     00F1 Rx 6  34 02 00 41 FB FC 
    420       131.437 DT     0170 Rx 3  00 00 00 
    421       132.936 DT     00C1 Rx 8  E0 06 BD 48 E0 04 ED 4E 
    422       133.187 DT     00C5 Rx 8  60 0E 65 37 E0 21 80 86 
    423       133.407 DT     00D1 Rx 7  80 00 BF FE 00 FE 53 
    424       133.639 DT     0142 Rx 7  00 00 00 00 00 00 00 
    425       133.874 DT     01C6 Rx 8  00 00 2C 6B 00 03 4E 54 
    426       134.090 DT     01C7 Rx 7  06 B0 B9 4E 00 00 3F 
    427       134.332 DT     01C8 Rx 8  40 00 06 A0 F9 5F 3F FF 
    428       134.565 DT     01E5 Rx 8  5C 01 D5 5F FF 00 02 CC 
    429       134.737 DT     00C7 Rx 4  00 00 00 00 
    430       134.890 DT     0149 Rx 3  00 00 00 
    431       135.140 DT     00F9 Rx 8  00 00 40 00 00 00 00 00 
    432       135.332 DT     0348 Rx 5  00 00 00 00 00 
    433       135.565 DT     00AA Rx 8  2C 5E 2D 19 44 52 E5 00 
    434       135.771 DT     00BE Rx 6  04 01 00 03 E9 FE 
    435       136.027 DT     00C9 Rx 8  84 08 A6 07 00 10 18 00 
    436       136.158 DT     00D3 Rx 2  2C 62 
    437       136.396 DT     018E Rx 8  00 00 00 6B 26 B2 06 B2 
    438       136.637 DT     0191 Rx 8  06 B2 06 CD 06 B2 00 00 
    439       136.869 DT     01E7 Rx 8  60 E6 01 54 40 00 70 DE 
    440       137.099 DT     01ED Rx 8  60 E6 01 54 01 A0 70 DE 
    441       137.254 DT     01F3 Rx 3  80 A0 00 
    442       137.904 DT     01CE Rx 4  08 00 07 FF 
    443       138.119 DT     034A Rx 5  00 00 00 00 00 
    444       138.349 DT     00F1 Rx 6  00 02 00 41 FB FF 
    445       140.024 DT     0121 Rx 8  00 00 00 00 00 00 00 00 
    446       142.927 DT     00C1 Rx 8  F0 06 BD 48 F0 04 ED 4E 
    447       143.163 DT     00C5 Rx 8  70 0E 65 37 F0 21 80 86 
    448       143.387 DT     00D1 Rx 7  C0 00 FF FD 00 FD 73 
    449       143.652 DT     01C8 Rx 8  80 00 06 A0 F9 5E 3F FE 
    450       143.834 DT     01CC Rx 5  00 63 00 40 16 
    451       144.069 DT     01E5 Rx 8  5C 01 D5 70 00 00 01 DE 
    452       144.315 DT     01E9 Rx 8  00 04 00 0E 00 00 00 00 
    453       144.557 DT     034C Rx 8  F8 A1 10 00 00 05 00 04 
    454       144.732 DT     0350 Rx 4  00 00 00 50 
    455       147.106 DT     0451 Rx 5  00 00 00 00 5A 
    456       147.279 DT     00C7 Rx 4  00 00 00 00 
    457       147.549 DT     00AA Rx 8  2C 5E 2D 19 46 52 E4 00 
    458       147.758 DT     00BE Rx 6  08 01 00 03 E9 FD 
    459       148.006 DT     00C9 Rx 8  84 08 A5 0A 00 10 18 00 
    460       148.136 DT     00D3 Rx 2  2C 62 
    461       148.341 DT     00F1 Rx 6  1C 02 00 41 FB FE 
    462       148.607 DT     00F9 Rx 8  00 00 40 00 00 00 00 00 
    463       148.829 DT     0189 Rx 7  8F FF 0F FF 2F FF 00 
    464       149.066 DT     018E Rx 8  00 00 00 6B 26 B2 06 B2 
    465       149.304 DT     0191 Rx 8  06 B2 06 CD 06 B2 00 00 
    466       149.521 DT     0197 Rx 7  3F FF 49 00 0E 02 BC 
    467       149.763 DT     019D Rx 8  80 00 3F FE 00 07 C1 FF 
    468       149.927 DT     01A6 Rx 4  44 06 A0 36 
    469       150.170 DT     01AF Rx 8  00 00 80 00 00 37 00 FF 
    470       150.390 DT     01A1 Rx 7  00 20 01 40 44 44 00 
    471       150.505 DT     01A3 Rx 1  80 
    472       150.723 DT     01AA Rx 7  00 5F E6 4E 6C D0 00 
    473       150.949 DT     01BA Rx 8  06 B2 6B 26 3F 6B 28 B2 
    474       151.184 DT     01C3 Rx 8  06 B2 06 B2 FF 10 00 03 
    475       151.416 DT     0260 Rx 8  12 BE 4F 00 0C F3 52 74 
    476       151.650 DT     01C4 Rx 8  6D 62 C2 47 06 00 03 FD 
    477       151.843 DT     01C5 Rx 6  2C 5E 2C 5E 38 1B 
    478       151.993 DT     01DF Rx 3  85 18 00 
    479       152.216 DT     01E1 Rx 7  00 00 00 00 01 14 E0 
    480       152.448 DT     01E7 Rx 8  60 E6 01 54 40 00 70 DE 
    481       152.646 DT     0261 Rx 6  07 8D F6 83 0A 5A 
    482       152.877 DT     01ED Rx 8  60 E6 01 54 01 A0 70 DE 
    483       153.071 DT     0262 Rx 6  6C BA 36 2A 41 DA 
    484       153.284 DT     01F4 Rx 6  00 00 00 20 00 00 
    485       153.528 DT     01F5 Rx 8  0F 0F 00 01 00 00 08 00 
    486       153.666 DT     01F8 Rx 2  FF FF 
    487       153.899 DT     00C1 Rx 8  C0 06 BD 48 C0 04 ED 4E 
    488       154.131 DT     00C5 Rx 8  40 0E 65 37 C0 21 80 86 
    489       154.360 DT     00D1 Rx 7  00 00 00 00 00 00 13 
    490       154.578 DT     01C7 Rx 7  06 B0 F9 4D 00 00 3F 
    491       154.784 DT     0263 Rx 6  00 00 00 00 A0 60 
    492       155.023 DT     01C8 Rx 8  C0 00 06 A0 F9 5D 3F FD 
    493       155.259 DT     0264 Rx 8  00 0F 0E 6F 54 18 69 51 
    494       155.497 DT     01E5 Rx 8  5C 01 D5 10 00 00 01 7E 
    495       155.740 DT     01F1 Rx 8  A2 12 00 00 08 00 90 7A 
    496       155.990 DT     01FC Rx 8  00 82 00 00 00 00 00 C1 
    497       156.231 DT     0265 Rx 8  1A 00 00 80 0B 03 58 FF 
    498       156.435 DT     0287 Rx 6  82 00 00 08 B2 D9 
    499       156.671 DT     02C3 Rx 8  09 C7 06 B2 00 00 49 10 
    500       156.846 DT     02DA Rx 4  00 00 01 FF 
    501       158.050 DT     00D0 Rx 8  80 00 80 00 80 00 80 00 
    502       158.283 DT     01C6 Rx 8  00 00 2C 6B 00 43 4E 53 
    503       158.485 DT     00F1 Rx 6  28 02 00 41 FB FD 
    504       158.658 DT     01CE Rx 4  10 00 07 FE 
    505       158.851 DT     0210 Rx 5  00 00 00 00 00 
    506       159.679 DT     00C7 Rx 4  00 00 00 00 
    507       160.018 DT     0121 Rx 8  00 00 00 00 00 00 00 00 
    508       160.268 DT     00F9 Rx 8  00 00 40 00 00 00 00 00 
    509       160.497 DT     00AA Rx 8  2C 5E 2D 19 40 52 E7 00 
    510       160.703 DT     00BE Rx 6  0C 01 00 03 E9 FC 
    511       160.937 DT     00C9 Rx 8  84 08 A9 0D 00 10 18 00 
    512       161.066 DT     00D3 Rx 2  2C 61 
    513       161.300 DT     018E Rx 8  00 00 00 6B 26 B1 06 B1 
    514       161.536 DT     0191 Rx 8  06 B2 06 CD 06 B1 00 00 
    515       161.769 DT     01E7 Rx 8  60 E6 01 54 40 00 70 DE 
    516       161.999 DT     01ED Rx 8  60 E6 01 54 01 A0 70 DE 
    517       162.154 DT     01F3 Rx 3  C0 E0 00 
    518       162.986 DT     00C1 Rx 8  D0 06 BD 48 D0 04 ED 4E 
    519       163.220 DT     00C5 Rx 8  50 0E 65 37 D0 21 80 86 
    520       163.443 DT     00D1 Rx 7  40 00 7F FF 00 FF 33 
    521       163.685 DT     017D Rx 8  22 24 42 FF 00 00 00 14 
    522       163.940 DT     01C8 Rx 8  00 00 06 A0 F9 60 00 00 
    523       164.126 DT     01CC Rx 5  00 63 00 40 24 
    524       164.360 DT     01E5 Rx 8  5C 01 D5 30 00 00 01 9E 
    525       164.611 DT     01E9 Rx 8  00 00 00 0E 00 00 00 00 
    526       164.823 DT     0214 Rx 6  00 00 02 00 00 00 
    527       165.070 DT     03C9 Rx 8  07 06 00 00 00 00 00 00 
    528       166.338 DT     03CF Rx 2  E0 E0 
    529       168.011 DT     0182 Rx 8  67 79 01 00 00 00 00 00 
    530       168.269 DT     0230 Rx 8  00 00 00 00 00 00 00 00 
    531       168.474 DT     00F1 Rx 6  34 02 00 41 FB FC 
    532       170.688 DT     0160 Rx 5  99 81 67 79 03 
    533       172.149 DT     00C7 Rx 4  00 00 00 00 
    534       172.429 DT     00AA Rx 8  2C 5D 2D 19 42 52 E6 00 
    535       172.638 DT     00BE Rx 6  00 01 00 03 E9 FF 
    536       172.890 DT     00C9 Rx 8  84 08 B5 00 00 10 18 00 
    537       173.123 DT     00C1 Rx 8  E0 06 BD 48 E0 04 ED 4E 
    538       173.357 DT     00C5 Rx 8  60 0E 65 37 E0 21 80 86 
    539       173.577 DT     00D1 Rx 7  80 00 BF FE 00 FE 53 
    540       173.706 DT     00D3 Rx 2  2C 61 
    541       173.968 DT     00F9 Rx 8  00 00 40 00 00 00 00 00 
    542       174.192 DT     0189 Rx 7  CF FF 0F FF 2F FE 00 
    543       174.427 DT     018E Rx 8  00 00 00 6B 26 B1 06 B1 
    544       174.663 DT     0191 Rx 8  06 B2 06 CD 06 B1 00 00 
    545       174.884 DT     0197 Rx 7  3F FF 6D 00 0D 02 FB 
    546       175.128 DT     019D Rx 8  C0 00 3F FD 00 07 BD FF 
    547       175.348 DT     01A1 Rx 7  00 20 01 40 44 44 00 
    548       175.463 DT     01A3 Rx 1  80 
    549       175.629 DT     01A6 Rx 4  44 06 A0 33 
    550       175.845 DT     01AA Rx 7  20 5F E6 4E 6C D0 00 
    551       176.088 DT     01AF Rx 8  00 00 80 00 00 37 00 FF 
    552       176.316 DT     01BA Rx 8  06 B1 6B 16 3F 6B 18 B2 
    553       176.551 DT     01C3 Rx 8  06 B2 06 B1 FF 20 00 02 
    554       176.793 DT     01C4 Rx 8  00 62 C2 47 00 00 00 00 
    555       176.985 DT     01C5 Rx 6  2C 5D 2C 5D 38 1C 
    556       177.206 DT     01C7 Rx 7  06 B0 39 50 00 00 3F 
    557       177.446 DT     01C8 Rx 8  40 00 06 A0 F9 5F 3F FF 
    558       177.596 DT     01DF Rx 3  85 18 00 
    559       177.829 DT     01E5 Rx 8  5C 01 D5 5F FF 00 02 CC 
    560       178.061 DT     01E7 Rx 8  60 E6 01 54 40 00 70 DE 
    561       178.292 DT     01ED Rx 8  60 E6 01 54 01 A0 70 DE 
    562       178.502 DT     00F1 Rx 6  00 02 00 41 FB FF 
    563       178.672 DT     01CE Rx 4  18 00 07 FD 
    564       178.917 DT     01F5 Rx 8  0F 0F 00 01 00 00 08 00 
    565       179.055 DT     01F8 Rx 2  FF FF 
    566       179.288 DT     0232 Rx 8  C1 00 A1 08 00 52 00 AA 
    567       179.474 DT     0234 Rx 5  00 40 3D 40 00 
    568       179.674 DT     0287 Rx 6  C1 00 00 08 B2 D9 
    569       179.901 DT     02F9 Rx 7  C8 00 00 08 00 00 22 
    570       180.149 DT     0121 Rx 8  00 00 00 00 00 00 00 00 
    571       180.920 DT     012A Rx 8  10 E2 70 6B 00 00 10 85 
    572       182.979 DT     00C1 Rx 8  F0 06 BD 48 F0 04 ED 4E 
    573       183.213 DT     00C5 Rx 8  70 0E 65 37 F0 21 80 86 
    574       183.437 DT     00D1 Rx 7  C0 00 FF FD 00 FD 73 
    575       183.678 DT     01C6 Rx 8  00 00 2C 5F 00 83 4E 82 
    576       183.928 DT     01C8 Rx 8  80 00 06 A0 F9 5E 3F FE 
    577       184.110 DT     01CC Rx 5  00 63 00 40 32 
    578       184.333 DT     01E1 Rx 7  00 00 00 00 02 18 D0 
    579       184.567 DT     01E5 Rx 8  5C 01 D5 70 00 00 01 DE 
    580       184.740 DT     00C7 Rx 4  00 00 00 00 
    581       184.998 DT     00F9 Rx 8  00 00 40 00 00 00 00 00 
    582       185.226 DT     00AA Rx 8  2C 5D 2D 19 44 52 E5 00 
    583       185.433 DT     00BE Rx 6  04 01 00 03 E9 FE 
    584       185.669 DT     00C9 Rx 8  84 08 BD 07 00 10 18 00 
    585       185.797 DT     00D3 Rx 2  2C 61 
    586       186.036 DT     018E Rx 8  00 00 00 6B 26 AF 06 AF 
    587       186.271 DT     0191 Rx 8  06 B2 06 CD 06 AF 00 00 
    588       186.503 DT     01E7 Rx 8  60 E6 01 56 40 00 70 DE 
    589       186.754 DT     01E9 Rx 8  00 00 00 0E 00 00 00 00 
    590       186.982 DT     01ED Rx 8  60 E6 01 56 01 A8 70 DE 
    591       187.127 DT     022A Rx 3  CC BC 35 
    592       187.319 DT     0348 Rx 5  00 00 00 00 00 
    593       187.969 DT     034A Rx 5  00 00 00 00 00 
    594       188.314 DT     00F1 Rx 6  1C 02 00 41 FB FE 
    595       190.781 DT     0135 Rx 8  00 00 1C 72 99 15 15 2F 
    596       192.910 DT     00C1 Rx 8  C0 06 BD 48 C0 04 ED 4E 
    597       193.144 DT     00C5 Rx 8  40 0E 65 37 C0 21 80 86 
    598       193.372 DT     00D1 Rx 7  00 00 00 00 00 00 13 
    599       193.589 DT     01C7 Rx 7  06 AE 79 51 00 00 3F 
    600       193.843 DT     01C8 Rx 8  C0 00 06 A0 F9 5D 3F FD 
    601       194.076 DT     01E5 Rx 8  5C 01 D5 1F FF 00 02 8C 
    602       194.232 DT     01F3 Rx 3  00 20 00 
    603       194.474 DT     034C Rx 8  E0 9A 10 00 00 05 00 00 
    604       194.647 DT     0350 Rx 4  00 00 00 68 
    605       197.132 DT     00C7 Rx 4  00 00 00 00 
    606       197.464 DT     00F9 Rx 8  00 00 40 00 00 00 00 00 
    607       197.692 DT     00AA Rx 8  2C 51 2D 13 46 52 EA 00 
    608       197.901 DT     00BE Rx 6  08 01 00 03 E9 FD 
    609       198.139 DT     00C9 Rx 8  84 08 C6 0A 00 10 18 00 
    610       198.268 DT     00D3 Rx 2  2C 61 
    611       198.470 DT     00F1 Rx 6  28 02 00 41 FB FD 
    612       198.692 DT     0189 Rx 7  0F FF 0F FF 30 01 00 
    613       198.931 DT     018E Rx 8  00 00 00 6B 26 AF 06 AF 
    614       199.165 DT     0191 Rx 8  06 B2 06 CD 06 AF 00 00 
    615       199.389 DT     0197 Rx 7  3F FF 01 00 00 02 3E 
    616       199.638 DT     019D Rx 8  00 00 00 00 00 07 C5 FF 
    617       199.802 DT     01A6 Rx 4  44 06 A0 3C 
    618       200.050 DT     0121 Rx 8  00 00 00 00 00 00 00 00 
    619       200.297 DT     01AF Rx 8  00 00 80 00 00 38 00 FF 
    620       200.517 DT     01A1 Rx 7  00 20 01 40 44 44 00 
    621       200.632 DT     01A3 Rx 1  80 
    622       200.848 DT     01AA Rx 7  40 5F D6 4F 6C D0 00 
    623       201.084 DT     0137 Rx 8  0C 01 9E 6A 07 05 40 0D 
    624       201.313 DT     01BA Rx 8  06 AF 6A F6 40 6A F8 B4 
    625       201.553 DT     01C3 Rx 8  06 B2 06 AF FF 30 00 01 
    626       201.790 DT     01C4 Rx 8  27 62 C2 47 02 00 07 FF 
    627       201.982 DT     01C5 Rx 6  2C 51 2C 51 38 26 
    628       202.156 DT     01CE Rx 4  00 00 00 00 
    629       202.307 DT     01DF Rx 3  85 18 00 
    630       202.539 DT     01E7 Rx 8  60 E6 01 56 40 00 70 DE 
    631       202.767 DT     01ED Rx 8  60 E6 01 56 01 A8 70 DE 
    632       202.980 DT     01F4 Rx 6  00 00 00 20 00 00 
    633       203.226 DT     01F5 Rx 8  0F 0F 00 01 00 00 08 00 
    634       203.457 DT     00C1 Rx 8  D0 06 BD 48 D0 04 ED 4E 
    635       203.689 DT     00C5 Rx 8  50 0E 65 37 D0 21 80 86 
    636       203.911 DT     00D1 Rx 7  40 00 7F FF 00 FF 33 
    637       204.158 DT     01C8 Rx 8  00 00 06 A0 F9 60 00 00 
    638       204.344 DT     01CC Rx 5  00 63 00 40 00 
    639       204.578 DT     01E5 Rx 8  5C 01 D5 30 00 00 01 9E 
    640       204.827 DT     01E9 Rx 8  00 04 00 0E 00 00 00 00 
    641       204.965 DT     01F8 Rx 2  FF FF 
    642       205.212 DT     01FC Rx 8  00 82 00 34 00 00 50 FF 
    643       205.412 DT     0287 Rx 6  00 00 00 08 B4 D9 
    644       205.644 DT     02C3 Rx 8  09 C9 06 AF 00 00 49 10 
    645       205.817 DT     02DA Rx 4  00 00 02 FE 
    646       206.061 DT     03C1 Rx 8  07 65 F7 00 00 00 00 00 
    647       206.221 DT     03C7 Rx 4  38 89 07 74 
    648       206.466 DT     03D1 Rx 8  01 0E 80 00 20 4A 00 7F 
    649       206.702 DT     03D3 Rx 8  00 88 20 00 5F FE 4D 86 
    650       206.893 DT     03D9 Rx 5  02 00 00 00 00 
    651       207.145 DT     03E9 Rx 8  00 00 00 00 00 00 00 05 
    652       208.050 DT     01C6 Rx 8  00 00 2C 54 00 C3 4E AD 
    653       208.238 DT     0210 Rx 5  02 00 01 FF 00 
    654       208.442 DT     00F1 Rx 6  34 02 00 41 FB FC 
    655       209.711 DT     00C7 Rx 4  00 00 00 00 
    656       210.043 DT     00F9 Rx 8  00 00 40 00 00 00 00 00 
    657       210.274 DT     00AA Rx 8  2C 51 2D 13 40 52 ED 00 
    658       210.480 DT     00BE Rx 6  0C 01 00 03 E9 FC 
    659       210.716 DT     00C9 Rx 8  84 08 D3 0D 00 10 18 00 
    660       210.845 DT     00D3 Rx 2  2C 61 
    661       211.091 DT     0139 Rx 8  00 48 00 00 00 00 00 00 
    662       211.328 DT     018E Rx 8  00 00 00 6B 26 AE 06 AE 
    663       211.562 DT     0191 Rx 8  06 B2 06 CD 06 AE 00 00 
    664       211.794 DT     01E7 Rx 8  60 E6 01 59 40 00 70 DE 
    665       212.023 DT     01ED Rx 8  60 E6 01 59 01 A8 70 DE 
    666       212.977 DT     00C1 Rx 8  E0 06 BD 48 E0 04 ED 4E 
    667       213.214 DT     00C5 Rx 8  60 0E 65 37 E0 21 80 86 
    668       213.434 DT     00D1 Rx 7  80 00 BF FE 00 FE 53 
    669       213.655 DT     01C7 Rx 7  06 AC B9 52 00 00 3F 
    670       213.900 DT     01C8 Rx 8  40 00 06 A0 F9 5F 3F FF 
    671       214.122 DT     01E1 Rx 7  00 00 00 00 03 1C C0 
    672       214.363 DT     01E5 Rx 8  5C 01 D5 50 00 00 01 BE 
    673       214.569 DT     0214 Rx 6  02 00 23 FF 24 1F 
    674       217.814 DT     01CE Rx 4  08 00 07 FF 
    675       218.138 DT     0230 Rx 8  00 00 10 00 00 00 1F FF 
    676       218.349 DT     00F1 Rx 6  00 02 00 41 FB FF 
    677       220.035 DT     0121 Rx 8  00 00 00 00 00 00 00 00 
    678       220.168 DT     0124 Rx 2  1E 61 
    679       220.634 DT     01F3 Rx 3  40 60 00 
    680       222.103 DT     00C7 Rx 4  00 00 00 00 
    681       222.437 DT     00F9 Rx 8  00 00 40 00 00 00 00 00 
    682       222.664 DT     00AA Rx 8  2C 46 2D 0E 42 52 F1 00 
    683       222.872 DT     00BE Rx 6  00 01 00 03 E9 FF 
    684       223.100 DT     00C1 Rx 8  F0 06 BD 48 F0 04 ED 4E 
    685       223.333 DT     00C5 Rx 8  70 0E 65 37 F0 21 80 86 
    686       223.573 DT     00C9 Rx 8  84 08 CF 00 00 10 18 00 
    687       223.798 DT     00D1 Rx 7  C0 00 FF FD 00 FD 73 
    688       223.926 DT     00D3 Rx 2  2C 55 
    689       224.148 DT     0189 Rx 7  4F FF 0F FF 30 00 00 
    690       224.385 DT     018E Rx 8  00 00 00 6B 06 AE 06 AE 
    691       224.621 DT     0191 Rx 8  06 B0 06 CD 06 AE 00 00 
    692       224.841 DT     0197 Rx 7  3F FF 25 00 0F 02 7D 
    693       225.086 DT     019D Rx 8  40 00 3F FF 00 07 C1 FF 
    694       225.306 DT     01A1 Rx 7  00 20 01 40 44 44 00 
    695       225.421 DT     01A3 Rx 1  80 
    696       225.585 DT     01A6 Rx 4  44 06 A0 39 
    697       225.801 DT     01AA Rx 7  60 5F D6 4F 6C D0 00 
    698       226.046 DT     01AF Rx 8  00 00 80 00 00 3A 00 FF 
    699       226.274 DT     01BA Rx 8  06 AE 6A E6 40 6A E8 B6 
    700       226.512 DT     01C3 Rx 8  06 B0 06 AE FF 00 00 00 
    701       226.747 DT     01C4 Rx 8  4A 62 C2 47 04 00 05 FE 
    702       226.941 DT     01C5 Rx 6  2C 46 2C 46 38 2F 
    703       227.184 DT     01C8 Rx 8  80 00 06 A0 F9 5E 3F FE 
    704       227.366 DT     01CC Rx 5  00 63 00 40 16 
    705       227.512 DT     01CF Rx 3  13 08 05 
    706       227.663 DT     01DF Rx 3  85 18 00 
    707       227.897 DT     01E5 Rx 8  5C 01 D5 70 00 00 01 DE 
    708       228.129 DT     01E7 Rx 8  60 E6 01 59 40 00 70 DE 
    709       228.376 DT     01E9 Rx 8  00 04 00 0E 00 00 00 00 
    710       228.604 DT     01ED Rx 8  60 E6 01 59 01 A8 70 DE 
    711       228.849 DT     01F5 Rx 8  0F 0F 00 01 00 00 08 00 
    712       228.987 DT     01F8 Rx 2  FF FF 
    713       229.219 DT     0232 Rx 8  C1 00 A1 08 00 52 00 AA 
    714       229.418 DT     0287 Rx 6  43 00 00 08 B6 D9 
    715       229.640 DT     02F9 Rx 7  D0 00 07 08 0F 00 25 
    716       229.868 DT     032A Rx 8  07 8D F6 83 6C BA 36 2A 
    717       230.079 DT     03F5 Rx 6  00 00 00 00 00 00 
    718       230.773 DT     00F1 Rx 6  1C 02 00 41 FB FE 
    719       231.426 DT     0170 Rx 3  00 00 00 
    720       232.943 DT     00C1 Rx 8  C0 06 BD 48 C0 04 ED 4E 
    721       233.177 DT     00C5 Rx 8  40 0E 65 37 C0 21 80 86 
    722       233.405 DT     00D1 Rx 7  00 00 00 00 00 00 13 
    723       233.638 DT     0142 Rx 7  00 00 00 00 00 00 00 
    724       233.874 DT     01C6 Rx 8  00 00 2C 54 00 03 4E B0 
    725       234.092 DT     01C7 Rx 7  06 AC F9 51 00 00 3F 
    726       234.333 DT     01C8 Rx 8  C0 00 06 A0 F9 5D 3F FD 
    727       234.573 DT     01E5 Rx 8  5C 01 D5 10 02 00 01 80 
    728       234.725 DT     0149 Rx 3  00 00 00 
    729       234.898 DT     00C7 Rx 4  00 00 00 00 
    730       235.148 DT     00F9 Rx 8  00 00 40 00 00 00 00 00 
    731       235.379 DT     00AA Rx 8  2C 46 2D 0E 44 52 F0 00 
    732       235.585 DT     00BE Rx 6  04 01 00 03 E9 FE 
    733       235.825 DT     00C9 Rx 8  84 08 CB 07 00 10 18 00 
    734       235.954 DT     00D3 Rx 2  2C 55 
    735       236.190 DT     018E Rx 8  00 00 00 6B 06 AD 06 AD 
    736       236.431 DT     0191 Rx 8  06 B0 06 CD 06 AD 00 00 
    737       236.665 DT     01E7 Rx 8  60 E6 01 57 40 00 70 DE 
    738       236.893 DT     01ED Rx 8  60 E6 01 57 01 A8 70 DE 
    739       237.086 DT     0348 Rx 5  00 00 00 00 00 
    740       237.912 DT     01CE Rx 4  10 00 07 FE 
    741       238.111 DT     0237 Rx 5  AA 9A 00 00 00 
    742       238.335 DT     00F1 Rx 6  28 02 00 41 FB FD 
    743       238.527 DT     034A Rx 5  00 00 00 00 00 
    744       240.036 DT     0121 Rx 8  00 00 00 00 00 00 00 00 
    745       240.829 DT     01E1 Rx 7  00 00 00 00 00 10 F0 
    746       242.942 DT     00C1 Rx 8  D0 06 BD 48 D0 04 ED 4E 
    747       243.193 DT     00C5 Rx 8  50 0E 65 37 D0 21 80 86 
    748       243.415 DT     00D1 Rx 7  40 00 7F FF 00 FF 33 
    749       243.664 DT     01C8 Rx 8  00 00 06 A0 F9 60 00 00 
    750       243.850 DT     01CC Rx 5  00 63 00 40 24 
    751       244.084 DT     01E5 Rx 8  5C 01 D5 30 00 00 01 9E 
    752       244.331 DT     01E9 Rx 8  00 04 00 0E 00 00 00 00 
    753       244.483 DT     0239 Rx 3  00 00 00 
    754       244.723 DT     034C Rx 8  E8 9F 10 00 00 05 00 04 
    755       244.898 DT     0350 Rx 4  00 00 00 00 
    756       245.054 DT     04F9 Rx 3  00 00 00 
    757       245.227 DT     04FF Rx 4  7C 00 00 00 
    758       247.121 DT     00C7 Rx 4  00 00 00 00 
    759       247.454 DT     00F9 Rx 8  00 00 40 00 00 00 00 00 
    760       247.682 DT     00AA Rx 8  2C 45 2D 0D 46 52 F0 00 
    761       247.891 DT     00BE Rx 6  08 01 00 03 E9 FD 
    762       248.129 DT     00C9 Rx 8  84 08 CE 0A 00 10 18 00 
    763       248.259 DT     00D3 Rx 2  2C 48 
    764       248.464 DT     00F1 Rx 6  34 02 00 41 FB FC 
    765       248.686 DT     0189 Rx 7  8F FF 0F FF 2F FF 00 
    766       248.920 DT     018E Rx 8  00 00 00 6A E6 AD 06 AD 
    767       249.155 DT     0191 Rx 8  06 AE 06 CD 06 AD 00 00 
    768       249.371 DT     0197 Rx 7  3F FF 49 00 0E 02 BC 
    769       249.614 DT     019D Rx 8  80 00 3F FE 00 07 CF FF 
    770       249.778 DT     01A6 Rx 4  44 06 A0 36 
    771       250.020 DT     01AF Rx 8  00 00 80 00 00 3B 00 FF 
    772       250.241 DT     01A1 Rx 7  00 20 01 40 44 44 00 
    773       250.355 DT     01A3 Rx 1  80 
    774       250.571 DT     01AA Rx 7  00 5F D6 4F 6C D0 00 
    775       250.798 DT     01BA Rx 8  06 AD 6A D6 40 6A D8 B6 
    776       250.988 DT     0120 Rx 5  00 00 0C 01 00 
    777       251.226 DT     01C3 Rx 8  06 AE 06 AD FF 10 00 03 
    778       251.461 DT     0260 Rx 8  22 BE 4F 00 0C F3 52 84 
    779       251.695 DT     01C4 Rx 8  6D 62 C2 47 06 00 03 FD 
    780       251.888 DT     01C5 Rx 6  2C 45 2C 45 38 2F 
    781       252.038 DT     01DF Rx 3  85 18 00 
    782       252.272 DT     01E7 Rx 8  60 E6 01 57 40 00 70 DE 
    783       252.471 DT     0261 Rx 6  07 8D F6 83 12 5B 
    784       252.699 DT     01ED Rx 8  60 E6 01 57 01 A8 70 DE 
    785       252.894 DT     0262 Rx 6  6C BA 36 2A 81 E2 
    786       253.106 DT     01F4 Rx 6  00 00 00 20 00 00 
    787       253.350 DT     01F5 Rx 8  0F 0F 00 01 00 00 08 00 
    788       253.489 DT     01F8 Rx 2  FF FF 
    789       253.729 DT     01FC Rx 8  00 9C 00 34 00 00 A1 23 
    790       253.961 DT     00C1 Rx 8  E0 06 BD 48 E0 04 ED 4E 
    791       254.166 DT     0263 Rx 6  00 00 00 00 C0 64 
    792       254.400 DT     00C5 Rx 8  60 0E 65 37 E0 21 80 86 
    793       254.621 DT     00D1 Rx 7  80 00 BF FE 00 FE 53 
    794       254.855 DT     0264 Rx 8  00 0F 0E 6F 54 25 11 53 
    795       255.075 DT     01C7 Rx 7  06 AC 39 54 00 00 3F 
    796       255.316 DT     01C8 Rx 8  40 00 06 A0 F9 5F 3F FF 
    797       255.554 DT     0265 Rx 8  1C 00 00 80 0B 03 59 01 
    798       255.790 DT     01E5 Rx 8  5C 01 D5 50 02 00 01 C0 
    799       256.033 DT     01F1 Rx 8  A2 12 00 00 08 00 90 7A 
    800       256.187 DT     01F3 Rx 3  80 A0 00 
    801       256.390 DT     0287 Rx 6  82 00 00 08 B6 D9 
    802       256.624 DT     02C3 Rx 8  09 CC 06 AD 00 00 49 10 
    803       256.794 DT     02DA Rx 4  00 00 03 FD 
    804       256.983 DT     0451 Rx 5  00 00 00 00 5A 
    805       258.079 DT     00D0 Rx 8  80 00 80 00 80 00 80 00 
    806       258.290 DT     00F1 Rx 6  00 02 00 41 FB FF 
    807       258.526 DT     01C6 Rx 8  00 00 2C 48 00 43 4E DF 
    808       258.696 DT     01CE Rx 4  18 00 07 FD 
    809       258.889 DT     0210 Rx 5  04 00 01 FE 00 
    810       259.693 DT     00C7 Rx 4  00 00 00 00 
    811       260.038 DT     0121 Rx 8  00 00 00 00 00 00 00 00 
    812       260.288 DT     00F9 Rx 8  00 00 40 00 00 00 00 00 
    813       260.516 DT     00AA Rx 8  2C 45 2D 0D 40 52 F3 00 
    814       260.723 DT     00BE Rx 6  0C 01 00 03 E9 FC 
    815       260.963 DT     00C9 Rx 8  84 08 CA 0D 00 10 18 00 
    816       261.093 DT     00D3 Rx 2  2C 48 
    817       261.246 DT     0130 Rx 3  02 00 00 
    818       261.480 DT     018E Rx 8  00 00 00 6A E6 AD 06 AD 
    819       261.715 DT     0191 Rx 8  06 AE 06 CD 06 AD 00 00 
    820       261.947 DT     01E7 Rx 8  60 E6 01 56 40 00 70 DE 
    821       262.175 DT     01ED Rx 8  60 E6 01 56 01 A8 70 DE 
    822       262.984 DT     00C1 Rx 8  F0 06 BD 48 F0 04 ED 4E 
    823       263.220 DT     00C5 Rx 8  70 0E 65 37 F0 21 80 86 
    824       263.445 DT     00D1 Rx 7  C0 00 FF FD 00 FD 73 
    825       263.689 DT     017D Rx 8  22 24 42 FF 00 00 00 14 
    826       263.935 DT     01C8 Rx 8  80 00 06 A0 F9 5E 3F FE 
    827       264.118 DT     01CC Rx 5  00 63 00 40 32 
    828       264.352 DT     01E5 Rx 8  5C 01 D5 70 00 00 01 DE 
    829       264.601 DT     01E9 Rx 8  00 04 00 0E 00 01 00 00 
    830       264.803 DT     0214 Rx 6  04 00 43 FE 48 2A 
    831       265.049 DT     03C9 Rx 8  07 06 00 00 00 00 00 00 
    832       265.860 DT     03F1 Rx 8  00 9F 5A 28 05 FF 0A 8C 
    833       266.376 DT     03CF Rx 2  E8 E8 
    834       266.603 DT     04D4 Rx 8  22 35 22 31 22 35 22 35 
    835       268.037 DT     0182 Rx 8  67 79 01 00 00 00 00 00 
    836       268.288 DT     0230 Rx 8  00 00 20 00 00 00 1F FE 
    837       268.492 DT     00F1 Rx 6  1C 02 00 41 FB FE 
    838       270.702 DT     0140 Rx 4  00 02 52 00 
    839       272.127 DT     00C7 Rx 4  00 00 00 00 
    840       272.461 DT     00F9 Rx 8  00 00 40 00 00 00 00 00 
    841       272.689 DT     00AA Rx 8  2C 46 2D 0D 42 52 F2 00 
    842       272.898 DT     00BE Rx 6  00 01 00 03 E9 FF 
    843       273.130 DT     00C1 Rx 8  C0 06 BD 48 C0 04 ED 4E 
    844       273.362 DT     00C5 Rx 8  40 0E 65 37 C0 21 80 86 
    845       273.601 DT     00C9 Rx 8  84 08 C8 00 00 10 18 00 
    846       273.829 DT     00D1 Rx 7  00 00 00 00 00 00 13 
    847       273.957 DT     00D3 Rx 2  2C 49 
    848       274.138 DT     0160 Rx 5  99 81 67 79 03 
    849       274.362 DT     0189 Rx 7  CF FF 0F FF 2F FE 00 
    850       274.597 DT     018E Rx 8  00 00 00 6A E6 AD 06 AD 
    851       274.833 DT     0191 Rx 8  06 AE 06 CC 06 AD 00 00 
    852       275.053 DT     0197 Rx 7  3F FF 6D 00 0D 02 FB 
    853       275.296 DT     019D Rx 8  C0 00 3F FD 00 07 D6 FF 
    854       275.516 DT     01A1 Rx 7  00 20 01 40 44 44 00 
    855       275.631 DT     01A3 Rx 1  80 
    856       275.797 DT     01A6 Rx 4  44 06 A0 33 
    857       276.015 DT     01AA Rx 7  20 5F D6 4F 6C C0 00 
    858       276.264 DT     01AF Rx 8  00 00 80 00 00 3C 00 FF 
    859       276.492 DT     01BA Rx 8  06 AD 6A D6 3F 6A D8 B6 
    860       276.728 DT     01C3 Rx 8  06 AE 06 AD FF 20 00 02 
    861       276.971 DT     01C4 Rx 8  00 62 C2 47 00 00 00 00 
    862       277.165 DT     01C5 Rx 6  2C 46 2C 46 38 2F 
    863       277.382 DT     01C7 Rx 7  06 AA 79 55 00 00 3F 
    864       277.620 DT     01C8 Rx 8  C0 00 06 A0 F9 5D 3F FD 
    865       277.770 DT     01DF Rx 3  85 18 00 
    866       277.993 DT     01E1 Rx 7  00 00 00 00 01 14 E0 
    867       278.231 DT     01E5 Rx 8  5C 01 D5 10 00 00 01 7E 
    868       278.434 DT     00F1 Rx 6  28 02 00 41 FB FD 
    869       278.608 DT     01CE Rx 4  00 00 00 00 
    870       278.840 DT     01E7 Rx 8  60 E6 01 56 40 00 70 DE 
    871       279.069 DT     01ED Rx 8  60 E6 01 56 01 A8 70 DE 
    872       279.313 DT     01F5 Rx 8  0F 0F 00 01 00 00 08 00 
    873       279.451 DT     01F8 Rx 2  FF FF 
    874       279.684 DT     0232 Rx 8  C1 00 A1 08 00 52 00 AA 
    875       279.870 DT     0234 Rx 5  00 40 3D 40 00 
    876       280.073 DT     0287 Rx 6  C1 00 00 08 B6 D9 
    877       280.321 DT     0121 Rx 8  00 00 00 00 00 00 00 00 
    878       280.545 DT     02F9 Rx 7  D8 00 0A 08 16 00 28 
    879       280.924 DT     012A Rx 8  10 E2 70 6B 00 00 10 95 
    880       282.988 DT     00C1 Rx 8  D0 06 BD 48 D0 04 ED 4E 
    881       283.223 DT     00C5 Rx 8  50 0E 65 37 D0 21 80 86 
    882       283.445 DT     00D1 Rx 7  40 00 7F FF 00 FF 33 
    883       283.684 DT     01C6 Rx 8  00 00 2C 48 00 83 4E DE 
    884       283.940 DT     01C8 Rx 8  00 00 06 A0 F9 60 00 00 
    885       284.126 DT     01CC Rx 5  00 63 00 40 00 
    886       284.361 DT     01E5 Rx 8  5C 01 D5 3F FF 00 02 AC 
    887       284.609 DT     01E9 Rx 8  00 04 00 0E 00 00 00 00 
    888       284.781 DT     00C7 Rx 4  00 00 00 00 
    889       285.034 DT     00F9 Rx 8  00 00 40 00 00 00 00 00 
    890       285.264 DT     00AA Rx 8  2C 46 2D 0D 44 52 F1 00 
    891       285.471 DT     00BE Rx 6  04 01 00 03 E9 FE 
    892       285.707 DT     00C9 Rx 8  84 08 C8 07 00 10 18 00 
    893       285.835 DT     00D3 Rx 2  2C 49 
    894       286.072 DT     018E Rx 8  00 00 00 6A E6 AE 06 AE 
    895       286.308 DT     0191 Rx 8  06 AE 06 CC 06 AE 00 00 
    896       286.542 DT     01E7 Rx 8  60 E6 01 55 40 00 70 DE 
    897       286.773 DT     01ED Rx 8  60 E6 01 55 01 A8 70 DE 
    898       286.927 DT     01F3 Rx 3  C0 E0 00 
    899       287.080 DT     022A Rx 3  0F A0 00 
    900       287.272 DT     0348 Rx 5  00 00 00 00 00 
    901       287.976 DT     034A Rx 5  00 00 00 00 00 
    902       288.319 DT     00F1 Rx 6  34 02 00 41 FB FC 
    903       290.792 DT     0135 Rx 8  00 00 1C 72 99 15 15 30 
    904       292.916 DT     00C1 Rx 8  E0 06 BD 48 E0 04 ED 4E 
    905       293.153 DT     00C5 Rx 8  60 0E 65 37 E0 21 80 86 
    906       293.373 DT     00D1 Rx 7  80 00 BF FE 00 FE 53 
    907       293.593 DT     01C7 Rx 7  06 AA B9 54 00 00 3F 
    908       293.844 DT     01C8 Rx 8  40 00 06 A0 F9 5F 3F FF 
    909       294.082 DT     01E5 Rx 8  5C 01 D5 50 00 00 01 BE 
    910       294.325 DT     034C Rx 8  F0 9C 10 00 00 05 00 00 
    911       294.497 DT     0350 Rx 4  00 00 00 38 
    912       294.685 DT     04C5 Rx 5  02 00 00 00 00 
    913       295.790 DT     04E9 Rx 6  E1 00 01 85 6C 00 
    914       297.115 DT     00C7 Rx 4  00 00 00 00 
    915       297.444 DT     00F9 Rx 8  00 00 40 00 00 00 00 00 
    916       297.896 DT     01CE Rx 4  08 00 07 FF 
    917       298.181 DT     00AA Rx 8  2C 48 2D 0E 46 52 EF 00 
    918       298.389 DT     00BE Rx 6  08 01 00 03 E9 FD 
    919       298.637 DT     00C9 Rx 8  84 08 C8 0A 00 10 18 00 
    920       298.768 DT     00D3 Rx 2  2C 4A 
    921       298.978 DT     00F1 Rx 6  00 02 00 41 FB FF 
    922       299.200 DT     0189 Rx 7  0F FF 0F FF 30 01 00 
    923       299.437 DT     018E Rx 8  00 00 00 6A E6 AE 06 AE 
    924       299.673 DT     0191 Rx 8  06 AE 06 CC 06 AE 00 00 
    925       299.898 DT     0197 Rx 7  3F FF 01 00 00 02 3E 
    926       300.146 DT     0121 Rx 8  00 00 00 00 00 00 00 00 
    927       300.392 DT     019D Rx 8  00 00 00 00 00 07 DB FF 
    928       300.557 DT     01A6 Rx 4  44 06 A0 3C 
    929       300.777 DT     01A1 Rx 7  00 20 01 40 44 44 00 
    930       301.013 DT     0137 Rx 8  0C 01 9E 6A 07 05 40 0D 
    931       301.128 DT     01A3 Rx 1  80 
    932       301.348 DT     01AA Rx 7  40 5F D6 4F 6C C0 00 
    933       301.603 DT     01AF Rx 8  00 00 80 00 00 3C 00 FF 
    934       301.831 DT     01BA Rx 8  06 AE 6A E6 3F 6A E8 B5 
    935       302.065 DT     01C3 Rx 8  06 AE 06 AE FF 30 00 01 
    936       302.302 DT     01C4 Rx 8  27 62 C2 47 02 00 07 FF 
    937       302.498 DT     01C5 Rx 6  2C 48 2C 48 38 2D 
    938       302.648 DT     01DF Rx 3  85 18 00 
    939       302.883 DT     01E7 Rx 8  60 E6 01 55 40 00 70 DE 
    940       303.113 DT     01ED Rx 8  60 E6 01 55 01 A8 70 DE 
    941       303.342 DT     00C1 Rx 8  F0 06 BD 48 F0 04 ED 4E 
    942       303.574 DT     00C5 Rx 8  70 0E 65 37 F0 21 80 86 
    943       303.798 DT     00D1 Rx 7  C0 00 FF FD 00 FD 73 
    944       304.041 DT     01C8 Rx 8  80 00 06 A0 F9 5E 3F FE 
    945       304.223 DT     01CC Rx 5  00 63 00 40 16 
    946       304.445 DT     01E1 Rx 7  00 00 00 00 02 18 D0 
    947       304.684 DT     01E5 Rx 8  5C 01 D5 70 01 00 01 DF 
    948       304.934 DT     01E9 Rx 8  00 00 00 0E 00 00 00 00 
    949       305.147 DT     01F4 Rx 6  00 00 00 20 00 00 
    950       305.393 DT     01F5 Rx 8  0F 0F 00 01 00 00 08 00 
    951       305.531 DT     01F8 Rx 2  FF FF 
    952       305.778 DT     01FC Rx 8  00 82 00 00 00 00 F0 DF 
    953       305.978 DT     0287 Rx 6  00 00 00 08 B5 D9 
    954       306.216 DT     02C3 Rx 8  09 CC 06 AE 00 00 49 10 
    955       306.393 DT     02DA Rx 4  00 00 00 00 
    956       306.637 DT     03C1 Rx 8  07 65 F7 00 00 00 00 00 
    957       306.802 DT     03C7 Rx 4  08 8A 07 76 
    958       307.042 DT     03D1 Rx 8  01 0E 80 00 20 36 00 7F 
    959       307.280 DT     03D3 Rx 8  00 88 20 00 7F FD 4D C5 
    960       307.471 DT     03D9 Rx 5  02 00 00 00 00 
    961       307.723 DT     03E9 Rx 8  00 00 00 00 00 00 00 05 
    962       307.919 DT     03F3 Rx 6  C0 20 37 17 35 E1 
    963       308.152 DT     03F9 Rx 8  00 08 CE 87 5A 6A FC 53 
    964       308.386 DT     01C6 Rx 8  00 00 2C 54 00 C3 4E AD 
    965       308.575 DT     0210 Rx 5  06 00 01 FD 00 
    966       308.709 DT     03FB Rx 2  02 19 
    967       308.941 DT     03FC Rx 8  48 2A 44 93 8C 20 93 8C 
    968       309.166 DT     04E1 Rx 8  4D 5A 33 39 37 31 34 33 
    969       309.720 DT     00C7 Rx 4  00 00 00 00 
    970       310.052 DT     00F9 Rx 8  00 00 40 00 00 00 00 00 
    971       310.387 DT     00AA Rx 8  2C 47 2D 0E 40 52 F2 00 
    972       310.593 DT     00BE Rx 6  0C 01 00 03 E9 FC 
    973       310.850 DT     00C9 Rx 8  84 08 CA 0D 00 10 18 00 
    974       310.980 DT     00D3 Rx 2  2C 4A 
    975       311.184 DT     00F1 Rx 6  1C 02 00 41 FB FE 
    976       311.421 DT     018E Rx 8  00 00 00 6A E6 AE 06 AE 
    977       311.657 DT     0191 Rx 8  06 AE 06 CC 06 AE 00 00 
    978       311.890 DT     01E7 Rx 8  60 E6 01 54 40 00 70 DE 
    979       312.120 DT     01ED Rx 8  60 E6 01 54 01 A8 70 DE 
    980       312.978 DT     00C1 Rx 8  C0 06 BD 48 C0 04 ED 4E 
    981       313.211 DT     00C5 Rx 8  40 0E 65 37 C0 21 80 86 
    982       313.439 DT     00D1 Rx 7  00 00 00 00 00 00 13 
    983       313.688 DT     0139 Rx 8  00 48 00 00 00 00 00 00 
    984       313.906 DT     01C7 Rx 7  06 AC F9 51 00 00 3F 
    985       314.144 DT     01C8 Rx 8  C0 00 06 A0 F9 5D 3F FD 
    986       314.383 DT     01E5 Rx 8  5C 01 D5 10 00 00 01 7E 
    987       314.583 DT     0214 Rx 6  06 00 63 FD 6C 35 
    988       315.688 DT     01F3 Rx 3  00 20 00 
    989       317.840 DT     01CE Rx 4  10 00 07 FE 
    990       318.159 DT     0230 Rx 8  00 00 30 00 00 00 1F FD 
    991       318.361 DT     00F1 Rx 6  28 02 00 41 FB FD 
    992       320.058 DT     0121 Rx 8  00 00 00 00 00 00 00 00 
    993       320.188 DT     0124 Rx 2  1E A0 
    994       320.797 DT     032A Rx 8  07 8D F6 83 6C BA 36 2A 
    995       322.121 DT     00C7 Rx 4  00 00 00 00 
    996       322.456 DT     00F9 Rx 8  00 00 40 00 00 00 00 00 
    997       322.918 DT     00C1 Rx 8  D0 06 BD 48 D0 04 ED 4E 
    998       323.149 DT     00AA Rx 8  2C 46 2D 0D 42 52 F2 00 
    999       323.357 DT     00BE Rx 6  00 01 00 03 E9 FF 
   1000       323.592 DT     00C5 Rx 8  50 0E 65 37 D0 21 80 86 
   1001       323.837 DT     00C9 Rx 8  84 08 CA 00 00 10 18 00 
   1002       324.059 DT     00D1 Rx 7  40 00 7F FF 00 FF 33 
   1003       324.189 DT     00D3 Rx 2  2C 48 
   1004       324.412 DT     0189 Rx 7  4F FF 0F FF 30 00 00 
   1005       324.646 DT     018E Rx 8  00 00 00 6A E6 AD 06 AD 
   1006       324.883 DT     0191 Rx 8  06 AE 06 CB 06 AD 00 00 
   1007       325.103 DT     0197 Rx 7  3F FF 25 00 0F 02 7D 
   1008       325.345 DT     019D Rx 8  40 00 3F FF 00 07 DB FF 
   1009       325.510 DT     01A6 Rx 4  44 06 A0 39 
   1010       325.730 DT     01A1 Rx 7  00 20 01 40 44 44 00 
   1011       325.844 DT     01A3 Rx 1  80 
   1012       326.061 DT     01AA Rx 7  60 5F D6 4F 6C B0 00 
   1013       326.311 DT     01AF Rx 8  00 00 80 00 00 3C 00 FF 
   1014       326.538 DT     01BA Rx 8  06 AE 6A E6 3F 6A E8 B6 
   1015       326.776 DT     01C3 Rx 8  06 AE 06 AE FF 00 00 00 
   1016       327.010 DT     01C4 Rx 8  4A 62 C2 47 04 00 05 FE 
   1017       327.203 DT     01C5 Rx 6  2C 46 2C 46 38 2E 
   1018       327.451 DT     01C8 Rx 8  00 00 06 A0 F9 60 00 00 
   1019       327.637 DT     01CC Rx 5  00 63 00 40 24 
   1020       327.784 DT     01CF Rx 3  23 08 05 
   1021       327.934 DT     01DF Rx 3  85 18 00 
   1022       328.169 DT     01E5 Rx 8  5C 01 D5 3F FF 00 02 AC 
   1023       328.401 DT     01E7 Rx 8  60 E6 01 54 40 00 70 DE 
   1024       328.649 DT     01E9 Rx 8  00 04 00 0E 00 00 00 00 
   1025       328.880 DT     01ED Rx 8  60 E6 01 54 01 A8 70 DE 
   1026       329.124 DT     01F5 Rx 8  0F 0F 00 01 00 00 08 00 
   1027       329.262 DT     01F8 Rx 2  FF FF 
   1028       329.495 DT     0232 Rx 8  C1 00 A1 08 00 52 00 AA 
   1029       329.693 DT     0287 Rx 6  43 00 00 08 B6 D9 
   1030       329.918 DT     02F9 Rx 7  E0 00 0D 08 1D 00 2F 
   1031       330.142 DT     0514 Rx 8  47 54 55 39 44 45 44 34 
   1032       330.368 DT     077A Rx 7  00 1A 00 00 00 00 03 
   1033       330.777 DT     00F1 Rx 6  34 02 00 41 FB FC 
   1034       331.461 DT     0170 Rx 3  00 00 00 
   1035       331.750 DT     03ED Rx 6  00 00 00 00 00 FF 
   1036       333.010 DT     00C1 Rx 8  E0 06 BD 48 E0 04 ED 4E 
   1037       333.247 DT     00C5 Rx 8  60 0E 65 37 E0 21 80 86 
   1038       333.467 DT     00D1 Rx 7  80 00 BF FE 00 FE 53 
   1039       333.699 DT     0142 Rx 7  00 00 00 00 00 00 00 
   1040       333.936 DT     01C6 Rx 8  00 00 2C 54 00 03 4E B0 
   1041       334.156 DT     01C7 Rx 7  06 AC 39 54 00 00 3F 
   1042       334.403 DT     01C8 Rx 8  40 00 06 A0 F9 5F 3F FF 
   1043       334.641 DT     01E5 Rx 8  5C 01 D5 50 00 00 01 BE 
   1044       334.813 DT     00C7 Rx 4  00 00 00 00 
   1045       335.074 DT     00F9 Rx 8  00 00 40 00 00 00 00 00 
   1046       335.304 DT     00AA Rx 8  2C 46 2D 0D 44 52 F1 00 
   1047       335.511 DT     00BE Rx 6  04 01 00 03 E9 FE 
   1048       335.747 DT     00C9 Rx 8  84 08 CF 07 00 10 18 00 
   1049       335.899 DT     0149 Rx 3  00 00 00 
   1050       336.030 DT     00D3 Rx 2  2C 48 
   1051       336.264 DT     018E Rx 8  00 00 00 6A E6 AD 06 AD 
   1052       336.501 DT     0191 Rx 8  06 AE 06 CB 06 AD 00 00 
   1053       336.723 DT     01E1 Rx 7  00 00 00 00 03 1C C0 
   1054       336.955 DT     01E7 Rx 8  60 E6 01 54 40 00 70 DE 
   1055       337.186 DT     01ED Rx 8  60 E6 01 54 01 A8 70 DE 
   1056       337.378 DT     0348 Rx 5  00 00 00 00 00 
   1057       337.924 DT     01CE Rx 4  18 00 07 FD 
   1058       338.141 DT     034A Rx 5  00 00 00 00 00 
   1059       338.373 DT     00F1 Rx 6  00 02 00 41 FB FF 
   1060       340.052 DT     0121 Rx 8  00 00 00 00 00 00 00 00 
   1061       340.630 DT     01F3 Rx 3  40 60 00 
   1062       342.937 DT     00C1 Rx 8  F0 06 BD 48 F0 04 ED 4E 
   1063       343.172 DT     00C5 Rx 8  70 0E 65 37 F0 21 80 86 
   1064       343.396 DT     00D1 Rx 7  C0 00 FF FD 00 FD 73 
   1065       343.648 DT     01C8 Rx 8  80 00 06 A0 F9 5E 3F FE 
   1066       343.831 DT     01CC Rx 5  00 63 00 40 32 
   1067       344.065 DT     01E5 Rx 8  5C 01 D5 70 00 00 01 DE 
   1068       344.316 DT     01E9 Rx 8  00 04 00 0E 00 00 00 00 
   1069       344.558 DT     034C Rx 8  F8 A1 10 00 00 05 00 04 
   1070       344.732 DT     0350 Rx 4  00 00 00 50 
   1071       344.927 DT     052A Rx 6  24 24 46 44 41 42 
   1072       345.725 DT     052B Rx 4  30 2F 39 3A 
   1073       347.146 DT     0451 Rx 5  00 00 00 00 5A 
   1074       347.318 DT     00C7 Rx 4  00 00 00 00 
   1075       347.639 DT     00F9 Rx 8  00 00 40 00 00 00 00 00 
   1076       347.945 DT     00AA Rx 8  2C 42 2D 0B 46 52 F2 00 
   1077       348.153 DT     00BE Rx 6  08 01 00 03 E9 FD 
   1078       348.404 DT     00C9 Rx 8  84 08 D3 0A 00 10 18 00 
   1079       348.534 DT     00D3 Rx 2  2C 45 
   1080       348.739 DT     00F1 Rx 6  1C 02 00 41 FB FE 
   1081       348.961 DT     0189 Rx 7  8F FF 0F FF 2F FF 00 
   1082       349.195 DT     018E Rx 8  00 00 00 6A D6 AD 06 AD 
   1083       349.430 DT     0191 Rx 8  06 AD 06 CB 06 AD 00 00 
   1084       349.646 DT     0197 Rx 7  3F FF 49 00 0E 02 BC 
   1085       349.890 DT     019D Rx 8  80 00 3F FE 00 07 E0 FF 
   1086       350.055 DT     01A6 Rx 4  44 06 A0 36 
   1087       350.305 DT     01AF Rx 8  00 00 80 00 00 3C 00 FF 
   1088       350.540 DT     01E7 Rx 8  60 E6 01 55 40 00 70 DE 
   1089       350.760 DT     01A1 Rx 7  00 20 01 40 44 44 00 
   1090       350.874 DT     01A3 Rx 1  80 
   1091       351.096 DT     01AA Rx 7  00 5F D6 50 6C B0 00 
   1092       351.324 DT     01BA Rx 8  06 AD 6A D6 3F 6A D8 B6 
   1093       351.557 DT     0260 Rx 8  32 BE 4F 00 0C F3 52 94 
   1094       351.791 DT     01C3 Rx 8  06 AD 06 AD FF 10 00 03 
   1095       351.989 DT     0261 Rx 6  07 8D F6 83 1A 5C 
   1096       352.224 DT     01C4 Rx 8  6D 62 C2 47 06 00 03 FD 
   1097       352.418 DT     01C5 Rx 6  2C 42 2C 42 38 31 
   1098       352.568 DT     01DF Rx 3  85 18 00 
   1099       352.765 DT     0262 Rx 6  6C BA 36 2A C1 EA 
   1100       352.995 DT     01ED Rx 8  60 E6 01 55 01 A8 70 DE 
   1101       353.238 DT     01F1 Rx 8  A2 12 00 00 08 00 90 7A 
   1102       353.450 DT     01F4 Rx 6  00 00 00 20 00 00 
   1103       353.694 DT     01F5 Rx 8  0F 0F 00 01 00 00 08 00 
   1104       353.927 DT     00C1 Rx 8  C0 06 BD 48 C0 04 ED 4E 
   1105       354.159 DT     00C5 Rx 8  40 0E 65 37 C0 21 80 86 
   1106       354.388 DT     00D1 Rx 7  00 00 00 00 00 00 13 
   1107       354.604 DT     01C7 Rx 7  06 AC 79 53 00 00 3F 
   1108       354.808 DT     0263 Rx 6  00 00 00 00 E0 68 
   1109       355.047 DT     01C8 Rx 8  C0 00 06 A0 F9 5D 3F FD 
   1110       355.281 DT     0264 Rx 8  00 0F 0E 6F 54 31 39 64 
   1111       355.515 DT     01E5 Rx 8  5C 01 D5 1F FE 00 02 8B 
   1112       355.654 DT     01F8 Rx 2  FF FF 
   1113       355.902 DT     01FC Rx 8  00 82 00 34 00 00 00 F5 
   1114       356.141 DT     0265 Rx 8  1E 00 00 80 0B 03 59 03 
   1115       356.343 DT     0287 Rx 6  82 00 00 08 B6 D9 
   1116       356.579 DT     02C3 Rx 8  09 CD 06 AD 00 00 49 10 
   1117       356.754 DT     02DA Rx 4  00 00 01 FF 
   1118       356.928 DT     0530 Rx 4  00 00 00 00 
   1119       358.065 DT     00D0 Rx 8  80 00 80 00 80 00 80 00 
   1120       358.267 DT     00F1 Rx 6  28 02 00 41 FB FD 
   1121       358.503 DT     01C6 Rx 8  00 00 2C 48 00 43 4E DF 
   1122       358.678 DT     01CE Rx 4  00 00 00 00 
   1123       358.870 DT     0210 Rx 5  00 00 00 00 00 
   1124       359.699 DT     00C7 Rx 4  00 00 00 00 
   1125       360.057 DT     0121 Rx 8  00 00 00 00 00 00 00 00 
   1126       360.307 DT     00F9 Rx 8  00 00 40 00 00 00 00 00 
   1127       360.538 DT     00AA Rx 8  2C 42 2D 0B 40 52 F5 00 
   1128       360.744 DT     00BE Rx 6  0C 01 00 03 E9 FC 
   1129       360.981 DT     00C9 Rx 8  84 08 D0 0D 00 10 18 00 
   1130       361.111 DT     00D3 Rx 2  2C 45 
   1131       361.345 DT     018E Rx 8  00 00 00 6A D6 AD 06 AD 
   1132       361.580 DT     0191 Rx 8  06 AD 06 CB 06 AD 00 00 
   1133       361.806 DT     01E1 Rx 7  00 00 00 00 00 10 F0 
   1134       362.040 DT     01E7 Rx 8  60 E6 01 55 40 00 70 DE 
   1135       362.271 DT     01ED Rx 8  60 E6 01 55 01 A8 70 DE 
   1136       362.995 DT     00C1 Rx 8  D0 06 BD 48 D0 04 ED 4E 
   1137       363.230 DT     00C5 Rx 8  50 0E 65 37 D0 21 80 86 
   1138       363.452 DT     00D1 Rx 7  40 00 7F FF 00 FF 33 
   1139       363.696 DT     017D Rx 8  22 24 42 FF 00 00 00 14 
   1140       363.949 DT     01C8 Rx 8  00 00 06 A0 F9 60 00 00 
   1141       364.135 DT     01CC Rx 5  00 63 00 40 00 
   1142       364.370 DT     01E5 Rx 8  5C 01 D5 30 00 00 01 9E 
   1143       364.618 DT     01E9 Rx 8  00 04 00 0E 00 00 00 00 
   1144       364.830 DT     0214 Rx 6  00 00 02 00 00 00 
   1145       365.077 DT     03C9 Rx 8  07 06 00 00 00 00 00 00 
   1146       366.405 DT     03CF Rx 2  F0 F0 
   1147       368.006 DT     0182 Rx 8  67 79 01 00 00 00 00 00 
   1148       368.266 DT     0230 Rx 8  00 00 00 00 00 00 00 00 
   1149       368.471 DT     00F1 Rx 6  34 02 00 41 FB FC 
   1150       370.690 DT     0160 Rx 5  99 81 67 79 03 
   1151       372.132 DT     00C7 Rx 4  00 00 00 00 
   1152       372.467 DT     00F9 Rx 8  00 00 40 00 00 00 00 00 
   1153       372.697 DT     00AA Rx 8  2C 41 2D 0B 42 52 F4 00 
   1154       372.906 DT     00BE Rx 6  00 01 00 03 E9 FF 
   1155       373.138 DT     00C1 Rx 8  E0 06 BD 48 E0 04 ED 4E 
   1156       373.372 DT     00C5 Rx 8  60 0E 65 37 E0 21 80 86 
   1157       373.613 DT     00C9 Rx 8  84 08 D2 00 00 10 18 00 
   1158       373.833 DT     00D1 Rx 7  80 00 BF FE 00 FE 53 
   1159       373.962 DT     00D3 Rx 2  2C 44 
   1160       374.186 DT     0189 Rx 7  CF FF 0F FF 2F FE 00 
   1161       374.420 DT     018E Rx 8  00 00 00 6A D6 AD 06 AD 
   1162       374.655 DT     0191 Rx 8  06 AD 06 CB 06 AD 00 00 
   1163       374.875 DT     0197 Rx 7  3F FF 6D 00 0D 02 FB 
   1164       375.118 DT     019D Rx 8  C0 00 3F FD 00 07 E8 FF 
   1165       375.284 DT     01A6 Rx 4  44 06 A0 33 
   1166       375.526 DT     01AF Rx 8  00 00 80 00 00 3B 00 FF 
   1167       375.747 DT     01A1 Rx 7  00 20 01 40 44 44 00 
   1168       375.861 DT     01A3 Rx 1  80 
   1169       376.081 DT     01AA Rx 7  20 5F D6 50 6C B0 00 
   1170       376.310 DT     01BA Rx 8  06 AD 6A D6 3F 6A D8 B6 
   1171       376.544 DT     01C3 Rx 8  06 AD 06 AD FF 20 00 02 
   1172       376.787 DT     01C4 Rx 8  00 62 C2 47 00 00 00 00 
   1173       376.983 DT     01C5 Rx 6  2C 41 2C 41 38 31 
   1174       377.203 DT     01C7 Rx 7  06 AA B9 54 00 00 3F 
   1175       377.444 DT     01C8 Rx 8  40 00 06 A0 F9 5F 3F FF 
   1176       377.594 DT     01DF Rx 3  85 18 00 
   1177       377.832 DT     01E5 Rx 8  5C 01 D5 50 00 00 01 BE 
   1178       378.067 DT     01E7 Rx 8  60 E6 01 55 40 00 70 DE 
   1179       378.297 DT     01ED Rx 8  60 E6 01 55 01 A8 70 DE 
   1180       378.472 DT     01CE Rx 4  08 00 07 FF 
   1181       378.627 DT     01F3 Rx 3  80 A0 00 
   1182       378.871 DT     01F5 Rx 8  0F 0F 00 01 00 00 08 00 
   1183       379.010 DT     01F8 Rx 2  FF FF 
   1184       379.242 DT     0232 Rx 8  C1 00 A1 08 00 52 00 AA 
   1185       379.428 DT     0234 Rx 5  00 40 3D 40 00 
   1186       379.631 DT     0287 Rx 6  C1 00 00 08 B6 D9 
   1187       379.859 DT     02F9 Rx 7  E8 00 00 08 00 00 22 
   1188       380.108 DT     0121 Rx 8  00 00 00 00 00 00 00 00 
   1189       380.358 DT     014B Rx 3  08 00 00 
   1190       380.823 DT     00F1 Rx 6  00 02 00 41 FB FF 
   1191       382.985 DT     00C1 Rx 8  F0 06 BD 48 F0 04 ED 4E 
   1192       383.222 DT     00C5 Rx 8  70 0E 65 37 F0 21 80 86 
   1193       383.446 DT     00D1 Rx 7  C0 00 FF FD 00 FD 73 
   1194       383.682 DT     012A Rx 8  10 E2 70 6B 00 00 10 A5 
   1195       383.919 DT     01C6 Rx 8  00 00 2C 48 00 83 4E DE 
   1196       384.167 DT     01C8 Rx 8  80 00 06 A0 F9 5E 3F FE 
   1197       384.350 DT     01CC Rx 5  00 63 00 40 16 
   1198       384.584 DT     01E5 Rx 8  5C 01 D5 70 00 00 01 DE 
   1199       384.756 DT     00C7 Rx 4  00 00 00 00 
   1200       385.015 DT     00F9 Rx 8  00 00 40 00 00 00 00 00 
   1201       385.245 DT     00AA Rx 8  2C 42 2D 0B 44 52 F3 00 
   1202       385.451 DT     00BE Rx 6  04 01 00 03 E9 FE 
   1203       385.692 DT     00C9 Rx 8  84 08 D0 07 00 10 18 00 
   1204       385.820 DT     00D3 Rx 2  2C 44 
   1205       386.055 DT     018E Rx 8  00 00 00 6A D6 AD 06 AD 
   1206       386.289 DT     0191 Rx 8  06 AD 06 CB 06 AD 00 00 
   1207       386.523 DT     01E7 Rx 8  60 E6 01 55 40 00 70 DE 
   1208       386.772 DT     01E9 Rx 8  00 04 00 0E 00 00 00 00 
   1209       387.002 DT     01ED Rx 8  60 E6 01 55 01 A8 70 DE 
   1210       387.155 DT     022A Rx 3  4E 94 1F 
   1211       387.347 DT     0348 Rx 5  00 00 00 00 00 
   1212       388.009 DT     034A Rx 5  00 00 00 00 00 
   1213       388.280 DT     00F1 Rx 6  1C 02 00 41 FB FE 
   1214       390.823 DT     0135 Rx 8  00 00 1C 72 99 15 15 30 
   1215       392.925 DT     00C1 Rx 8  C0 06 BD 48 C0 04 ED 4E 
   1216       393.160 DT     00C5 Rx 8  40 0E 65 37 C0 21 80 86 
   1217       393.388 DT     00D1 Rx 7  00 00 00 00 00 00 13 
   1218       393.506 DT     0148 Rx 1  00 
   1219       393.725 DT     01C7 Rx 7  06 AA F9 53 00 00 3F 
   1220       393.965 DT     01C8 Rx 8  C0 00 06 A0 F9 5D 3F FD 
   1221       394.188 DT     01E1 Rx 7  00 00 00 00 01 14 E0 
   1222       394.420 DT     01E5 Rx 8  5C 01 D5 1F FF 00 02 8C 
   1223       394.664 DT     034C Rx 8  E0 9E 10 00 00 05 00 04 
   1224       394.837 DT     0350 Rx 4  00 00 00 68 
   1225       395.069 DT     0778 Rx 7  00 31 00 00 00 00 00 
   1226       397.132 DT     00C7 Rx 4  00 00 00 00 
   1227       397.462 DT     00F9 Rx 8  00 00 40 00 00 00 00 00 
   1228       397.693 DT     00AA Rx 8  2C 41 2D 0A 46 52 F3 00 
   1229       397.901 DT     00BE Rx 6  08 01 00 03 E9 FD 
   1230       398.137 DT     00C9 Rx 8  84 08 CA 0A 00 10 18 00 
   1231       398.266 DT     00D3 Rx 2  2C 44 
   1232       398.468 DT     00F1 Rx 6  28 02 00 41 FB FD 
   1233       398.691 DT     0189 Rx 7  0F FF 0F FF 30 01 00 
   1234       398.925 DT     018E Rx 8  00 00 00 6A D6 AD 06 AD 
   1235       399.159 DT     0191 Rx 8  06 AD 06 CB 06 AD 00 00 
   1236       399.384 DT     0197 Rx 7  3F FF 01 00 00 02 3E 
   1237       399.628 DT     019D Rx 8  00 00 00 00 00 07 EC FF 
   1238       399.793 DT     01A6 Rx 4  44 06 A0 3C 
   1239       400.061 DT     0121 Rx 8  00 00 00 00 00 00 00 00 
   1240       400.303 DT     01AF Rx 8  00 00 80 00 00 3B 00 FF 
   1241       400.476 DT     01CE Rx 4  10 00 07 FE 
   1242       400.710 DT     01E7 Rx 8  60 E6 01 55 40 00 70 DE 
   1243       400.930 DT     01A1 Rx 7  00 20 01 40 44 44 00 
   1244       401.167 DT     0137 Rx 8  0C 01 9E 6A 07 05 40 0D 
   1245       401.281 DT     01A3 Rx 1  80 
   1246       401.500 DT     01AA Rx 7  40 5F D6 50 6C B0 00 
   1247       401.728 DT     01BA Rx 8  06 AD 6A D6 3F 6A D8 B6 
   1248       401.962 DT     01C3 Rx 8  06 AD 06 AD FF 30 00 01 
   1249       402.199 DT     01C4 Rx 8  27 62 C2 47 02 00 07 FF 
   1250       402.395 DT     01C5 Rx 6  2C 41 2C 41 38 31 
   1251       402.545 DT     01DF Rx 3  85 18 00 
   1252       402.776 DT     01ED Rx 8  60 E6 01 55 01 A8 70 DE 
   1253       402.988 DT     01F4 Rx 6  00 00 00 20 00 00 
   1254       403.233 DT     01F5 Rx 8  0F 0F 00 01 00 00 08 00 
   1255       403.463 DT     00C1 Rx 8  D0 06 BD 48 D0 04 ED 4E 
   1256       403.695 DT     00C5 Rx 8  50 0E 65 37 D0 21 80 86 
   1257       403.918 DT     00D1 Rx 7  40 00 7F FF 00 FF 33 
   1258       404.164 DT     01C8 Rx 8  00 00 06 A0 F9 60 00 00 
   1259       404.351 DT     01CC Rx 5  00 63 00 40 24 
   1260       404.585 DT     01E5 Rx 8  5C 01 D5 30 00 00 01 9E 
   1261       404.831 DT     01E9 Rx 8  00 04 00 0E 00 00 00 00 
   1262       404.986 DT     01F3 Rx 3  C0 E0 00 
   1263       405.124 DT     01F8 Rx 2  FF FF 
   1264       405.364 DT     01FC Rx 8  00 8F 00 34 00 00 51 0C 
   1265       405.567 DT     0287 Rx 6  00 00 00 08 B6 D9 
   1266       405.803 DT     02C3 Rx 8  09 CD 06 AD 00 00 49 10 
   1267       405.977 DT     02DA Rx 4  00 00 02 FE 
   1268       406.221 DT     03C1 Rx 8  07 65 F7 00 00 00 00 00 
   1269       406.383 DT     03C7 Rx 4  18 8A 07 75 
   1270       406.624 DT     03D1 Rx 8  01 0F 80 00 20 49 00 7F 
   1271       406.868 DT     03D3 Rx 8  00 88 20 00 00 00 4D 00 
   1272       407.058 DT     03D9 Rx 5  02 00 00 00 00 
   1273       407.309 DT     03E9 Rx 8  00 00 00 00 00 00 00 05 
   1274       408.083 DT     01C6 Rx 8  00 00 2C 48 00 C3 4E DD 
   1275       408.272 DT     0210 Rx 5  02 00 01 FF 00 
   1276       408.476 DT     00F1 Rx 6  34 02 00 41 FB FC 
   1277       409.761 DT     00C7 Rx 4  00 00 00 00 
   1278       410.093 DT     00F9 Rx 8  00 00 40 00 00 00 00 00 
   1279       410.323 DT     00AA Rx 8  2C 42 2D 0B 40 52 F5 00 
   1280       410.530 DT     00BE Rx 6  0C 01 00 03 E9 FC 
   1281       410.766 DT     00C9 Rx 8  84 08 C7 0D 00 10 18 00 
   1282       410.895 DT     00D3 Rx 2  2C 44 
   1283       411.141 DT     0139 Rx 8  00 48 00 00 00 00 00 00 
   1284       411.375 DT     018E Rx 8  00 00 00 6A D6 AD 06 AD 
   1285       411.610 DT     0191 Rx 8  06 AD 06 CB 06 AD 00 00 
   1286       411.844 DT     01E7 Rx 8  60 E6 01 55 40 00 70 DE 
   1287       412.075 DT     01ED Rx 8  60 E6 01 55 01 A8 70 DE 
   1288       412.993 DT     00C1 Rx 8  E0 06 BD 48 E0 04 ED 4E 
   1289       413.229 DT     00C5 Rx 8  60 0E 65 37 E0 21 80 86 
   1290       413.450 DT     00D1 Rx 7  80 00 BF FE 00 FE 53 
   1291       413.666 DT     01C7 Rx 7  06 AA 39 56 00 00 3F 
   1292       413.911 DT     01C8 Rx 8  40 00 06 A0 F9 5F 3F FF 
   1293       414.143 DT     01E5 Rx 8  5C 01 D5 5F FF 00 02 CC 
   1294       414.349 DT     0214 Rx 6  02 00 23 FF 24 1F 
   1295       417.814 DT     01CE Rx 4  18 00 07 FD 
   1296       418.143 DT     0230 Rx 8  00 00 10 00 00 00 1F FF 
   1297       418.353 DT     00F1 Rx 6  00 02 00 41 FB FF 
   1298       420.066 DT     0121 Rx 8  00 00 00 00 00 00 00 00 
   1299       420.196 DT     0124 Rx 2  1E DF 
   1300       420.803 DT     01E1 Rx 7  00 00 00 00 02 18 D0 
   1301       422.117 DT     00C7 Rx 4  00 00 00 00 
   1302       422.452 DT     00F9 Rx 8  00 00 40 00 00 00 00 00 
   1303       422.682 DT     00AA Rx 8  2C 42 2D 0A 42 52 F5 00 
   1304       422.891 DT     00BE Rx 6  00 01 00 03 E9 FF 
   1305       423.119 DT     00C1 Rx 8  F0 06 BD 48 F0 04 ED 4E 
   1306       423.351 DT     00C5 Rx 8  70 0E 65 37 F0 21 80 86 
   1307       423.588 DT     00C9 Rx 8  84 08 CB 00 00 10 18 00 
   1308       423.812 DT     00D1 Rx 7  C0 00 FF FD 00 FD 73 
   1309       423.941 DT     00D3 Rx 2  2C 44 
   1310       424.163 DT     0189 Rx 7  4F FF 0F FF 30 00 00 
   1311       424.397 DT     018E Rx 8  00 00 00 6A D6 AD 06 AD 
   1312       424.632 DT     0191 Rx 8  06 AD 06 CB 06 AD 00 00 
   1313       424.852 DT     0197 Rx 7  3F FF 25 00 0F 02 7D 
   1314       425.092 DT     019D Rx 8  40 00 3F FF 00 07 E4 FF 
   1315       425.313 DT     01A1 Rx 7  00 20 01 40 44 44 00 
   1316       425.427 DT     01A3 Rx 1  80 
   1317       425.591 DT     01A6 Rx 4  44 06 A0 39 
   1318       425.808 DT     01AA Rx 7  60 5F D6 4F 6C B0 00 
   1319       426.052 DT     01AF Rx 8  00 00 80 00 00 3A 00 FF 
   1320       426.281 DT     01BA Rx 8  06 AD 6A D6 3F 6A D8 B6 
   1321       426.517 DT     01C3 Rx 8  06 AD 06 AD FF 00 00 00 
   1322       426.751 DT     01C4 Rx 8  4A 62 C2 47 04 00 05 FE 
   1323       426.944 DT     01C5 Rx 6  2C 42 2C 42 38 30 
   1324       427.186 DT     01C8 Rx 8  80 00 06 A0 F9 5E 3F FE 
   1325       427.368 DT     01CC Rx 5  00 63 00 40 32 
   1326       427.515 DT     01CF Rx 3  33 08 05 
   1327       427.665 DT     01DF Rx 3  85 18 00 
   1328       427.900 DT     01E5 Rx 8  5C 01 D5 70 00 00 01 DE 
   1329       428.132 DT     01E7 Rx 8  60 E6 01 54 40 00 70 DE 
   1330       428.378 DT     01E9 Rx 8  00 04 00 0E 00 00 00 00 
   1331       428.609 DT     01ED Rx 8  60 E6 01 54 01 A8 70 DE 
   1332       428.853 DT     01F5 Rx 8  0F 0F 00 01 00 00 08 00 
   1333       428.992 DT     01F8 Rx 2  FF FF 
   1334       429.224 DT     0232 Rx 8  C1 00 A1 08 00 52 00 AA 
   1335       429.422 DT     0287 Rx 6  43 00 00 08 B6 D9 
   1336       429.647 DT     02F9 Rx 7  F0 00 07 08 0F 00 25 
   1337       429.875 DT     032A Rx 8  07 8D F6 83 6C BA 36 2A 
   1338       430.778 DT     00F1 Rx 6  1C 02 00 41 FB FE 
   1339       431.434 DT     0170 Rx 3  00 00 00 
   1340       432.967 DT     00C1 Rx 8  C0 06 BD 48 C0 04 ED 4E 
   1341       433.199 DT     00C5 Rx 8  40 0E 65 37 C0 21 80 86 
   1342       433.427 DT     00D1 Rx 7  00 00 00 00 00 00 13 
   1343       433.661 DT     0142 Rx 7  00 00 00 00 00 00 00 
   1344       433.903 DT     01C6 Rx 8  00 00 2C 48 00 03 4E E0 
   1345       434.119 DT     01C7 Rx 7  06 AA 79 55 00 00 3F 
   1346       434.358 DT     01C8 Rx 8  C0 00 06 A0 F9 5D 3F FD 
   1347       434.596 DT     01E5 Rx 8  5C 01 D5 10 00 00 01 7E 
   1348       434.749 DT     0149 Rx 3  00 00 00 
   1349       434.921 DT     00C7 Rx 4  00 00 00 00 
   1350       435.171 DT     00F9 Rx 8  00 00 40 00 00 00 00 00 
   1351       435.402 DT     00AA Rx 8  2C 45 2D 0C 44 52 F2 00 
   1352       435.608 DT     00BE Rx 6  04 01 00 03 E9 FE 
   1353       435.845 DT     00C9 Rx 8  84 08 C5 07 00 10 18 00 
   1354       435.975 DT     00D3 Rx 2  2C 48 
   1355       436.209 DT     018E Rx 8  00 00 00 6A E6 AD 06 AD 
   1356       436.446 DT     0191 Rx 8  06 AE 06 CB 06 AD 00 00 
   1357       436.678 DT     01E7 Rx 8  60 E6 01 54 40 00 70 DE 
   1358       436.909 DT     01ED Rx 8  60 E6 01 54 01 A8 70 DE 
   1359       437.065 DT     01F3 Rx 3  00 20 00 
   1360       437.257 DT     0348 Rx 5  00 00 00 00 00 
   1361       437.926 DT     01CE Rx 4  00 00 00 00 
   1362       438.138 DT     034A Rx 5  00 00 00 00 00 
   1363       438.353 DT     00F1 Rx 6  28 02 00 41 FB FD 
   1364       440.067 DT     0121 Rx 8  00 00 00 00 00 00 00 00 
   1365       442.946 DT     00C1 Rx 8  D0 06 BD 48 D0 04 ED 4E 
   1366       443.181 DT     00C5 Rx 8  50 0E 65 37 D0 21 80 86 
   1367       443.403 DT     00D1 Rx 7  40 00 7F FF 00 FF 33 
   1368       443.665 DT     01C8 Rx 8  00 00 06 A0 F9 60 00 00 
   1369       443.852 DT     01CC Rx 5  00 63 00 40 00 
   1370       444.088 DT     01E5 Rx 8  5C 01 D5 30 01 00 01 9F 
   1371       444.336 DT     01E9 Rx 8  00 04 00 0E 00 00 00 00 
   1372       444.577 DT     034C Rx 8  E8 9F 10 00 00 05 00 04 
   1373       444.751 DT     0350 Rx 4  00 00 00 00 
   1374       447.108 DT     0451 Rx 5  00 00 00 00 5A 
   1375       447.280 DT     00C7 Rx 4  00 00 00 00 
   1376       447.549 DT     00AA Rx 8  2C 45 2D 0C 46 52 F1 00 
   1377       447.757 DT     00BE Rx 6  08 01 00 03 E9 FD 
   1378       448.012 DT     00C9 Rx 8  84 08 C2 0A 00 10 18 00 
   1379       448.142 DT     00D3 Rx 2  2C 48 
   1380       448.346 DT     00F1 Rx 6  34 02 00 41 FB FC 
   1381       448.611 DT     00F9 Rx 8  00 00 40 00 00 00 00 00 
   1382       448.833 DT     0189 Rx 7  8F FF 0F FF 2F FF 00 
   1383       449.070 DT     018E Rx 8  00 00 00 6A E6 AE 06 AE 
   1384       449.308 DT     0191 Rx 8  06 AE 06 CB 06 AE 00 00 
   1385       449.524 DT     0197 Rx 7  3F FF 49 00 0E 02 BC 
   1386       449.767 DT     019D Rx 8  80 00 3F FE 00 07 ED FF 
   1387       449.931 DT     01A6 Rx 4  44 06 A0 36 
   1388       450.176 DT     01AF Rx 8  00 00 80 00 00 3A 00 FF 
   1389       450.396 DT     01A1 Rx 7  00 20 01 40 44 44 00 
   1390       450.510 DT     01A3 Rx 1  80 
   1391       450.729 DT     01AA Rx 7  00 5F D6 4F 6C B0 00 
   1392       450.957 DT     01BA Rx 8  06 AD 6A D6 3F 6A D8 B5 
   1393       451.196 DT     01C3 Rx 8  06 AE 06 AD FF 10 00 03 
   1394       451.428 DT     0260 Rx 8  02 BE 4F 00 0C F3 52 64 
   1395       451.662 DT     01C4 Rx 8  6D 62 C2 47 06 00 03 FD 
   1396       451.857 DT     01C5 Rx 6  2C 45 2C 45 38 2D 
   1397       452.007 DT     01DF Rx 3  85 18 00 
   1398       452.229 DT     01E1 Rx 7  00 00 00 00 03 1C C0 
   1399       452.464 DT     01E7 Rx 8  60 E6 01 55 40 00 70 DE 
   1400       452.662 DT     0261 Rx 6  07 8D F6 83 02 59 
   1401       452.893 DT     01ED Rx 8  60 E6 01 55 01 A8 70 DE 
   1402       453.087 DT     0262 Rx 6  6C BA 36 2A 01 D2 
   1403       453.299 DT     01F4 Rx 6  00 00 00 20 00 00 
   1404       453.544 DT     01F5 Rx 8  0F 0F 00 01 00 00 08 00 
   1405       453.682 DT     01F8 Rx 2  FF FF 
   1406       453.914 DT     00C1 Rx 8  E0 06 BD 48 E0 04 ED 4E 
   1407       454.149 DT     00C5 Rx 8  60 0E 65 37 E0 21 80 86 
   1408       454.369 DT     00D1 Rx 7  80 00 BF FE 00 FE 53 
   1409       454.590 DT     01C7 Rx 7  06 AA B9 54 00 00 3F 
   1410       454.794 DT     0263 Rx 6  00 00 00 00 80 5C 
   1411       455.034 DT     01C8 Rx 8  40 00 06 A0 F9 5F 3F FF 
   1412       455.273 DT     0264 Rx 8  00 0F 0E 6F 54 3D C1 81 
   1413       455.511 DT     01E5 Rx 8  5C 01 D5 50 01 00 01 BF 
   1414       455.753 DT     01F1 Rx 8  A2 12 00 00 08 00 90 7A 
   1415       455.998 DT     01FC Rx 8  00 8F 00 00 00 00 A0 E2 
   1416       456.238 DT     0265 Rx 8  18 00 00 80 0B 03 58 FD 
   1417       456.441 DT     0287 Rx 6  82 00 00 08 B5 D9 
   1418       456.677 DT     02C3 Rx 8  09 CC 06 AD 00 00 48 10 
   1419       456.847 DT     02DA Rx 4  00 00 03 FD 
   1420       458.070 DT     00D0 Rx 8  80 00 80 00 80 00 80 00 
   1421       458.280 DT     00F1 Rx 6  00 02 00 41 FB FF 
   1422       458.517 DT     01C6 Rx 8  00 00 2C 48 00 43 4E DF 
   1423       458.691 DT     01CE Rx 4  08 00 07 FF 
   1424       458.884 DT     0210 Rx 5  04 00 01 FE 00 
   1425       459.686 DT     00C7 Rx 4  00 00 00 00 
   1426       460.018 DT     00F9 Rx 8  00 00 40 00 00 00 00 00 
   1427       460.267 DT     0121 Rx 8  00 00 00 00 00 00 00 00 
   1428       460.495 DT     00AA Rx 8  2C 47 2D 0D 40 52 F3 00 
   1429       460.702 DT     00BE Rx 6  0C 01 00 03 E9 FC 
   1430       460.939 DT     00C9 Rx 8  84 08 C4 0D 00 10 18 00 
   1431       461.067 DT     00D3 Rx 2  2C 4B 
   1432       461.304 DT     018E Rx 8  00 00 00 6A E6 AE 06 AE 
   1433       461.542 DT     0191 Rx 8  06 AE 06 CB 06 AE 00 00 
   1434       461.777 DT     01E7 Rx 8  60 E6 01 55 40 00 70 DE 
   1435       462.007 DT     01ED Rx 8  60 E6 01 55 01 A8 70 DE 
   1436       462.161 DT     01F3 Rx 3  40 60 00 
   1437       462.998 DT     00C1 Rx 8  F0 06 BD 48 F0 04 ED 4E 
   1438       463.234 DT     00C5 Rx 8  70 0E 65 37 F0 21 80 86 
   1439       463.459 DT     00D1 Rx 7  C0 00 FF FD 00 FD 73 
   1440       463.703 DT     017D Rx 8  22 24 42 FF 00 00 00 14 
   1441       463.947 DT     01C8 Rx 8  80 00 06 A0 F9 5E 3F FE 
   1442       464.130 DT     01CC Rx 5  00 63 00 40 16 
   1443       464.364 DT     01E5 Rx 8  5C 01 D5 7F FE 00 02 EB 
   1444       464.621 DT     01E9 Rx 8  00 00 00 0E 00 00 00 00 
   1445       464.823 DT     0214 Rx 6  04 00 43 FE 48 2A 
   1446       465.069 DT     03C9 Rx 8  07 06 00 00 00 00 00 00 
   1447       466.448 DT     03CF Rx 2  F8 F8 
   1448       468.029 DT     0182 Rx 8  67 79 01 00 00 00 00 00 
   1449       468.279 DT     0230 Rx 8  00 00 20 00 00 00 1F FE 
   1450       468.484 DT     00F1 Rx 6  1C 02 00 41 FB FE 
   1451       470.694 DT     0160 Rx 5  99 81 67 79 03 
   1452       472.137 DT     00C7 Rx 4  00 00 00 00 
   1453       472.471 DT     00F9 Rx 8  00 00 40 00 00 00 00 00 
   1454       472.700 DT     00AA Rx 8  2C 47 2D 0C 42 52 F3 00 
   1455       472.908 DT     00BE Rx 6  00 01 00 03 E9 FF 
   1456       473.140 DT     00C1 Rx 8  C0 06 BD 48 C0 04 ED 4E 
   1457       473.373 DT     00C5 Rx 8  40 0E 65 37 C0 21 80 86 
   1458       473.613 DT     00C9 Rx 8  84 08 C4 00 00 10 18 00 
   1459       473.842 DT     00D1 Rx 7  00 00 00 00 00 00 13 
   1460       473.970 DT     00D3 Rx 2  2C 4B 
   1461       474.194 DT     0189 Rx 7  CF FF 0F FF 2F FE 00 
   1462       474.431 DT     018E Rx 8  00 00 00 6A E6 AE 06 AE 
   1463       474.669 DT     0191 Rx 8  06 AE 06 CB 06 AE 00 00 
   1464       474.889 DT     0197 Rx 7  3F FF 6D 00 0D 02 FB 
   1465       475.132 DT     019D Rx 8  C0 00 3F FD 00 07 F1 FF 
   1466       475.352 DT     01A1 Rx 7  00 20 01 40 44 44 00 
   1467       475.467 DT     01A3 Rx 1  80 
   1468       475.633 DT     01A6 Rx 4  44 06 A0 33 
   1469       475.849 DT     01AA Rx 7  20 5F E6 4F 6C B0 00 
   1470       476.092 DT     01AF Rx 8  00 00 80 00 00 39 00 FF 
   1471       476.320 DT     01BA Rx 8  06 AE 6A E6 3F 6A E8 B5 
   1472       476.556 DT     01C3 Rx 8  06 AE 06 AE FF 20 00 02 
   1473       476.799 DT     01C4 Rx 8  00 62 C2 47 00 00 00 00 
   1474       476.991 DT     01C5 Rx 6  2C 47 2C 47 38 2C 
   1475       477.210 DT     01C7 Rx 7  06 AA F9 53 00 00 3F 
   1476       477.448 DT     01C8 Rx 8  C0 00 06 A0 F9 5D 3F FD 
   1477       477.598 DT     01DF Rx 3  85 18 00 
   1478       477.835 DT     01E5 Rx 8  5C 01 D5 10 01 00 01 7F 
   1479       478.067 DT     01E7 Rx 8  60 E6 01 54 40 00 70 DE 
   1480       478.297 DT     01ED Rx 8  60 E6 01 54 01 A8 70 DE 
   1481       478.500 DT     00F1 Rx 6  28 02 00 41 FB FD 
   1482       478.672 DT     01CE Rx 4  10 00 07 FE 
   1483       478.917 DT     01F5 Rx 8  0F 0F 00 01 00 00 08 00 
   1484       479.055 DT     01F8 Rx 2  FF FF 
   1485       479.287 DT     0232 Rx 8  C1 00 A1 08 00 52 00 AA 
   1486       479.474 DT     0234 Rx 5  00 40 3D 40 00 
   1487       479.674 DT     0287 Rx 6  C1 00 00 08 B5 D9 
   1488       479.898 DT     02F9 Rx 7  F8 00 0A 08 16 00 28 
   1489       480.147 DT     0121 Rx 8  00 00 00 00 00 00 00 00 
   1490       480.351 DT     03F5 Rx 6  50 0F 0F 00 00 00 
   1491       480.924 DT     012A Rx 8  10 E2 70 6B 00 00 10 B5 
   1492       482.999 DT     00C1 Rx 8  D0 06 BD 48 D0 04 ED 4E 
   1493       483.233 DT     00C5 Rx 8  50 0E 65 37 D0 21 80 86 
   1494       483.455 DT     00D1 Rx 7  40 00 7F FF 00 FF 33 
   1495       483.694 DT     01C6 Rx 8  00 00 2C 54 00 83 4E AE 
   1496       483.950 DT     01C8 Rx 8  00 00 06 A0 F9 60 00 00 
   1497       484.136 DT     01CC Rx 5  00 63 00 40 24 
   1498       484.363 DT     01E1 Rx 7  00 00 00 00 00 10 F0 
   1499       484.597 DT     01E5 Rx 8  5C 01 D5 30 00 00 01 9E 
   1500       484.770 DT     00C7 Rx 4  00 00 00 00 
   1501       485.024 DT     00F9 Rx 8  00 00 40 00 00 00 00 00 
   1502       485.270 DT     01E9 Rx 8  00 04 00 0E 00 00 00 00 
   1503       485.417 DT     022A Rx 3  8D 88 2A 
   1504       485.645 DT     00AA Rx 8  2C 47 2D 0C 44 52 F2 00 
   1505       485.852 DT     00BE Rx 6  04 01 00 03 E9 FE 
   1506       486.090 DT     00C9 Rx 8  84 08 C3 07 00 10 18 00 
   1507       486.218 DT     00D3 Rx 2  2C 4B 
   1508       486.455 DT     018E Rx 8  00 00 00 6A E6 AE 06 AE 
   1509       486.691 DT     0191 Rx 8  06 AE 06 CC 06 AE 00 00 
   1510       486.921 DT     01E7 Rx 8  60 E6 01 54 50 82 70 DE 
   1511       487.152 DT     01ED Rx 8  60 E6 01 54 01 A8 70 DE 
   1512       487.344 DT     0348 Rx 5  00 00 00 00 00 
   1513       487.971 DT     0237 Rx 5  AA 9A 00 00 00 
   1514       488.171 DT     034A Rx 5  00 00 00 00 00 
   1515       488.387 DT     00F1 Rx 6  34 02 00 41 FB FC 
   1516       490.825 DT     0135 Rx 8  00 00 1C 72 99 15 15 30 
   1517       492.950 DT     00C1 Rx 8  E0 06 BD 48 E0 04 ED 4E 
   1518       493.184 DT     00C5 Rx 8  60 0E 65 37 E0 21 80 86 
   1519       493.405 DT     00D1 Rx 7  80 00 BF FE 00 FE 53 
   1520       493.625 DT     01C7 Rx 7  06 AC 39 54 00 00 3F 
   1521       493.865 DT     01C8 Rx 8  40 00 06 A0 F9 5F 3F FF 
   1522       494.102 DT     01E5 Rx 8  5C 01 D5 50 02 00 01 C0 
   1523       494.256 DT     01F3 Rx 3  80 A0 00 
   1524       494.409 DT     0239 Rx 3  00 00 00 
   1525       494.651 DT     034C Rx 8  F0 A0 10 00 00 05 00 04 
   1526       494.823 DT     0350 Rx 4  00 00 00 38 
   1527       497.140 DT     00C7 Rx 4  00 00 00 00 
   1528       497.472 DT     00F9 Rx 8  00 00 40 00 00 00 00 00 
   1529       497.707 DT     00AA Rx 8  2C 47 2D 0C 46 52 F1 00 
   1530       497.915 DT     00BE Rx 6  08 01 00 03 E9 FD 
   1531       498.160 DT     00C9 Rx 8  84 08 C3 0A 00 10 18 00 
   1532       498.288 DT     00D3 Rx 2  2C 4B 
   1533       498.498 DT     00F1 Rx 6  00 02 00 41 FB FF 
   1534       498.721 DT     0189 Rx 7  0F FF 0F FF 30 01 00 
   1535       498.957 DT     018E Rx 8  00 00 00 6A E6 AE 06 AE 
   1536       499.193 DT     0191 Rx 8  06 AE 06 CC 06 AE 00 00 
   1537       499.418 DT     0197 Rx 7  3F FF 01 00 00 02 3E 
   1538       499.668 DT     019D Rx 8  00 00 00 00 00 07 E9 FF 
   1539       499.833 DT     01A6 Rx 4  44 06 A0 3C 
   1540       500.081 DT     0121 Rx 8  00 00 00 00 00 00 00 00 
   1541       500.327 DT     01AF Rx 8  00 00 80 00 00 38 00 FF 
   1542       500.548 DT     01A1 Rx 7  00 20 01 40 44 44 00 
   1543       500.662 DT     01A3 Rx 1  80 
   1544       500.882 DT     01AA Rx 7  40 5F D6 4F 6C C0 00 
   1545       501.119 DT     0137 Rx 8  0C 01 9E 6A 07 05 40 0D 
   1546       501.347 DT     01BA Rx 8  06 AE 6A E6 3F 6A E8 B5 
   1547       501.582 DT     01C3 Rx 8  06 AE 06 AE FF 30 00 01 
   1548       501.818 DT     01C4 Rx 8  27 62 C2 47 02 00 07 FF 
   1549       502.010 DT     01C5 Rx 6  2C 47 2C 47 38 2B 
   1550       502.181 DT     01CE Rx 4  18 00 07 FD 
   1551       502.331 DT     01DF Rx 3  85 18 00 
   1552       502.561 DT     01E7 Rx 8  60 E6 01 54 50 82 70 DE 
   1553       502.792 DT     01ED Rx 8  60 E6 01 54 01 A8 70 DE 
   1554       503.004 DT     01F4 Rx 6  00 00 00 20 00 00 
   1555       503.251 DT     01F5 Rx 8  0F 0F 00 01 00 00 08 00 
   1556       503.479 DT     00C1 Rx 8  F0 06 BD 48 F0 04 ED 4E 
   1557       503.711 DT     00C5 Rx 8  70 0E 65 37 F0 21 80 86 
   1558       503.936 DT     00D1 Rx 7  C0 00 FF FD 00 FD 73 
   1559       504.178 DT     01C8 Rx 8  80 00 06 A0 F9 5E 3F FE 
   1560       504.360 DT     01CC Rx 5  00 63 00 40 32 
   1561       504.595 DT     01E5 Rx 8  5C 01 D5 7F FE 00 02 EB 
   1562       504.843 DT     01E9 Rx 8  00 04 00 0E 00 00 00 00 
   1563       504.982 DT     01F8 Rx 2  FF FF 
   1564       505.224 DT     01FC Rx 8  00 8F 00 34 00 00 F1 20 
   1565       505.424 DT     0287 Rx 6  00 00 00 08 B5 D9 
   1566       505.659 DT     02C3 Rx 8  09 CB 06 AE 00 00 48 10 
   1567       505.835 DT     02DA Rx 4  00 00 00 00 
   1568       506.079 DT     03C1 Rx 8  07 65 F7 00 00 00 00 00 
   1569       506.240 DT     03C7 Rx 4  28 8A 07 74 
   1570       506.484 DT     03D1 Rx 8  01 0F 80 00 20 48 00 7F 
   1571       506.727 DT     03D3 Rx 8  00 88 20 00 3F FF 4D 47 
   1572       506.917 DT     03D9 Rx 5  02 00 00 00 00 
   1573       507.169 DT     03E9 Rx 8  00 00 00 00 00 00 00 05 
   1574       507.406 DT     03F1 Rx 8  00 9F 5A 28 05 FF 0A 8C 
   1575       507.644 DT     04C1 Rx 8  10 C9 77 4D 8C 18 00 00 
   1576       507.792 DT     04C7 Rx 3  10 2B 00 
   1577       508.017 DT     04C9 Rx 7  40 52 00 00 00 00 00 
   1578       508.251 DT     04D1 Rx 8  00 65 4B 02 D6 27 00 00 
   1579       508.485 DT     01C6 Rx 8  00 00 2C 54 00 C3 4E AD 
   1580       508.690 DT     00F1 Rx 6  1C 02 00 41 FB FE 
   1581       508.878 DT     0210 Rx 5  06 00 01 FD 00 
   1582       509.113 DT     04EB Rx 8  C0 00 D4 5D 00 00 F8 CA 
   1583       509.285 DT     0500 Rx 4  60 60 01 F4 
   1584       509.513 DT     0589 Rx 8  48 6D A6 66 8F 5F 50 C7 
   1585       509.740 DT     0773 Rx 7  00 28 00 00 00 00 00 
   1586       509.912 DT     00C7 Rx 4  00 00 00 00 
   1587       510.162 DT     00F9 Rx 8  00 00 40 00 00 00 00 00 
   1588       510.393 DT     077F Rx 7  00 18 00 00 00 00 00 
   1589       510.695 DT     00AA Rx 8  2C 47 2D 0C 40 52 F4 00 
   1590       510.902 DT     00BE Rx 6  0C 01 00 03 E9 FC 
   1591       511.146 DT     00C9 Rx 8  84 08 C4 0D 00 10 18 00 
   1592       511.274 DT     00D3 Rx 2  2C 4B 
   1593       511.533 DT     0139 Rx 8  00 48 00 00 00 00 00 00 
   1594       511.769 DT     018E Rx 8  00 00 00 6A E6 AE 06 AE 
   1595       512.005 DT     0191 Rx 8  06 AE 06 CC 06 AE 00 00 
   1596       512.236 DT     01E7 Rx 8  60 E6 01 54 50 82 70 DE 
   1597       512.466 DT     01ED Rx 8  60 E6 01 54 01 A8 70 DE 
   1598       513.023 DT     00C1 Rx 8  C0 06 BD 48 C0 04 ED 4E 
   1599       513.257 DT     00C5 Rx 8  40 0E 65 37 C0 21 80 86 
   1600       513.485 DT     00D1 Rx 7  00 00 00 00 00 00 13 
   1601       513.702 DT     01C7 Rx 7  06 AC 79 53 00 00 3F 
   1602       513.942 DT     01C8 Rx 8  C0 00 06 A0 F9 5D 3F FD 
   1603       514.165 DT     01E1 Rx 7  00 00 00 00 01 14 E0 
   1604       514.405 DT     01E5 Rx 8  5C 01 D5 10 00 00 01 7E 
   1605       514.605 DT     0214 Rx 6  06 00 63 FD 6C 35 
   1606       517.831 DT     01CE Rx 4  00 00 00 00 
   1607       518.148 DT     0230 Rx 8  00 00 30 00 00 00 1F FD 
   1608       518.350 DT     00F1 Rx 6  28 02 00 41 FB FD 
   1609       520.089 DT     0121 Rx 8  00 00 00 00 00 00 00 00 
   1610       520.221 DT     0124 Rx 2  1E 22 
   1611       520.642 DT     01F3 Rx 3  C0 E0 00 
   1612       522.110 DT     00C7 Rx 4  00 00 00 00 
   1613       522.443 DT     00F9 Rx 8  00 00 40 00 00 00 00 00 
   1614       522.671 DT     00AA Rx 8  2C 47 2D 0C 42 52 F3 00 
   1615       522.880 DT     00BE Rx 6  00 01 00 03 E9 FF 
   1616       523.110 DT     00C1 Rx 8  D0 06 BD 48 D0 04 ED 4E 
   1617       523.342 DT     00C5 Rx 8  50 0E 65 37 D0 21 80 86 
   1618       523.579 DT     00C9 Rx 8  84 08 C3 00 00 10 18 00 
   1619       523.801 DT     00D1 Rx 7  40 00 7F FF 00 FF 33 
   1620       523.930 DT     00D3 Rx 2  2C 4B 
   1621       524.152 DT     0189 Rx 7  4F FF 0F FF 30 00 00 
   1622       524.388 DT     018E Rx 8  00 00 00 6A E6 AE 06 AE 
   1623       524.625 DT     0191 Rx 8  06 AE 06 CC 06 AE 00 00 
   1624       524.845 DT     0197 Rx 7  3F FF 25 00 0F 02 7D 
   1625       525.092 DT     019D Rx 8  40 00 3F FF 00 07 F4 FF 
   1626       525.312 DT     01A1 Rx 7  00 20 01 40 44 44 00 
   1627       525.426 DT     01A3 Rx 1  80 
   1628       525.591 DT     01A6 Rx 4  44 06 A0 39 
   1629       525.811 DT     01AA Rx 7  60 5F D6 4F 6C C0 00 
   1630       526.057 DT     01AF Rx 8  00 00 80 00 00 38 00 FF 
   1631       526.286 DT     01BA Rx 8  06 AE 6A E6 3F 6A E8 B5 
   1632       526.522 DT     01C3 Rx 8  06 AE 06 AE FF 00 00 00 
