;$FILEVERSION=1.3
;$STARTTIME=44273.2164910382
;
;   D:\CANTRACE\gmnoautostop.trc
;   Start time: 3/18/2021 05:11:44.825.6
;-------------------------------------------------------------------------------
;   Bus  Name  Connection     Protocol
;   1    500k  500k@pcan_usb  CAN
;-------------------------------------------------------------------------------
;   Message Number
;   |         Time Offset (ms)
;   |         |       Bus
;   |         |       |    Type
;   |         |       |    |       ID (hex)
;   |         |       |    |       |    Reserved
;   |         |       |    |       |    |   Data Length Code
;   |         |       |    |       |    |   |    Data Bytes (hex) ...
;   |         |       |    |       |    |   |    |
;   |         |       |    |       |    |   |    |
;---+-- ------+------ +- --+-- ----+--- +- -+-- -+ -- -- -- -- -- -- --
     1)         0.991 1  Rx        00AA -  8    2C 51 2C 64 42 53 9B 00 
     2)         1.204 1  Rx        00BE -  6    00 28 00 05 AB D8 
     3)         1.418 1  Rx        00C9 -  8    80 0B 35 00 00 01 18 00 
     4)         1.546 1  Rx        00D3 -  2    2C 4F 
     5)         1.802 1  Rx        018E -  8    00 00 00 6E 66 E7 06 E7 
     6)         2.058 1  Rx        0191 -  8    06 E6 06 EA 06 E7 00 00 
     7)         2.228 1  Rx        00F1 -  6    16 28 00 41 AF FE 
     8)         2.484 1  Rx        01C6 -  8    00 00 2C 61 00 C3 4E 79 
     9)         2.698 1  Rx        01E7 -  8    61 40 01 C9 40 00 70 DE 
    10)         2.868 1  Rx        00C7 -  4    03 29 3A EA 
    11)         3.124 1  Rx        00F9 -  8    02 51 40 04 06 F6 DE 0B 
    12)         3.338 1  Rx        01ED -  8    61 40 01 C9 01 E8 70 DE 
    13)         3.508 1  Rx        0210 -  5    02 00 01 FF 00 
    14)         3.807 1  Rx        01A1 -  7    00 00 41 40 61 44 00 
    15)         3.892 1  Rx        01A3 -  1    80 
    16)         4.148 1  Rx        01AA -  7    40 63 16 69 6E A0 00 
    17)         4.361 1  Rx        01C3 -  8    06 E6 06 CE FF 10 00 03 
    18)         4.617 1  Rx        01C4 -  8    6D 62 C2 B9 06 00 03 FD 
    19)         4.831 1  Rx        0137 -  8    08 01 9D 66 23 9A 48 0A 
    20)         5.044 1  Rx        01C5 -  6    2C 28 2C 28 30 30 
    21)         5.215 1  Rx        01DF -  3    85 18 00 
    22)         5.428 1  Rx        01E5 -  8    5C 00 BC 7F D7 00 02 AA 
    23)         5.556 1  Rx        01F8 -  2    FF FF 
    24)         5.769 1  Rx        0287 -  6    C1 00 00 09 42 00 
    25)         7.263 1  Rx        00C1 -  8    E0 A5 AE 7F 63 7D 7C 47 
    26)         7.476 1  Rx        00C5 -  8    22 CE 61 A3 22 13 39 E0 
    27)         7.689 1  Rx        00D1 -  7    82 D2 BD 2C 47 B7 53 
    28)         7.903 1  Rx        01C7 -  7    06 CA 39 36 00 00 3F 
    29)         8.159 1  Rx        01C8 -  8    40 00 06 A0 F9 5F 3F FF 
    30)         8.372 1  Rx        0214 -  6    02 04 23 FB 24 1F 
    31)         9.396 1  Rx        01CC -  5    00 03 00 40 32 
    32)        10.548 1  Rx        03ED -  6    00 00 00 00 00 FF 
    33)        11.913 1  Rx        01CE -  4    18 00 07 FD 
    34)        12.169 1  Rx        00F1 -  6    22 28 00 41 AF FD 
    35)        12.468 1  Rx        0230 -  8    00 00 10 00 00 00 1F FF 
    36)        13.449 1  Rx        00AA -  8    2C 52 2C 65 44 53 99 00 
    37)        13.663 1  Rx        00BE -  6    04 28 00 05 AB D7 
    38)        13.919 1  Rx        00C9 -  8    80 0B 30 07 00 01 18 00 
    39)        14.047 1  Rx        00D3 -  2    2C 51 
    40)        14.260 1  Rx        018E -  8    00 00 00 6E 76 E9 06 E9 
    41)        14.516 1  Rx        0191 -  8    06 E7 06 EB 06 E9 00 00 
    42)        14.772 1  Rx        0139 -  8    00 40 00 00 00 00 00 00 
    43)        14.985 1  Rx        01E7 -  8    61 40 01 C9 40 00 70 DE 
    44)        15.241 1  Rx        01E5 -  8    5C 00 B7 1F D2 00 02 40 
    45)        15.412 1  Rx        00C7 -  4    03 2D 41 CF 
    46)        15.625 1  Rx        00F9 -  8    02 51 40 04 06 F6 DE 0B 
    47)        15.881 1  Rx        0260 -  8    11 6C 37 10 0C EC 5A 13 
    48)        16.095 1  Rx        01ED -  8    61 40 01 C9 01 F0 70 DE 
    49)        16.351 1  Rx        0261 -  6    07 8E 41 61 09 84 
    50)        16.564 1  Rx        0262 -  6    6C BA 7F 2B 42 24 
    51)        16.777 1  Rx        0189 -  7    8F FF 0F FF 2F FF FF 
    52)        16.991 1  Rx        0263 -  6    00 00 00 00 A0 60 
    53)        17.204 1  Rx        0197 -  7    3F FF 6C 43 0D 1E 1F 
    54)        17.417 1  Rx        0264 -  8    00 0E 1A 7C 84 8C 0A 01 
    55)        17.673 1  Rx        019D -  8    80 00 3F FE 00 08 50 43 
    56)        17.844 1  Rx        01A6 -  4    04 06 A0 07 
    57)        18.057 1  Rx        0265 -  8    1A 00 00 80 18 02 99 13 
    58)        18.313 1  Rx        00C1 -  8    F0 A6 CD 15 73 7E 9B 19 
    59)        18.527 1  Rx        00C5 -  8    32 D0 9F BE 32 14 56 8F 
    60)        18.740 1  Rx        00D1 -  7    C2 D2 FD 2B 47 B6 73 
    61)        18.996 1  Rx        01AF -  8    00 00 00 00 30 A6 00 FF 
    62)        19.209 1  Rx        01C8 -  8    80 00 06 A0 F9 5E 3F FE 
    63)        19.465 1  Rx        01E1 -  7    00 00 00 00 01 14 E0 
    64)        19.679 1  Rx        01E9 -  8    40 24 00 0E 00 0B 00 00 
    65)        19.977 1  Rx        01F5 -  8    03 03 00 04 00 00 09 00 
    66)        20.148 1  Rx        0232 -  8    C1 00 A1 08 00 52 00 AA 
    67)        22.025 1  Rx        02F9 -  7    33 01 07 08 0F 02 25 
    68)        22.239 1  Rx        00F1 -  6    3E 28 00 41 AF FC 
    69)        24.500 1  Rx        01F3 -  3    80 A0 00 
    70)        24.884 1  Rx        01E5 -  8    5C 00 AF 3F D1 00 02 57 
    71)        26.548 1  Rx        00AA -  8    2C 55 2C 68 46 53 95 00 
    72)        26.761 1  Rx        00BE -  6    08 28 00 05 AB D6 
    73)        27.017 1  Rx        00C9 -  8    80 0B 2C 0A 00 01 18 00 
    74)        27.145 1  Rx        00D3 -  2    2C 55 
    75)        27.358 1  Rx        00C1 -  8    C0 A7 EC B4 43 7F B9 FE 
    76)        27.614 1  Rx        00C5 -  8    02 D1 C0 37 02 15 77 A2 
    77)        27.785 1  Rx        00D1 -  7    02 D2 3D 2E 47 B9 13 
    78)        27.998 1  Rx        00C7 -  4    03 30 46 FC 
    79)        28.212 1  Rx        00F9 -  8    02 55 40 04 00 F6 EB 0B 
    80)        28.425 1  Rx        018E -  8    00 00 00 6E 96 E9 06 E9 
    81)        28.681 1  Rx        0191 -  8    06 E9 06 EB 06 E9 00 00 
    82)        28.894 1  Rx        01C6 -  8    00 00 2C 66 00 03 4E 68 
    83)        29.150 1  Rx        01A1 -  7    00 00 41 40 61 44 00 
    84)        29.236 1  Rx        01A3 -  1    80 
    85)        29.449 1  Rx        01AA -  7    60 63 16 68 6E B0 00 
    86)        29.705 1  Rx        01BA -  8    06 CF 6C F6 81 6C F9 41 
    87)        29.961 1  Rx        01C3 -  8    06 E9 06 CF FF 20 00 02 
    88)        30.174 1  Rx        01C4 -  8    00 62 C2 B7 00 00 00 00 
    89)        30.345 1  Rx        01C5 -  6    2C 2A 2C 2A 30 31 
    90)        30.601 1  Rx        01C7 -  7    06 CC 79 33 00 00 3F 
    91)        30.814 1  Rx        01C8 -  8    C0 00 06 A0 F9 5D 3F FD 
    92)        31.028 1  Rx        01CC -  5    00 03 00 40 00 
    93)        31.156 1  Rx        01DF -  3    85 18 00 
    94)        31.369 1  Rx        01E7 -  8    61 40 01 CB 40 00 70 DE 
    95)        31.625 1  Rx        01ED -  8    61 40 01 CB 01 E8 70 DE 
    96)        31.838 1  Rx        01F4 -  6    00 00 00 20 00 00 
    97)        31.966 1  Rx        01F8 -  2    FF FF 
    98)        32.180 1  Rx        0287 -  6    00 00 00 09 41 00 
    99)        32.350 1  Rx        01CE -  4    00 00 00 00 
   100)        32.606 1  Rx        02C3 -  8    0A 77 06 CF 00 00 3A 00 
   101)        32.777 1  Rx        02DA -  4    00 00 00 00 
   102)        32.990 1  Rx        032A -  8    07 8E 41 6A 6C BA 7E 5B 
   103)        33.161 1  Rx        0348 -  5    01 87 01 8A 1B 
   104)        33.374 1  Rx        034A -  5    01 84 01 88 1B 
   105)        33.630 1  Rx        03C1 -  8    07 65 F7 00 00 00 00 00 
   106)        33.758 1  Rx        03C7 -  4    38 8A 07 73 
   107)        34.014 1  Rx        03D1 -  8    01 12 80 00 00 4B 00 3F 
   108)        34.228 1  Rx        03D3 -  8    00 91 20 00 7F FD 36 C5 
   109)        34.441 1  Rx        03D9 -  5    02 00 CC 00 00 
   110)        34.654 1  Rx        03E9 -  8    03 17 1F 88 03 21 1F FD 
   111)        34.868 1  Rx        00F1 -  6    0A 28 00 41 AF FF 
   112)        35.124 1  Rx        01E5 -  8    5C 00 AA 5F D8 00 02 79 
   113)        37.172 1  Rx        0142 -  7    00 00 00 00 00 00 00 
   114)        37.385 1  Rx        00C1 -  8    10 A9 2B 09 53 80 D9 25 
   115)        37.598 1  Rx        00C5 -  8    12 D2 DE 4A 12 16 94 8B 
   116)        37.812 1  Rx        00D1 -  7    42 D2 7D 2D 47 B8 33 
   117)        38.068 1  Rx        01C8 -  8    00 00 06 A0 F9 60 00 00 
   118)        38.324 1  Rx        01E9 -  8    40 20 00 0E 00 0A 00 00 
   119)        38.580 1  Rx        034C -  8    E9 9B 10 0A 03 D8 00 20 
   120)        38.793 1  Rx        00AA -  8    2C 56 2C 69 40 53 97 00 
   121)        39.006 1  Rx        00BE -  6    0C 28 00 05 AB D5 
   122)        39.220 1  Rx        00C9 -  8    80 0B 2C 0D 00 01 18 00 
   123)        39.348 1  Rx        00D3 -  2    2C 55 
   124)        39.604 1  Rx        018E -  8    00 00 00 6E 96 EB 06 EB 
   125)        39.817 1  Rx        0191 -  8    06 E9 06 EB 06 EB 00 00 
   126)        40.073 1  Rx        01E7 -  8    61 40 01 CB 40 00 70 DE 
   127)        40.286 1  Rx        01ED -  8    61 40 01 CB 01 F0 70 DE 
   128)        40.457 1  Rx        00C7 -  4    03 34 4D F4 
   129)        40.713 1  Rx        00F9 -  8    02 55 40 04 00 F6 EB 0B 
   130)        41.652 1  Rx        0189 -  7    CF FF 0F FF 2F FE FF 
   131)        41.908 1  Rx        0197 -  7    3F FF 00 42 00 1E 22 
   132)        42.121 1  Rx        019D -  8    C0 00 3F FD 00 08 37 42 
   133)        42.334 1  Rx        00F1 -  6    16 28 00 41 AF FE 
   134)        42.505 1  Rx        01A6 -  4    04 06 A0 00 
   135)        42.761 1  Rx        01AF -  8    00 00 00 00 30 AA 00 FF 
   136)        43.017 1  Rx        01F5 -  8    03 03 00 04 00 00 09 00 
   137)        43.230 1  Rx        01FC -  8    FC 0A 01 A0 02 C0 A2 BC 
   138)        44.638 1  Rx        01E1 -  7    00 00 00 00 02 18 D0 
   139)        44.980 1  Rx        01E5 -  8    5C 00 A2 7F D6 00 02 8F 
   140)        47.198 1  Rx        00C1 -  8    20 AA 49 FD A3 82 17 52 
   141)        47.411 1  Rx        00C5 -  8    22 D3 FE D0 22 18 D3 04 
   142)        47.625 1  Rx        00D1 -  7    82 D2 BD 2C 47 B7 53 
   143)        47.838 1  Rx        01C7 -  7    06 CC B9 32 00 00 3F 
   144)        48.094 1  Rx        01C8 -  8    40 00 06 A0 F9 5F 3F FF 
   145)        49.417 1  Rx        01CC -  5    00 03 00 40 16 
   146)        50.867 1  Rx        00AA -  8    2C 58 2C 6B 42 53 94 00 
   147)        51.081 1  Rx        00BE -  6    00 28 00 05 AB D8 
   148)        51.337 1  Rx        00C9 -  8    80 0B 29 00 00 01 18 00 
   149)        51.465 1  Rx        00D3 -  2    2C 58 
   150)        51.678 1  Rx        018E -  8    00 00 00 6E B6 EA 06 EA 
   151)        51.934 1  Rx        0191 -  8    06 EB 06 EC 06 EA 00 00 
   152)        52.147 1  Rx        00F1 -  6    22 28 00 41 AF FD 
   153)        52.403 1  Rx        00D0 -  8    80 00 80 00 80 00 80 00 
   154)        52.617 1  Rx        01C6 -  8    00 00 2C 67 00 43 4E 63 
   155)        52.787 1  Rx        00C7 -  4    03 37 53 31 
   156)        53.001 1  Rx        00F9 -  8    02 57 40 03 F8 F6 F8 0B 
   157)        53.171 1  Rx        01CE -  4    08 00 07 FF 
   158)        53.427 1  Rx        01A1 -  7    00 00 41 40 61 44 00 
   159)        53.513 1  Rx        01A3 -  1    80 
   160)        53.726 1  Rx        01AA -  7    00 63 16 68 6E C0 00 
   161)        53.982 1  Rx        01C3 -  8    06 EB 06 D0 FF 30 00 01 
   162)        54.195 1  Rx        01C4 -  8    27 62 C2 B6 02 00 07 FF 
   163)        54.409 1  Rx        01C5 -  6    2C 2C 2C 2C 30 33 
   164)        54.537 1  Rx        01DF -  3    85 18 00 
   165)        54.793 1  Rx        01E7 -  8    61 40 01 CB 40 00 70 DE 
   166)        55.006 1  Rx        01ED -  8    61 40 01 CB 01 F0 70 DE 
   167)        55.262 1  Rx        01E5 -  8    5C 00 9C 1F D9 00 02 2C 
   168)        55.518 1  Rx        01F1 -  8    A2 0A 00 00 08 00 00 7A 
   169)        55.646 1  Rx        01F8 -  2    FF FF 
   170)        55.817 1  Rx        0210 -  5    04 00 01 FE 00 
   171)        56.030 1  Rx        0287 -  6    43 00 00 09 40 00 
   172)        56.243 1  Rx        03F3 -  6    C0 20 1B 51 36 1B 
   173)        56.371 1  Rx        03FB -  2    02 19 
   174)        56.969 1  Rx        01F3 -  3    C0 E0 00 
   175)        57.310 1  Rx        00C1 -  8    30 AB 69 76 B3 83 36 9C 
   176)        57.523 1  Rx        00C5 -  8    72 D5 3D D3 32 19 F4 A1 
   177)        57.737 1  Rx        00D1 -  7    C2 D2 FD 2B 47 B6 73 
   178)        57.993 1  Rx        017D -  8    22 24 62 FF 0F 6B 00 14 
   179)        58.249 1  Rx        01C8 -  8    80 00 06 A0 F9 5E 3F FE 
   180)        58.462 1  Rx        01E9 -  8    40 20 00 0E 00 09 00 00 
   181)        58.675 1  Rx        0214 -  6    04 04 43 FA 48 2A 
   182)        59.657 1  Rx        0451 -  5    00 00 00 00 00 
   183)        60.553 1  Rx        0170 -  3    00 00 00 
   184)        62.046 1  Rx        0182 -  8    A3 0A 01 00 00 00 00 00 
   185)        62.259 1  Rx        00F1 -  6    3E 28 00 41 AF FC 
   186)        62.515 1  Rx        0230 -  8    00 00 20 00 00 00 1F FE 
   187)        63.411 1  Rx        00AA -  8    2C 57 2C 6B 44 53 93 00 
   188)        63.582 1  Rx        00BE -  6    04 28 00 05 AB D7 
   189)        63.838 1  Rx        00C9 -  8    80 0B 27 07 00 01 18 00 
   190)        63.966 1  Rx        00D3 -  2    2C 58 
   191)        64.222 1  Rx        018E -  8    00 00 00 6E B6 EB 06 EB 
   192)        64.435 1  Rx        0191 -  8    06 EB 06 EC 06 EB 00 00 
   193)        64.691 1  Rx        01E7 -  8    61 40 01 CC 40 00 70 DE 
   194)        64.905 1  Rx        01ED -  8    61 40 01 CC 01 F0 70 DE 
   195)        65.161 1  Rx        01E5 -  8    5C 00 94 3F DC 00 02 47 
   196)        65.417 1  Rx        03C9 -  8    07 06 00 00 00 00 00 00 
   197)        65.587 1  Rx        00C7 -  4    03 3B 5A 3E 
   198)        65.801 1  Rx        00F9 -  8    02 57 40 03 F8 F6 F8 0B 
   199)        66.611 1  Rx        0189 -  7    0F FF 0F FF 30 01 FF 
   200)        66.825 1  Rx        0197 -  7    3F FF 24 42 0F 1E 21 
   201)        67.123 1  Rx        019D -  8    00 00 00 00 00 08 18 42 
   202)        67.251 1  Rx        01A6 -  4    04 06 A0 0D 
   203)        67.507 1  Rx        00C1 -  8    00 AC 89 09 83 84 55 DB 
   204)        67.720 1  Rx        00C5 -  8    42 D6 5C 35 42 1A 11 EA 
   205)        67.934 1  Rx        00D1 -  7    02 D2 3D 2E 47 B9 13 
   206)        68.190 1  Rx        01AF -  8    00 00 00 00 30 AD 00 FF 
   207)        68.403 1  Rx        01C7 -  7    06 CE F9 2F 00 00 3F 
   208)        68.616 1  Rx        01C8 -  8    C0 00 06 A0 F9 5D 3F FD 
   209)        68.872 1  Rx        01F5 -  8    03 03 00 04 00 00 09 00 
   210)        69.128 1  Rx        0232 -  8    C1 00 A1 08 00 52 00 AA 
   211)        69.299 1  Rx        0234 -  5    00 41 3F 40 00 
   212)        69.470 1  Rx        01CC -  5    00 04 00 40 24 
   213)        71.944 1  Rx        01CE -  4    10 00 07 FE 
   214)        72.200 1  Rx        00F1 -  6    0A 28 00 41 AF FF 
   215)        72.456 1  Rx        02F9 -  7    3B 01 0A 08 16 02 28 
   216)        74.547 1  Rx        0160 -  5    7E 5B A3 0A 03 
   217)        75.144 1  Rx        01E5 -  8    5C 00 8F 5F DC 00 02 62 
   218)        76.040 1  Rx        00AA -  8    2C 59 2C 6C 46 53 91 00 
   219)        76.254 1  Rx        00BE -  6    08 28 00 05 AB D6 
   220)        76.510 1  Rx        00C9 -  8    80 0B 25 0A 00 01 18 00 
   221)        76.638 1  Rx        00D3 -  2    2C 57 
   222)        76.851 1  Rx        018E -  8    00 00 00 6E A6 EB 06 EB 
   223)        77.107 1  Rx        0191 -  8    06 EA 06 ED 06 EB 00 00 
   224)        77.320 1  Rx        01E1 -  7    00 00 00 00 03 1C C0 
   225)        77.534 1  Rx        00C1 -  8    10 AE C8 99 93 85 75 AE 
   226)        77.790 1  Rx        00C5 -  8    52 D7 7D 2E 52 1B 33 8A 
   227)        77.918 1  Rx        00C7 -  4    03 3F 61 5A 
   228)        78.131 1  Rx        00D1 -  7    42 D2 7D 2D 47 B8 33 
   229)        78.387 1  Rx        00F9 -  8    02 59 40 03 EC F7 05 0B 
   230)        78.600 1  Rx        01A1 -  7    00 00 41 40 61 44 00 
   231)        78.728 1  Rx        01A3 -  1    80 
   232)        78.942 1  Rx        01AA -  7    20 63 16 68 6E D0 00 
   233)        79.155 1  Rx        01BA -  8    06 D0 6D 06 81 6D 09 40 
   234)        79.411 1  Rx        01C3 -  8    06 EA 06 D0 FF 00 00 00 
   235)        79.667 1  Rx        01C4 -  8    4A 62 C2 B5 04 00 05 FE 
   236)        79.838 1  Rx        01C5 -  6    2C 2D 2C 2D 30 38 
   237)        80.094 1  Rx        01C6 -  8    00 00 2C 6C 00 83 4E 4E 
   238)        80.350 1  Rx        01C8 -  8    00 00 06 A0 F9 60 00 00 
   239)        80.478 1  Rx        01DF -  3    85 18 00 
   240)        80.691 1  Rx        01E7 -  8    61 40 01 CC 40 00 70 DE 
   241)        80.990 1  Rx        01E9 -  8    40 20 00 0E 00 08 00 00 
   242)        81.203 1  Rx        01ED -  8    61 40 01 CC 01 F0 70 DE 
   243)        81.416 1  Rx        01F4 -  6    00 00 00 20 00 00 
   244)        81.544 1  Rx        01F8 -  2    FF FF 
   245)        81.672 1  Rx        022A -  3    8D 88 2A 
   246)        81.928 1  Rx        0287 -  6    82 00 00 09 40 00 
   247)        82.142 1  Rx        02C3 -  8    0A 77 06 D0 00 00 3A 00 
   248)        82.312 1  Rx        00F1 -  6    16 27 00 41 B1 FE 
   249)        82.483 1  Rx        02DA -  4    00 00 01 FF 
   250)        82.696 1  Rx        0348 -  5    01 82 01 82 1B 
   251)        82.867 1  Rx        034A -  5    01 7E 01 80 1B 
   252)        83.123 1  Rx        03FC -  8    48 3C 13 58 57 00 58 57 
   253)        84.787 1  Rx        012A -  8    00 F0 70 6C 00 00 10 B5 
   254)        85.043 1  Rx        01E5 -  8    5C 00 87 7F E0 00 02 7E 
   255)        87.006 1  Rx        01F3 -  3    00 20 00 
   256)        87.304 1  Rx        00C1 -  8    20 AF E8 81 A3 87 B5 3C 
   257)        87.518 1  Rx        00C5 -  8    62 D8 9B DD 62 1D 73 22 
   258)        87.731 1  Rx        00D1 -  7    82 D2 BD 2C 47 B7 53 
   259)        87.944 1  Rx        01C7 -  7    06 CE 39 32 00 00 3F 
   260)        88.200 1  Rx        01C8 -  8    40 00 06 A0 F9 5F 3F FF 
   261)        88.414 1  Rx        034C -  8    F1 98 10 08 03 DA 00 1C 
   262)        88.798 1  Rx        00AA -  8    2C 5B 2C 6E 40 53 92 00 
   263)        89.011 1  Rx        00BE -  6    0C 28 00 05 AB D5 
   264)        89.267 1  Rx        00C9 -  8    80 0B 20 0D 00 01 18 00 
   265)        89.395 1  Rx        00D3 -  2    2C 5B 
   266)        89.651 1  Rx        018E -  8    00 00 00 6E C6 EC 06 EC 
   267)        89.864 1  Rx        0191 -  8    06 EC 06 ED 06 EC 00 00 
   268)        90.035 1  Rx        01CC -  5    00 04 00 40 32 
   269)        90.205 1  Rx        01CF -  3    33 08 05 
   270)        90.419 1  Rx        01E7 -  8    61 40 01 CD 40 00 70 DE 
   271)        90.589 1  Rx        00C7 -  4    03 42 66 B5 
   272)        90.803 1  Rx        00F9 -  8    02 59 40 03 EC F7 05 0B 
   273)        91.059 1  Rx        01ED -  8    61 40 01 CD 01 F0 70 DE 
   274)        91.656 1  Rx        0189 -  7    4F FF 0F FF 30 00 FF 
   275)        91.869 1  Rx        0197 -  7    3F FF 48 42 0E 1E 20 
   276)        92.125 1  Rx        019D -  8    40 00 3F FF 00 07 FB 42 
   277)        92.296 1  Rx        00F1 -  6    22 28 00 41 AF FD 
   278)        92.467 1  Rx        01A6 -  4    04 06 A0 0A 
   279)        92.723 1  Rx        01AF -  8    00 00 00 00 30 B1 00 FF 
   280)        92.936 1  Rx        01CE -  4    18 00 07 FD 
   281)        93.149 1  Rx        01F5 -  8    03 03 00 04 00 00 09 00 
   282)        93.405 1  Rx        01FC -  8    FC 3E 01 6C 02 C0 F2 C6 
   283)        94.685 1  Rx        0135 -  8    02 00 1B 6E 11 15 15 02 
   284)        95.069 1  Rx        01E5 -  8    5C 00 83 1F E2 00 02 1C 
   285)        97.245 1  Rx        00C1 -  8    70 B0 08 AD B3 88 D4 E8 
   286)        97.459 1  Rx        00C5 -  8    72 DA DB E5 72 1E 90 CE 
   287)        97.672 1  Rx        00D1 -  7    C2 D2 FD 2B 47 B6 73 
   288)        97.928 1  Rx        01C8 -  8    80 00 06 A0 F9 5E 3F FE 
   289)        98.184 1  Rx        01E9 -  8    40 18 00 0E 00 08 00 00 
   290)        98.909 1  Rx        03CF -  2    80 82 
   291)       101.000 1  Rx        00AA -  8    2C 5B 2C 6F 42 53 90 00 
   292)       101.213 1  Rx        00BE -  6    00 28 00 05 AB D8 
   293)       101.469 1  Rx        00C9 -  8    80 0B 17 00 00 01 18 00 
   294)       101.597 1  Rx        00D3 -  2    2C 5B 
   295)       101.853 1  Rx        018E -  8    00 00 00 6E C6 ED 06 ED 
   296)       102.067 1  Rx        0191 -  8    06 EC 06 ED 06 ED 00 00 
   297)       102.280 1  Rx        00F1 -  6    3E 28 00 41 AF FC 
   298)       102.493 1  Rx        01C6 -  8    00 00 2C 6D 00 C3 4E 49 
   299)       102.749 1  Rx        01E7 -  8    61 40 01 CE 40 00 70 DE 
   300)       102.920 1  Rx        00C7 -  4    03 45 6C 20 
   301)       103.133 1  Rx        00F9 -  8    02 5C 40 03 DE F7 12 0B 
   302)       103.389 1  Rx        01ED -  8    61 40 01 CE 01 F0 70 DE 
   303)       103.603 1  Rx        01A1 -  7    00 00 41 40 61 44 00 
   304)       103.688 1  Rx        01A3 -  1    80 
   305)       103.901 1  Rx        01AA -  7    40 63 16 68 6E D0 00 
   306)       104.157 1  Rx        01C3 -  8    06 EC 06 D1 FF 10 00 03 
   307)       104.371 1  Rx        01C4 -  8    6D 62 C2 B4 06 00 03 FD 
   308)       104.627 1  Rx        01C5 -  6    2C 2F 2C 2F 30 3E 
   309)       104.797 1  Rx        0137 -  8    08 01 9D 66 23 9A 48 0A 
   310)       104.968 1  Rx        01DF -  3    85 18 00 
   311)       105.224 1  Rx        01E5 -  8    5C 00 7D 3F E5 00 02 39 
   312)       105.352 1  Rx        01F8 -  2    FF FF 
   313)       105.523 1  Rx        0210 -  5    06 00 01 FD 00 
   314)       105.736 1  Rx        0287 -  6    C1 00 00 09 3F 00 
   315)       107.144 1  Rx        01E1 -  7    00 00 00 00 00 10 F0 
   316)       107.443 1  Rx        00C1 -  8    40 B1 29 45 83 89 F5 75 
   317)       107.613 1  Rx        00C5 -  8    42 DB FD 52 42 1F B3 04 
   318)       107.827 1  Rx        00D1 -  7    02 D2 3D 2E 47 B9 13 
   319)       108.040 1  Rx        01C7 -  7    06 CE 79 31 00 00 3F 
   320)       108.296 1  Rx        01C8 -  8    C0 00 06 A0 F9 5D 3F FD 
   321)       108.509 1  Rx        0214 -  6    06 04 63 F9 6C 35 
   322)       109.405 1  Rx        01CC -  5    00 04 00 40 00 
   323)       111.922 1  Rx        01CE -  4    00 00 00 00 
   324)       112.178 1  Rx        00F1 -  6    0A 27 00 41 B1 FF 
   325)       112.434 1  Rx        0230 -  8    00 00 30 00 00 00 1F FD 
   326)       113.373 1  Rx        00AA -  8    2C 5E 2C 70 44 53 8E 00 
   327)       113.586 1  Rx        00BE -  6    04 28 00 05 AB D7 
   328)       113.842 1  Rx        00C9 -  8    80 0B 11 07 00 01 18 00 
   329)       113.970 1  Rx        00D3 -  2    2C 5E 
   330)       114.184 1  Rx        018E -  8    00 00 00 6E D6 EE 06 EE 
   331)       114.440 1  Rx        0191 -  8    06 ED 06 EE 06 EE 00 00 
   332)       114.653 1  Rx        01E7 -  8    61 40 01 CE 40 00 70 DE 
   333)       114.909 1  Rx        0139 -  8    00 40 00 00 00 00 00 00 
   334)       115.165 1  Rx        01ED -  8    61 40 01 CE 01 F0 70 DE 
   335)       115.378 1  Rx        01E5 -  8    5C 00 79 5F E3 00 02 53 
   336)       115.549 1  Rx        00C7 -  4    03 49 73 55 
   337)       115.762 1  Rx        0260 -  8    21 6C 37 10 0C EC 5A 23 
   338)       116.018 1  Rx        00F9 -  8    02 5C 40 03 DE F7 12 0B 
   339)       116.274 1  Rx        0261 -  6    07 8E 41 60 11 84 
   340)       116.488 1  Rx        0262 -  6    6C BA 7F 39 82 3A 
   341)       116.701 1  Rx        0263 -  6    00 00 00 00 C0 64 
   342)       116.914 1  Rx        0189 -  7    8F FF 0F FF 2F FF FF 
   343)       117.128 1  Rx        0264 -  8    00 0E 1A 7C 84 98 92 1E 
   344)       117.341 1  Rx        0197 -  7    3F FF 6C 42 0D 1E 1F 
   345)       117.597 1  Rx        0265 -  8    1C 00 00 80 18 02 99 15 
   346)       117.810 1  Rx        019D -  8    80 00 3F FE 00 07 E8 42 
   347)       118.066 1  Rx        00C1 -  8    50 B3 6A 21 D3 8A 15 6E 
   348)       118.280 1  Rx        00C5 -  8    92 DC 1C 6A 52 20 D0 D3 
   349)       118.493 1  Rx        00D1 -  7    42 D2 7D 2D 47 B8 33 
   350)       118.664 1  Rx        01A6 -  4    04 06 A0 07 
   351)       118.962 1  Rx        01AF -  8    00 00 00 00 30 B5 00 FF 
   352)       119.133 1  Rx        01C8 -  8    00 00 06 A0 F9 60 00 00 
   353)       119.389 1  Rx        01E9 -  8    40 18 00 0E 00 07 00 00 
   354)       119.560 1  Rx        01F3 -  3    40 60 00 
   355)       119.773 1  Rx        01F5 -  8    03 03 00 04 00 00 09 00 
   356)       120.029 1  Rx        0232 -  8    C1 00 A1 08 00 52 00 AA 
   357)       122.034 1  Rx        02F9 -  7    43 01 0D 08 1D 02 2F 
   358)       122.248 1  Rx        00F1 -  6    16 28 00 41 AF FE 
   359)       124.637 1  Rx        032A -  8    07 8E 41 6A 6C BA 7E 5B 
   360)       124.936 1  Rx        01E5 -  8    5C 00 74 7F E1 00 02 6C 
   361)       126.130 1  Rx        00AA -  8    2C 5F 2C 72 46 53 8B 00 
   362)       126.344 1  Rx        00BE -  6    08 28 00 05 AB D6 
   363)       126.600 1  Rx        00C9 -  8    80 0B 12 0A 00 01 18 00 
   364)       126.728 1  Rx        00D3 -  2    2C 5E 
   365)       126.984 1  Rx        018E -  8    00 00 00 6E D6 EE 06 EE 
   366)       127.197 1  Rx        0191 -  8    06 ED 06 EE 06 EE 00 00 
   367)       127.410 1  Rx        00C1 -  8    60 B4 8A 37 E3 8B 36 07 
   368)       127.624 1  Rx        00C5 -  8    A2 DD 3E 0E A2 22 11 4E 
   369)       127.837 1  Rx        00D1 -  7    82 CD BD 31 47 B7 53 
   370)       128.008 1  Rx        00C7 -  4    03 4C 78 C3 
   371)       128.264 1  Rx        00F9 -  8    02 60 40 03 D2 F7 1F 0B 
   372)       128.477 1  Rx        01C6 -  8    00 00 2C 6E 00 03 4E 48 
   373)       128.733 1  Rx        01C7 -  7    06 CE B9 30 00 00 3F 
   374)       128.989 1  Rx        01C8 -  8    40 00 06 A0 F9 5F 3F FF 
   375)       129.160 1  Rx        01A1 -  7    00 00 41 40 61 44 00 
   376)       129.288 1  Rx        01A3 -  1    80 
   377)       129.501 1  Rx        01AA -  7    60 63 16 68 6E E0 00 
   378)       129.714 1  Rx        01BA -  8    06 D2 6D 26 82 6D 29 3E 
   379)       129.970 1  Rx        01C3 -  8    06 ED 06 D2 FF 20 00 02 
   380)       130.226 1  Rx        01C4 -  8    00 62 C2 B2 00 00 00 00 
   381)       130.397 1  Rx        01C5 -  6    2C 30 2C 30 30 43 
   382)       130.610 1  Rx        01CC -  5    00 05 00 40 16 
   383)       130.738 1  Rx        01DF -  3    85 18 00 
   384)       130.994 1  Rx        01E7 -  8    61 40 01 CF 40 00 70 DE 
   385)       131.208 1  Rx        01ED -  8    61 40 01 CF 01 F0 70 DE 
   386)       131.421 1  Rx        01F4 -  6    00 00 00 20 00 00 
   387)       131.549 1  Rx        01F8 -  2    FF FF 
   388)       131.762 1  Rx        0287 -  6    00 00 00 09 3E 00 
   389)       132.018 1  Rx        02C3 -  8    0A 77 06 D2 00 00 3A 00 
   390)       132.189 1  Rx        00F1 -  6    22 28 00 41 AF FD 
   391)       132.359 1  Rx        01CE -  4    08 00 07 FF 
   392)       132.530 1  Rx        02DA -  4    00 00 02 FE 
   393)       132.743 1  Rx        0348 -  5    01 76 01 78 1B 
   394)       132.957 1  Rx        034A -  5    01 75 01 78 1B 
   395)       133.170 1  Rx        03C1 -  8    07 65 F7 00 00 00 00 00 
   396)       133.341 1  Rx        03C7 -  4    08 8A 07 76 
   397)       133.554 1  Rx        03D1 -  8    01 12 80 00 00 5E 00 3F 
   398)       133.810 1  Rx        03D3 -  8    00 91 20 00 00 00 36 00 
   399)       133.981 1  Rx        03D9 -  5    02 00 C9 00 00 
   400)       134.237 1  Rx        03E9 -  8    02 F8 1F 8B 03 1F 00 00 
   401)       134.663 1  Rx        0142 -  7    00 00 00 00 00 00 00 
   402)       135.047 1  Rx        01E5 -  8    5C 00 72 1F EC 00 02 15 
   403)       137.138 1  Rx        01E1 -  7    00 00 00 00 01 14 E0 
   404)       137.394 1  Rx        00C1 -  8    70 B5 AB 26 F3 8D 77 02 
   405)       137.607 1  Rx        00C5 -  8    B2 DE 5D 67 B2 23 34 06 
   406)       137.821 1  Rx        00D1 -  7    C2 CD FD 30 47 B6 73 
   407)       138.077 1  Rx        01C8 -  8    80 00 06 A0 F9 5E 3F FE 
   408)       138.333 1  Rx        01E9 -  8    40 14 00 0E 00 07 00 00 
   409)       138.546 1  Rx        034C -  8    F9 8E 10 07 03 D8 00 14 
   410)       138.802 1  Rx        00AA -  8    2C 61 2C 74 40 53 8C 00 
   411)       139.015 1  Rx        00BE -  6    0C 28 00 05 AB D5 
   412)       139.229 1  Rx        00C9 -  8    80 0B 17 0D 00 01 18 00 
   413)       139.357 1  Rx        00D3 -  2    2C 60 
   414)       139.613 1  Rx        018E -  8    00 00 00 6E E6 EF 06 EF 
   415)       139.826 1  Rx        0191 -  8    06 EE 06 EF 06 EF 00 00 
   416)       140.082 1  Rx        01E7 -  8    61 40 01 CF 40 00 70 DE 
   417)       140.295 1  Rx        01ED -  8    61 40 01 CF 01 F8 70 DE 
   418)       140.466 1  Rx        00C7 -  4    03 50 80 05 
   419)       140.722 1  Rx        00F9 -  8    02 60 40 03 D2 F7 1F 0B 
   420)       141.661 1  Rx        0189 -  7    CF FF 0F FF 2F FE FF 
   421)       141.874 1  Rx        0197 -  7    3F FF 00 43 00 1E 22 
   422)       142.130 1  Rx        019D -  8    C0 00 3F FD 00 07 E0 43 
   423)       142.343 1  Rx        00F1 -  6    3E 28 00 41 AF FC 
   424)       142.514 1  Rx        01A6 -  4    04 06 A0 00 
   425)       142.727 1  Rx        01AF -  8    00 00 00 00 30 B9 00 FF 
   426)       142.983 1  Rx        01F5 -  8    03 03 00 04 00 00 09 00 
   427)       143.239 1  Rx        01FC -  8    FC 0A 01 04 02 C0 02 0C 
   428)       144.519 1  Rx        01F3 -  3    80 A0 00 
   429)       144.946 1  Rx        01E5 -  8    5C 00 6D 3F F6 00 02 3A 
   430)       147.207 1  Rx        00C1 -  8    40 B6 CB 9F C3 8E 97 A1 
   431)       147.421 1  Rx        00C5 -  8    82 E0 9E B3 82 24 52 3D 
   432)       147.634 1  Rx        00D1 -  7    02 CD 3D 33 47 B9 13 
   433)       147.847 1  Rx        01C7 -  7    06 D0 F9 2D 00 00 3F 
   434)       148.103 1  Rx        01C8 -  8    C0 00 06 A0 F9 5D 3F FD 
   435)       149.426 1  Rx        01CC -  5    00 05 00 40 24 
   436)       151.389 1  Rx        00AA -  8    2C 62 2C 77 42 53 88 00 
   437)       151.559 1  Rx        00BE -  6    00 28 00 05 AB D8 
   438)       151.815 1  Rx        00C9 -  8    80 0B 16 00 00 01 18 00 
   439)       151.986 1  Rx        00D3 -  2    2C 62 
   440)       152.242 1  Rx        00D0 -  8    80 00 80 00 80 00 80 00 
   441)       152.413 1  Rx        00F1 -  6    0A 28 00 41 AF FF 
   442)       152.669 1  Rx        018E -  8    00 00 00 6E F6 EF 06 EF 
   443)       152.839 1  Rx        00C7 -  4    03 53 85 79 
   444)       153.052 1  Rx        00F9 -  8    02 62 40 03 CD F7 2D 0B 
   445)       153.308 1  Rx        0191 -  8    06 EF 06 F0 06 EF 00 00 
   446)       153.522 1  Rx        01C6 -  8    00 00 2C 73 00 43 4E 33 
   447)       153.692 1  Rx        01CE -  4    10 00 07 FE 
   448)       153.906 1  Rx        01A1 -  7    00 00 41 40 60 44 00 
   449)       154.034 1  Rx        01A3 -  1    80 
   450)       154.247 1  Rx        01AA -  7    00 63 16 68 6F 00 00 
   451)       154.503 1  Rx        01C3 -  8    06 EF 06 D3 FF 30 00 01 
   452)       154.716 1  Rx        01C4 -  8    27 62 C2 B1 02 00 07 FF 
   453)       154.930 1  Rx        01C5 -  6    2C 33 2C 33 30 47 
   454)       155.058 1  Rx        01DF -  3    85 18 00 
   455)       155.314 1  Rx        01E5 -  8    5C 00 6B 5F F7 00 02 59 
   456)       155.527 1  Rx        01E7 -  8    61 40 01 D0 40 00 70 DE 
   457)       155.783 1  Rx        01ED -  8    61 40 01 D0 01 F8 70 DE 
   458)       155.996 1  Rx        01F1 -  8    A2 0A 00 00 08 00 00 7A 
   459)       156.167 1  Rx        01F8 -  2    FF FF 
   460)       156.338 1  Rx        0210 -  5    00 00 00 00 00 
   461)       156.551 1  Rx        0287 -  6    43 00 00 09 3E 00 
   462)       157.063 1  Rx        0451 -  5    00 00 00 00 00 
   463)       157.362 1  Rx        00C1 -  8    50 B7 EC 7D D3 8F B8 9B 
   464)       157.575 1  Rx        00C5 -  8    92 E1 C0 D6 92 25 75 3F 
   465)       157.788 1  Rx        00D1 -  7    42 CD 7D 32 47 B8 33 
   466)       158.044 1  Rx        017D -  8    22 24 62 FF 0F 72 00 14 
   467)       158.300 1  Rx        01C8 -  8    00 00 06 A0 F9 60 00 00 
   468)       158.556 1  Rx        01E9 -  8    40 14 00 0E 00 06 00 00 
   469)       158.727 1  Rx        0214 -  6    00 04 03 FC 00 00 
   470)       160.519 1  Rx        0170 -  3    00 00 00 
   471)       162.055 1  Rx        0182 -  8    A3 0A 01 00 00 00 00 00 
   472)       162.268 1  Rx        00F1 -  6    16 28 00 41 AF FE 
   473)       162.524 1  Rx        0230 -  8    00 00 00 00 00 00 00 00 
   474)       163.463 1  Rx        00AA -  8    2C 63 2C 76 44 53 88 00 
   475)       163.676 1  Rx        00BE -  6    04 27 00 05 AB D8 
   476)       163.932 1  Rx        00C9 -  8    80 0B 17 07 00 01 18 00 
   477)       164.060 1  Rx        00D3 -  2    2C 63 
   478)       164.274 1  Rx        018E -  8    00 00 00 6E F6 F0 06 F0 
   479)       164.530 1  Rx        0191 -  8    06 EF 06 F0 06 F0 00 00 
   480)       164.743 1  Rx        01E1 -  7    00 00 00 00 02 18 D0 
   481)       164.999 1  Rx        01E5 -  8    5C 00 68 7F FE 00 02 7D 
   482)       165.212 1  Rx        01E7 -  8    61 40 01 D2 40 00 70 DE 
   483)       165.383 1  Rx        00C7 -  4    03 57 8C D3 
   484)       165.639 1  Rx        00F9 -  8    02 62 40 03 CD F7 2D 0B 
   485)       165.852 1  Rx        01ED -  8    61 40 01 D2 01 F8 70 DE 
   486)       166.578 1  Rx        0189 -  7    0F FF 0F FF 30 01 FF 
   487)       166.791 1  Rx        0197 -  7    3F FF 24 42 0F 1E 21 
   488)       167.090 1  Rx        019D -  8    00 00 00 00 00 07 C6 42 
   489)       167.260 1  Rx        01A6 -  4    04 06 A0 0D 
   490)       167.474 1  Rx        00C1 -  8    A0 B9 2E 46 E3 90 D9 22 
   491)       167.687 1  Rx        00C5 -  8    A2 E2 E0 99 A2 26 93 B7 
   492)       167.900 1  Rx        00D1 -  7    82 CD BD 31 47 B7 53 
   493)       168.156 1  Rx        01AF -  8    00 00 00 00 30 BD 00 FF 
   494)       168.370 1  Rx        01C7 -  7    06 D0 39 30 00 00 3F 
   495)       168.626 1  Rx        01C8 -  8    40 00 06 A0 F9 5F 3F FF 
   496)       168.839 1  Rx        01F5 -  8    03 03 00 04 00 00 09 00 
   497)       169.095 1  Rx        0232 -  8    C1 00 A1 08 00 52 00 AA 
   498)       169.266 1  Rx        0234 -  5    00 41 40 40 00 
   499)       169.522 1  Rx        03C9 -  8    07 06 00 00 00 00 00 00 
   500)       169.692 1  Rx        01CC -  5    00 05 00 40 32 
   501)       171.954 1  Rx        01CE -  4    18 00 07 FD 
   502)       172.210 1  Rx        00F1 -  6    22 28 00 41 AF FD 
   503)       172.423 1  Rx        02F9 -  7    4B 01 00 08 00 02 22 
   504)       174.556 1  Rx        0160 -  5    7E 5B A3 0A 03 
   505)       175.068 1  Rx        01E5 -  8    5C 00 66 10 01 00 01 0F 
   506)       175.964 1  Rx        00AA -  8    2C 64 2C 79 46 53 84 00 
   507)       176.135 1  Rx        00BE -  6    08 27 00 05 AB D7 
   508)       176.391 1  Rx        00C9 -  8    80 0B 13 0A 00 01 18 00 
   509)       176.519 1  Rx        00D3 -  2    2C 64 
   510)       176.775 1  Rx        018E -  8    00 00 00 6F 06 F1 06 F1 
   511)       176.988 1  Rx        0191 -  8    06 F0 06 F1 06 F1 00 00 
   512)       177.244 1  Rx        01E7 -  8    61 40 01 D2 40 00 70 DE 
   513)       177.457 1  Rx        00C1 -  8    B0 BA 4F 8D F3 91 FA 2D 
   514)       177.713 1  Rx        00C5 -  8    F2 E3 02 E9 B2 28 D5 94 
   515)       177.884 1  Rx        00D1 -  7    C2 CD FD 30 47 B6 73 
   516)       178.055 1  Rx        00C7 -  4    03 5A 92 5A 
   517)       178.311 1  Rx        00F9 -  8    02 64 40 03 C4 F7 3A 0B 
   518)       178.524 1  Rx        01A1 -  7    00 00 41 40 60 44 00 
   519)       178.652 1  Rx        01A3 -  1    80 
   520)       178.865 1  Rx        01AA -  7    20 63 16 68 6F 10 00 
   521)       179.079 1  Rx        01BA -  8    06 D5 6D 56 83 6D 59 3E 
   522)       179.335 1  Rx        01C3 -  8    06 F0 06 D5 FF 00 00 00 
   523)       179.548 1  Rx        01C4 -  8    4A 62 C2 B0 04 00 05 FE 
   524)       179.761 1  Rx        01C5 -  6    2C 36 2C 36 30 49 
   525)       179.975 1  Rx        01C6 -  8    00 00 2C 74 00 83 4E 2E 
   526)       180.231 1  Rx        01C8 -  8    80 00 06 A0 F9 5E 3F FE 
   527)       180.359 1  Rx        01DF -  3    85 18 00 
   528)       180.615 1  Rx        01E9 -  8    40 14 00 0E 00 06 00 00 
   529)       180.871 1  Rx        01ED -  8    61 40 01 D2 01 F8 70 DE 
   530)       180.999 1  Rx        01F3 -  3    C0 E0 00 
   531)       181.212 1  Rx        01F4 -  6    00 00 00 20 00 00 
   532)       181.340 1  Rx        01F8 -  2    FF FF 
   533)       181.511 1  Rx        022A -  3    CC BC 35 
   534)       181.724 1  Rx        0287 -  6    82 00 00 09 3E 00 
   535)       181.980 1  Rx        02C3 -  8    0A 77 06 D5 00 00 3C 00 
   536)       182.151 1  Rx        00F1 -  6    3E 28 00 41 AF FC 
   537)       182.321 1  Rx        0237 -  5    AA 9A 00 00 00 
   538)       182.492 1  Rx        02DA -  4    00 00 03 FD 
   539)       182.663 1  Rx        0348 -  5    01 71 01 71 1B 
   540)       182.876 1  Rx        034A -  5    01 6E 01 70 1B 
   541)       184.753 1  Rx        012A -  8    00 F0 70 6C 00 00 10 85 
   542)       185.009 1  Rx        01E5 -  8    5C 00 65 30 00 00 01 2D 
   543)       187.228 1  Rx        00C1 -  8    80 BB 70 A3 03 93 3C 2D 
   544)       187.484 1  Rx        00C5 -  8    C2 E4 23 00 82 29 F9 07 
   545)       187.655 1  Rx        00D1 -  7    02 CD 3D 33 47 B9 13 
   546)       187.911 1  Rx        01C7 -  7    06 D2 79 2D 00 00 3F 
   547)       188.124 1  Rx        01C8 -  8    C0 00 06 A0 F9 5D 3F FD 
   548)       188.295 1  Rx        0239 -  3    00 00 00 
   549)       188.508 1  Rx        00AA -  8    2C 67 2C 7B 40 53 85 00 
   550)       188.721 1  Rx        00BE -  6    0C 28 00 05 AB D5 
   551)       188.977 1  Rx        00C9 -  8    80 0B 10 0D 00 01 18 00 
   552)       189.105 1  Rx        00D3 -  2    2C 65 
   553)       189.319 1  Rx        018E -  8    00 00 00 6F 06 F1 06 F1 
   554)       189.575 1  Rx        0191 -  8    06 F0 06 F1 06 F1 00 00 
   555)       189.745 1  Rx        01CC -  5    00 05 00 40 00 
   556)       189.873 1  Rx        01CF -  3    03 08 05 
   557)       190.129 1  Rx        01E7 -  8    61 40 01 D4 40 00 70 DE 
   558)       190.343 1  Rx        01ED -  8    61 40 01 D4 01 F8 70 DE 
   559)       190.599 1  Rx        034C -  8    E1 89 10 05 03 D8 00 14 
   560)       190.769 1  Rx        00C7 -  4    03 5D 97 ED 
   561)       191.025 1  Rx        00F9 -  8    02 64 40 03 C4 F7 3A 0B 
   562)       191.879 1  Rx        0189 -  7    4F FF 0F FF 30 00 FF 
   563)       192.092 1  Rx        0197 -  7    3F FF 48 42 0E 1E 20 
   564)       192.305 1  Rx        00F1 -  6    0A 27 00 41 B1 FF 
   565)       192.561 1  Rx        019D -  8    40 00 3F FF 08 07 AE 42 
   566)       192.732 1  Rx        01A6 -  4    04 06 A0 0A 
   567)       192.988 1  Rx        01AF -  8    00 00 04 00 30 C1 00 FF 
   568)       193.159 1  Rx        01CE -  4    00 00 00 00 
   569)       193.415 1  Rx        01F5 -  8    03 22 00 04 00 00 09 00 
   570)       193.628 1  Rx        01FC -  8    FC 0A 01 04 02 C0 52 16 
   571)       194.737 1  Rx        0135 -  8    02 00 1B 6E 11 15 15 02 
   572)       195.164 1  Rx        01E5 -  8    5C 00 65 50 00 00 01 4D 
   573)       197.212 1  Rx        01E1 -  7    00 00 00 00 03 1C C0 
   574)       197.425 1  Rx        00C1 -  8    90 BC 92 11 13 94 5D 98 
   575)       197.638 1  Rx        00C5 -  8    D2 E5 45 91 D2 2A 17 F1 
   576)       197.852 1  Rx        00D1 -  7    42 CD 7D 32 47 B8 33 
   577)       198.150 1  Rx        01C8 -  8    00 00 06 A0 F9 60 00 00 
   578)       198.364 1  Rx        01E9 -  8    40 14 00 0E 00 04 00 00 
   579)       198.961 1  Rx        03CF -  2    88 8C 
   580)       200.966 1  Rx        00AA -  8    2C 67 2C 7C 42 53 83 00 
   581)       201.180 1  Rx        00BE -  6    00 27 00 05 AB D9 
   582)       201.436 1  Rx        00C9 -  8    80 0B 17 00 00 01 18 00 
   583)       201.564 1  Rx        00D3 -  2    2C 67 
   584)       201.820 1  Rx        018E -  8    00 00 00 6F 16 F1 06 F1 
   585)       202.033 1  Rx        0191 -  8    06 F1 06 F2 06 F1 00 00 
   586)       202.246 1  Rx        00F1 -  6    16 27 00 41 B1 FE 
   587)       202.460 1  Rx        01C6 -  8    00 00 2C 7A 00 C3 4E 15 
   588)       202.716 1  Rx        01E7 -  8    61 40 01 D4 40 00 70 DE 
   589)       202.929 1  Rx        01ED -  8    61 40 01 D4 01 F8 70 DE 
   590)       203.100 1  Rx        00C7 -  4    03 61 9F 6A 
   591)       203.313 1  Rx        00F9 -  8    03 70 40 03 B7 F7 47 05 
   592)       203.569 1  Rx        01A1 -  7    00 00 41 40 60 44 00 
   593)       203.697 1  Rx        01A3 -  1    80 
   594)       203.868 1  Rx        01AA -  7    40 63 16 68 6F 20 00 
   595)       204.124 1  Rx        01C3 -  8    06 F1 06 D6 FF 10 00 03 
   596)       204.337 1  Rx        01C4 -  8    6D 62 C2 AE 06 00 03 FD 
   597)       204.550 1  Rx        01C5 -  6    2C 38 2C 38 30 4E 
   598)       204.806 1  Rx        0137 -  8    08 01 9D 66 23 9A 48 0A 
   599)       204.934 1  Rx        01DF -  3    85 18 00 
   600)       205.190 1  Rx        01E5 -  8    5C 00 65 70 04 00 01 71 
   601)       205.318 1  Rx        01F8 -  2    FF FF 
   602)       205.489 1  Rx        0210 -  5    02 00 01 FF 00 
   603)       205.702 1  Rx        0287 -  6    C1 00 00 09 3E 00 
   604)       207.025 1  Rx        01F3 -  3    00 20 00 
   605)       207.324 1  Rx        00C1 -  8    A0 BD B3 8D 23 95 7F 19 
   606)       207.580 1  Rx        00C5 -  8    E2 E7 88 8B E2 2B 3B 8A 
   607)       207.750 1  Rx        00D1 -  7    82 C9 BD 35 47 B7 53 
   608)       208.006 1  Rx        01C7 -  7    06 D2 B9 2C 00 00 3F 
   609)       208.262 1  Rx        01C8 -  8    40 00 06 A0 F9 5F 3F FF 
   610)       208.433 1  Rx        0214 -  6    02 04 23 FB 24 1F 
   611)       209.414 1  Rx        01CC -  5    00 05 00 40 16 
   612)       209.798 1  Rx        03F1 -  8    00 9E 5A 08 00 FF 0A 57 
   613)       211.932 1  Rx        01CE -  4    08 00 07 FF 
   614)       212.188 1  Rx        00F1 -  6    22 27 00 41 B1 FD 
   615)       212.486 1  Rx        0230 -  8    00 00 10 00 00 00 1F FF 
   616)       213.852 1  Rx        00AA -  8    2C 66 2C 79 44 53 85 00 
   617)       214.065 1  Rx        00BE -  6    04 27 00 05 AB D8 
   618)       214.321 1  Rx        00C9 -  8    80 0B 17 07 00 01 18 00 
   619)       214.449 1  Rx        00D3 -  2    2C 66 
   620)       214.662 1  Rx        018E -  8    00 00 00 6F 16 F2 06 F2 
   621)       214.918 1  Rx        0139 -  8    00 40 00 00 00 00 00 00 
   622)       215.174 1  Rx        0191 -  8    06 F1 06 F3 06 F2 00 00 
   623)       215.388 1  Rx        01E5 -  8    5C 00 65 10 08 00 01 15 
   624)       215.644 1  Rx        0260 -  8    31 6C 37 10 0C EC 5A 33 
   625)       215.814 1  Rx        00C7 -  4    03 64 A5 0F 
   626)       216.028 1  Rx        00F9 -  8    03 70 40 03 B7 F7 47 05 
   627)       216.241 1  Rx        0261 -  6    07 8E 41 60 19 85 
   628)       216.454 1  Rx        01E7 -  8    61 40 01 D5 40 00 70 DE 
   629)       216.710 1  Rx        01ED -  8    61 40 01 D5 01 F8 70 DE 
   630)       216.923 1  Rx        0262 -  6    6C BA 7F 46 C2 4F 
   631)       217.094 1  Rx        0263 -  6    00 00 00 00 E0 68 
   632)       217.307 1  Rx        0189 -  7    8F FF 0F FF 2F FF FF 
   633)       217.563 1  Rx        0264 -  8    00 0E 1A 7C 84 A4 DA 33 
   634)       217.777 1  Rx        0197 -  7    3F FF 6C 43 0D 1E 1F 
   635)       217.990 1  Rx        0265 -  8    1E 00 00 80 18 02 99 17 
   636)       218.246 1  Rx        019D -  8    80 00 3F FE 08 07 91 43 
   637)       218.459 1  Rx        00C1 -  8    B0 BE D5 5B 33 96 A0 DC 
   638)       218.673 1  Rx        00C5 -  8    F2 E8 A8 E9 F2 2C 5A A6 
   639)       218.929 1  Rx        00D1 -  7    C2 C9 FD 34 47 B6 73 
   640)       219.057 1  Rx        01A6 -  4    04 06 A0 07 
   641)       219.313 1  Rx        01AF -  8    00 00 04 00 30 C7 00 FF 
   642)       219.569 1  Rx        01C8 -  8    80 00 06 A0 F9 5E 3F FE 
   643)       219.782 1  Rx        01E9 -  8    40 14 00 0E 00 04 00 00 
   644)       220.038 1  Rx        01F5 -  8    03 22 00 04 00 00 09 00 
   645)       220.251 1  Rx        0232 -  8    C1 00 A1 08 00 52 00 AA 
   646)       220.465 1  Rx        03F5 -  5    00 00 00 00 00 
   647)       222.043 1  Rx        02F9 -  7    53 01 07 08 0F 02 25 
   648)       222.214 1  Rx        00F1 -  6    3E 27 00 41 B1 FC 
   649)       224.689 1  Rx        01E1 -  7    00 00 00 00 00 10 F0 
   650)       224.945 1  Rx        01E5 -  8    5C 00 66 30 07 00 01 35 
   651)       226.225 1  Rx        00AA -  8    2C 67 2C 7A 46 53 83 00 
   652)       226.395 1  Rx        00BE -  6    08 27 00 05 AB D7 
   653)       226.651 1  Rx        00C9 -  8    80 0B 15 0A 00 01 18 00 
   654)       226.779 1  Rx        00D3 -  2    2C 66 
   655)       227.035 1  Rx        018E -  8    00 00 00 6F 16 F3 06 F3 
   656)       227.249 1  Rx        0191 -  8    06 F1 06 F3 06 F3 00 00 
   657)       227.505 1  Rx        00C1 -  8    C0 C0 18 E2 03 97 C2 5A 
   658)       227.718 1  Rx        00C5 -  8    C2 E9 CB DD C2 2D 7E B7 
   659)       227.931 1  Rx        00D1 -  7    02 C9 3D 37 47 B9 13 
   660)       228.102 1  Rx        00C7 -  4    03 67 AA C2 
   661)       228.315 1  Rx        00F9 -  8    03 75 40 03 AB F7 52 05 
   662)       228.571 1  Rx        01C6 -  8    00 00 2C 7F 00 03 4E 04 
   663)       228.785 1  Rx        01A1 -  7    00 00 41 40 60 44 00 
   664)       228.913 1  Rx        01A3 -  1    80 
   665)       229.126 1  Rx        01AA -  7    60 63 16 68 6F 30 00 
   666)       229.339 1  Rx        01BA -  8    06 D7 6D 76 82 6D 79 3E 
   667)       229.638 1  Rx        01C3 -  8    06 F1 06 D7 FF 20 00 02 
   668)       229.809 1  Rx        01C4 -  8    00 62 C2 AD 00 00 00 00 
   669)       230.022 1  Rx        01C5 -  6    2C 3A 2C 3A 30 42 
   670)       230.235 1  Rx        01C7 -  7    06 D4 F9 29 00 00 3F 
   671)       230.491 1  Rx        01C8 -  8    C0 00 06 A0 F9 5D 3F FD 
   672)       230.662 1  Rx        01CC -  5    00 05 00 40 24 
   673)       230.833 1  Rx        01DF -  3    85 18 00 
   674)       231.046 1  Rx        01E7 -  8    61 40 01 D7 40 00 70 DE 
   675)       231.302 1  Rx        01ED -  8    61 40 01 D7 02 00 70 DE 
   676)       231.515 1  Rx        01F4 -  6    00 00 00 20 00 00 
   677)       231.643 1  Rx        01F8 -  2    FF FF 
   678)       231.857 1  Rx        0287 -  6    00 00 00 09 3E 00 
   679)       232.070 1  Rx        02C3 -  8    0A 77 06 D7 00 00 3C 00 
   680)       232.241 1  Rx        02DA -  4    00 00 00 00 
   681)       232.411 1  Rx        01CE -  4    10 00 07 FE 
   682)       232.667 1  Rx        032A -  8    07 8E 41 6A 6C BA 7E 5B 
   683)       232.838 1  Rx        0348 -  5    01 68 01 69 1B 
   684)       233.009 1  Rx        034A -  5    01 67 01 69 1B 
   685)       233.265 1  Rx        03C1 -  8    07 65 F7 00 00 00 00 00 
   686)       233.435 1  Rx        03C7 -  4    18 8A 07 75 
   687)       233.691 1  Rx        03D1 -  8    01 13 80 00 00 60 00 00 
   688)       233.905 1  Rx        03D3 -  8    00 90 20 00 3F FF 36 47 
   689)       234.118 1  Rx        03D9 -  5    02 00 C8 00 00 
   690)       234.331 1  Rx        03E9 -  8    02 DA 1F 8D 02 FC 00 03 
   691)       234.587 1  Rx        03F9 -  8    00 AB BA 5D 5A 1B FC 1D 
   692)       234.801 1  Rx        00F1 -  6    0A 28 00 41 AF FF 
   693)       235.142 1  Rx        01E5 -  8    5C 00 66 50 0B 00 01 59 
   694)       237.147 1  Rx        0142 -  7    00 00 00 00 00 00 00 
   695)       237.361 1  Rx        00C1 -  8    D0 C1 3A C3 13 98 E4 87 
   696)       237.617 1  Rx        00C5 -  8    D2 EA EC 98 D2 2E 9E 13 
   697)       237.830 1  Rx        00D1 -  7    42 C9 7D 36 47 B8 33 
   698)       238.086 1  Rx        01C8 -  8    00 00 06 A0 F9 60 00 00 
   699)       238.299 1  Rx        01E9 -  8    40 14 00 0E 00 04 00 00 
   700)       238.555 1  Rx        034C -  8    E9 8A 10 04 03 D9 00 14 
   701)       239.024 1  Rx        00AA -  8    2C 68 2C 7C 40 53 84 00 
   702)       239.238 1  Rx        00BE -  6    0C 28 00 05 AB D5 
   703)       239.494 1  Rx        00C9 -  8    80 0B 14 0D 00 01 18 00 
   704)       239.622 1  Rx        00D3 -  2    2C 68 
   705)       239.835 1  Rx        018E -  8    00 00 00 6F 36 F4 06 F4 
   706)       240.091 1  Rx        0191 -  8    06 F3 06 F4 06 F4 00 00 
   707)       240.304 1  Rx        01E7 -  8    61 40 01 D7 40 00 70 DE 
   708)       240.475 1  Rx        00C7 -  4    03 6B B2 57 
   709)       240.731 1  Rx        00F9 -  8    03 75 40 03 AB F7 52 05 
   710)       240.944 1  Rx        01ED -  8    61 40 01 D7 02 00 70 DE 
   711)       241.115 1  Rx        01F3 -  3    40 60 00 
   712)       241.755 1  Rx        0189 -  7    CF FF 0F FF 2F FE FF 
   713)       241.968 1  Rx        0197 -  7    3F FF 00 43 00 1E 22 
   714)       242.182 1  Rx        00F1 -  6    16 27 00 41 B1 FE 
   715)       242.438 1  Rx        019D -  8    C0 00 3F FD 08 07 8C 43 
   716)       242.608 1  Rx        01A6 -  4    04 06 A0 00 
   717)       242.864 1  Rx        01AF -  8    00 00 04 00 30 CC 00 FF 
   718)       243.078 1  Rx        01F5 -  8    03 22 00 04 00 00 09 00 
   719)       243.334 1  Rx        01FC -  8    FC 31 01 04 02 C0 A2 47 
   720)       244.998 1  Rx        01E5 -  8    5C 00 68 70 0C 00 01 7C 
   721)       247.216 1  Rx        00C1 -  8    E0 C2 5C F9 63 99 06 90 
   722)       247.430 1  Rx        00C5 -  8    22 EB 0F D5 E2 30 E1 A3 
   723)       247.643 1  Rx        00D1 -  7    82 C9 BD 35 47 B7 53 
   724)       247.856 1  Rx        01C7 -  7    06 D4 39 2C 00 00 3F 
   725)       248.112 1  Rx        01C8 -  8    40 00 06 A0 F9 5F 3F FF 
   726)       249.392 1  Rx        01CC -  5    00 05 00 40 32 
   727)       251.014 1  Rx        00AA -  8    2C 6B 2C 7F 42 53 80 00 
   728)       251.227 1  Rx        00BE -  6    00 27 00 05 AB D9 
   729)       251.440 1  Rx        00C9 -  8    80 0B 17 00 00 01 18 00 
   730)       251.611 1  Rx        00D3 -  2    2C 68 
   731)       251.824 1  Rx        018E -  8    00 00 00 6F 36 F4 06 F4 
   732)       252.080 1  Rx        0191 -  8    06 F3 06 F4 06 F4 00 00 
   733)       252.294 1  Rx        00D0 -  8    80 00 80 00 80 00 80 00 
   734)       252.507 1  Rx        00F1 -  6    22 27 00 41 B1 FD 
   735)       252.763 1  Rx        01C6 -  8    00 00 2C 80 00 43 4D FF 
   736)       252.976 1  Rx        00C7 -  4    03 6E B8 0D 
   737)       253.147 1  Rx        00F9 -  8    03 7B 40 03 A1 F7 5F 05 
   738)       253.318 1  Rx        01CE -  4    18 00 07 FD 
   739)       253.531 1  Rx        01A1 -  7    00 00 41 40 60 44 00 
   740)       253.659 1  Rx        01A3 -  1    80 
   741)       253.872 1  Rx        01AA -  7    00 63 16 68 6F 40 00 
   742)       254.128 1  Rx        01C3 -  8    06 F3 06 D9 FF 30 00 01 
   743)       254.342 1  Rx        01C4 -  8    27 62 C2 AC 02 00 07 FF 
   744)       254.555 1  Rx        01C5 -  6    2C 3D 2C 3D 30 47 
   745)       254.683 1  Rx        01DF -  3    85 18 00 
   746)       254.896 1  Rx        01E1 -  7    00 00 00 00 01 14 E0 
   747)       255.152 1  Rx        01E5 -  8    5C 00 69 10 0F 00 01 20 
   748)       255.366 1  Rx        01E7 -  8    61 40 01 D8 40 00 70 DE 
   749)       255.622 1  Rx        01ED -  8    61 40 01 D8 02 00 70 DE 
   750)       255.750 1  Rx        01F8 -  2    FF FF 
   751)       255.963 1  Rx        0210 -  5    04 00 01 FE 00 
   752)       256.134 1  Rx        0287 -  6    43 00 00 09 3E 00 
   753)       257.243 1  Rx        01F1 -  8    A2 0A 00 00 08 00 00 7A 
   754)       257.456 1  Rx        00C1 -  8    F0 C3 7F 22 73 9B 4B 00 
   755)       257.670 1  Rx        00C5 -  8    32 EC 30 AF 32 31 05 EF 
   756)       257.926 1  Rx        00D1 -  7    C2 C5 FD 38 47 B6 73 
   757)       258.139 1  Rx        017D -  8    22 24 62 FF 0F 78 00 14 
   758)       258.395 1  Rx        01C8 -  8    80 00 06 A0 F9 5E 3F FE 
   759)       258.608 1  Rx        01E9 -  8    40 14 00 0E 00 04 00 00 
   760)       258.822 1  Rx        0214 -  6    04 04 43 FA 48 2A 
   761)       259.632 1  Rx        0451 -  5    00 00 00 00 00 
   762)       260.528 1  Rx        0170 -  3    00 00 00 
   763)       260.827 1  Rx        03ED -  6    00 00 00 00 00 FF 
   764)       262.064 1  Rx        0182 -  8    A3 0A 01 00 00 00 00 00 
   765)       262.277 1  Rx        00F1 -  6    3E 27 00 41 B1 FC 
   766)       262.533 1  Rx        0230 -  8    00 00 20 00 00 00 1F FE 
   767)       263.429 1  Rx        00AA -  8    2C 6B 2C 7F 44 53 7F 00 
   768)       263.643 1  Rx        00BE -  6    04 27 00 05 AB D8 
   769)       263.856 1  Rx        00C9 -  8    80 0B 0A 07 00 01 18 00 
   770)       263.984 1  Rx        00D3 -  2    2C 6B 
   771)       264.240 1  Rx        018E -  8    00 00 00 6F 46 F5 06 F5 
   772)       264.453 1  Rx        0191 -  8    06 F4 06 F5 06 F5 00 00 
   773)       264.709 1  Rx        01E7 -  8    61 40 01 D8 40 00 70 DE 
   774)       264.923 1  Rx        01ED -  8    61 40 01 D8 02 00 70 DE 
   775)       265.179 1  Rx        01E5 -  8    5C 00 6B 30 11 00 01 44 
   776)       265.349 1  Rx        01F3 -  3    80 A0 00 
   777)       265.477 1  Rx        00C7 -  4    03 71 BD C7 
   778)       265.733 1  Rx        00F9 -  8    03 7B 40 03 A1 F7 5F 05 
   779)       266.757 1  Rx        0189 -  7    0F FF 0F FF 30 01 FF 
   780)       266.971 1  Rx        0197 -  7    3F FF 24 43 0F 1E 21 
   781)       267.227 1  Rx        019D -  8    00 00 00 00 08 07 7E 43 
   782)       267.483 1  Rx        00C1 -  8    C0 C4 A1 72 43 9C 6D 5E 
   783)       267.696 1  Rx        00C5 -  8    02 EE 75 54 02 32 25 B7 
   784)       267.909 1  Rx        00D1 -  7    02 C5 3D 3B 47 B9 13 
   785)       268.080 1  Rx        01A6 -  4    04 06 A0 0D 
   786)       268.293 1  Rx        01AF -  8    00 00 04 00 30 D1 00 FF 
   787)       268.549 1  Rx        01C7 -  7    06 D6 79 29 00 00 3F 
   788)       268.763 1  Rx        01C8 -  8    C0 00 06 A0 F9 5D 3F FD 
   789)       269.019 1  Rx        01F5 -  8    03 22 00 04 00 00 09 00 
   790)       269.232 1  Rx        0232 -  8    C1 00 A1 08 00 52 00 AA 
   791)       269.445 1  Rx        0234 -  5    00 41 40 40 00 
   792)       269.616 1  Rx        01CC -  5    00 06 00 40 00 
   793)       269.872 1  Rx        03C9 -  8    07 06 00 00 00 00 00 00 
   794)       271.963 1  Rx        01CE -  4    00 00 00 00 
   795)       272.219 1  Rx        00F1 -  6    0A 27 00 41 B1 FF 
   796)       272.432 1  Rx        02F9 -  7    5B 01 0A 08 16 02 28 
   797)       274.523 1  Rx        0160 -  5    7E 5B A3 0A 03 
   798)       275.120 1  Rx        01E5 -  8    5C 00 6C 50 11 00 01 65 
   799)       276.400 1  Rx        00AA -  8    2C 6E 2C 83 46 53 7A 00 
   800)       276.613 1  Rx        00BE -  6    08 27 00 05 AB D7 
   801)       276.869 1  Rx        00C9 -  8    80 0B 05 0A 00 01 18 00 
   802)       276.997 1  Rx        00D3 -  2    2C 6B 
   803)       277.253 1  Rx        018E -  8    00 00 00 6F 46 F5 06 F5 
   804)       277.467 1  Rx        00C1 -  8    D0 C5 C3 FD 53 9D 90 0B 
   805)       277.723 1  Rx        00C5 -  8    12 EF 99 15 12 33 4A 51 
   806)       277.893 1  Rx        00D1 -  7    42 C5 7D 3A 47 B8 33 
   807)       278.064 1  Rx        00C7 -  4    03 74 C3 86 
   808)       278.320 1  Rx        00F9 -  8    03 7F 40 03 9D F7 6B 05 
   809)       278.533 1  Rx        0191 -  8    06 F4 06 F5 06 F5 00 00 
   810)       278.789 1  Rx        01C6 -  8    00 00 2C 86 00 83 4D E6 
   811)       279.003 1  Rx        01A1 -  7    00 00 41 40 60 44 00 
   812)       279.131 1  Rx        01A3 -  1    80 
   813)       279.344 1  Rx        01AA -  7    20 63 16 68 6F 50 00 
   814)       279.557 1  Rx        01BA -  8    06 DB 6D B6 83 6D B9 3E 
   815)       279.813 1  Rx        01C3 -  8    06 F4 06 DB FF 00 00 00 
   816)       280.027 1  Rx        01C4 -  8    4A 62 C2 AB 04 00 05 FE 
   817)       280.240 1  Rx        01C5 -  6    2C 40 2C 40 30 52 
   818)       280.496 1  Rx        01C8 -  8    00 00 06 A0 F9 60 00 00 
   819)       280.624 1  Rx        01DF -  3    85 18 00 
   820)       280.880 1  Rx        01E7 -  8    61 40 01 D8 50 82 70 DE 
   821)       281.093 1  Rx        01E9 -  8    40 18 00 0E 00 03 00 00 
   822)       281.349 1  Rx        01ED -  8    61 40 01 D8 02 00 70 DE 
   823)       281.562 1  Rx        01F4 -  6    00 00 00 20 00 00 
   824)       281.690 1  Rx        01F8 -  2    FF FF 
   825)       281.861 1  Rx        022A -  3    0F A0 00 
   826)       282.032 1  Rx        0287 -  6    82 00 00 09 3E 00 
   827)       282.245 1  Rx        00F1 -  6    16 27 00 41 B1 FE 
   828)       282.501 1  Rx        02C3 -  8    0A 77 06 DB 00 00 3C 00 
   829)       282.672 1  Rx        02DA -  4    00 00 01 FF 
   830)       282.842 1  Rx        0348 -  5    01 61 01 61 1B 
   831)       283.013 1  Rx        034A -  5    01 5F 01 62 1B 
   832)       284.762 1  Rx        012A -  8    00 F0 70 6C 00 00 10 95 
   833)       284.976 1  Rx        01E5 -  8    5C 00 6F 70 0E 00 01 85 
   834)       287.152 1  Rx        01E1 -  7    00 00 00 00 02 18 D0 
   835)       287.408 1  Rx        00C1 -  8    E0 C6 E6 50 63 9E B2 76 
   836)       287.621 1  Rx        00C5 -  8    22 F0 BA 7F 22 34 6A 8B 
   837)       287.834 1  Rx        00D1 -  7    82 C5 BD 39 47 B7 53 
   838)       288.048 1  Rx        01C7 -  7    06 D8 B9 26 00 00 3F 
   839)       288.304 1  Rx        01C8 -  8    40 00 06 A0 F9 5F 3F FF 
   840)       288.517 1  Rx        00AA -  8    2C 6F 2C 86 40 53 7A 00 
   841)       288.730 1  Rx        00BE -  6    0C 27 00 05 AB D6 
   842)       288.986 1  Rx        00C9 -  8    80 0B 05 0D 00 01 18 00 
   843)       289.114 1  Rx        00D3 -  2    2C 6F 
   844)       289.328 1  Rx        018E -  8    00 00 00 6F 56 F6 06 F6 
   845)       289.584 1  Rx        0191 -  8    06 F5 06 F6 06 F6 00 00 
   846)       289.754 1  Rx        01CC -  5    00 07 00 40 16 
   847)       289.882 1  Rx        01CF -  3    13 08 05 
   848)       290.138 1  Rx        01E7 -  8    61 40 01 D8 50 82 70 DE 
   849)       290.352 1  Rx        01ED -  8    61 40 01 D8 02 08 70 DE 
   850)       290.522 1  Rx        00C7 -  4    03 78 CB 44 
   851)       290.778 1  Rx        00F9 -  8    03 7F 40 03 9D F7 6B 05 
   852)       290.992 1  Rx        034C -  8    F1 92 10 03 03 D9 00 1C 
   853)       291.760 1  Rx        0189 -  7    4F FF 0F FF 30 00 FF 
   854)       291.973 1  Rx        0197 -  7    3F FF 48 42 0E 1E 20 
   855)       292.186 1  Rx        00F1 -  6    22 27 00 41 B1 FD 
   856)       292.442 1  Rx        019D -  8    40 00 3F FF 08 07 65 42 
   857)       292.613 1  Rx        01A6 -  4    04 06 A0 0A 
   858)       292.826 1  Rx        01AF -  8    00 00 04 00 30 D6 00 FF 
   859)       292.997 1  Rx        01CE -  4    08 00 07 FF 
   860)       293.253 1  Rx        01F5 -  8    03 22 00 04 00 00 09 00 
   861)       293.509 1  Rx        01FC -  8    FC 31 01 6C 02 C0 F2 B9 
   862)       294.704 1  Rx        0135 -  8    02 00 1B 6E 11 15 15 02 
   863)       295.088 1  Rx        01E5 -  8    5C 00 72 10 11 00 01 2B 
   864)       296.965 1  Rx        01F3 -  3    C0 E0 00 
   865)       297.306 1  Rx        00C1 -  8    30 C7 09 10 73 9F D5 47 
   866)       297.520 1  Rx        00C5 -  8    32 F1 DE A9 32 35 8F 69 
   867)       297.733 1  Rx        00D1 -  7    C2 C5 FD 38 47 B6 73 
   868)       297.989 1  Rx        01C8 -  8    80 00 06 A0 F9 5E 3F FE 
   869)       298.245 1  Rx        01E9 -  8    40 1C 00 0E 00 03 00 00 
   870)       299.013 1  Rx        03CF -  2    90 90 
   871)       301.360 1  Rx        00AA -  8    2C 70 2C 88 42 53 77 00 
   872)       301.573 1  Rx        00BE -  6    00 27 00 05 AB D9 
   873)       301.829 1  Rx        00C9 -  8    80 0B 0C 00 00 01 18 00 
   874)       301.957 1  Rx        00D3 -  2    2C 70 
   875)       302.128 1  Rx        00F1 -  6    3E 27 00 41 B1 FC 
   876)       302.383 1  Rx        018E -  8    00 00 00 6F 66 F7 06 F7 
   877)       302.597 1  Rx        0191 -  8    06 F6 06 F7 06 F7 00 00 
   878)       302.853 1  Rx        01C6 -  8    00 00 2C 8C 00 C3 4D CD 
   879)       303.023 1  Rx        00C7 -  4    03 7B D1 17 
   880)       303.237 1  Rx        00F9 -  8    03 82 40 03 93 F7 78 05 
   881)       303.493 1  Rx        01E7 -  8    61 40 01 D7 50 82 70 DE 
   882)       303.706 1  Rx        01ED -  8    61 40 01 D7 02 08 70 DE 
   883)       303.962 1  Rx        01A1 -  7    00 00 41 40 60 44 00 
   884)       304.047 1  Rx        01A3 -  1    80 
   885)       304.261 1  Rx        01AA -  7    40 63 16 68 6F 70 00 
   886)       304.474 1  Rx        01C3 -  8    06 F6 06 DA FF 10 00 03 
   887)       304.730 1  Rx        01C4 -  8    6D 62 C2 AA 06 00 03 FD 
   888)       304.943 1  Rx        0137 -  8    08 01 9D 66 23 9A 48 0A 
   889)       305.157 1  Rx        01C5 -  6    2C 40 2C 40 30 57 
   890)       305.327 1  Rx        01DF -  3    85 18 00 
   891)       305.541 1  Rx        01E5 -  8    5C 00 73 30 11 00 01 4C 
   892)       305.669 1  Rx        01F8 -  2    FF FF 
   893)       305.882 1  Rx        0210 -  5    06 00 01 FD 00 
   894)       306.053 1  Rx        0287 -  6    C1 00 00 09 3C 00 
   895)       306.266 1  Rx        03F3 -  6    C0 20 1B 83 36 1B 
   896)       306.394 1  Rx        03FB -  2    02 19 
   897)       307.333 1  Rx        00C1 -  8    00 C9 4E 6F 43 A0 F7 DF 
   898)       307.546 1  Rx        00C5 -  8    42 F2 00 2F 02 36 AF C5 
   899)       307.759 1  Rx        00D1 -  7    02 C5 3D 3B 47 B9 13 
   900)       307.973 1  Rx        01C7 -  7    06 D8 F9 25 00 00 3F 
   901)       308.229 1  Rx        01C8 -  8    C0 00 06 A0 F9 5D 3F FD 
   902)       308.399 1  Rx        0214 -  6    06 04 63 F9 6C 35 
   903)       309.423 1  Rx        01CC -  5    00 08 00 40 24 
   904)       311.941 1  Rx        01CE -  4    10 00 07 FE 
   905)       312.154 1  Rx        00F1 -  6    0A 27 00 41 B1 FF 
   906)       312.453 1  Rx        0230 -  8    00 00 30 00 00 00 1F FD 
   907)       313.477 1  Rx        00AA -  8    2C 72 2C 86 44 53 78 00 
   908)       313.690 1  Rx        00BE -  6    04 27 00 05 AB D8 
   909)       313.946 1  Rx        00C9 -  8    80 0B 11 07 00 01 18 00 
   910)       314.074 1  Rx        00D3 -  2    2C 70 
   911)       314.287 1  Rx        018E -  8    00 00 00 6F 66 F7 06 F7 
   912)       314.543 1  Rx        0191 -  8    06 F6 06 F7 06 F7 00 00 
   913)       314.799 1  Rx        0139 -  8    00 40 00 00 00 00 00 00 
   914)       315.013 1  Rx        01E7 -  8    61 40 01 D8 50 82 70 DE 
   915)       315.269 1  Rx        01E5 -  8    5C 00 75 50 0E 00 01 6B 
   916)       315.482 1  Rx        01ED -  8    61 40 01 D8 02 08 70 DE 
   917)       315.738 1  Rx        0260 -  8    01 6C 37 10 0C EC 5A 03 
   918)       315.951 1  Rx        00C7 -  4    03 7E D6 F7 
   919)       316.122 1  Rx        00F9 -  8    03 82 40 03 93 F7 78 05 
   920)       316.378 1  Rx        0261 -  6    07 8E 41 5F 01 81 
   921)       316.591 1  Rx        0262 -  6    6C BA 7F 53 02 44 
   922)       316.805 1  Rx        0263 -  6    00 00 00 00 80 5C 
   923)       317.018 1  Rx        0189 -  7    8F FF 0F FF 2F FF FF 
   924)       317.231 1  Rx        0264 -  8    00 0E 1A 7C 84 B1 82 35 
   925)       317.445 1  Rx        0197 -  7    3F FF 6C 43 0D 1E 1F 
   926)       317.701 1  Rx        0265 -  8    18 00 00 80 18 02 99 11 
   927)       317.914 1  Rx        019D -  8    80 00 3F FE 08 07 4A 43 
   928)       318.170 1  Rx        00C1 -  8    10 CA 71 DA 93 A1 1A EA 
   929)       318.383 1  Rx        00C5 -  8    52 F3 24 92 12 38 F5 93 
   930)       318.597 1  Rx        00D1 -  7    42 C5 7D 3A 47 B8 33 
   931)       318.767 1  Rx        01A6 -  4    04 06 A0 07 
   932)       319.023 1  Rx        01AF -  8    00 00 04 00 30 DB 00 FF 
   933)       319.279 1  Rx        01C8 -  8    00 00 06 A0 F9 60 00 00 
   934)       319.493 1  Rx        01E1 -  7    00 00 00 00 03 1C C0 
   935)       319.706 1  Rx        01E9 -  8    40 1C 00 0E 00 03 00 00 
   936)       319.962 1  Rx        01F5 -  8    03 22 00 04 00 00 09 00 
   937)       320.175 1  Rx        0232 -  8    C1 00 A1 08 00 52 00 AA 
   938)       322.053 1  Rx        02F9 -  7    63 01 0D 08 1D 02 2F 
   939)       322.223 1  Rx        00F1 -  6    16 27 00 41 B1 FE 
   940)       324.527 1  Rx        01F3 -  3    00 20 00 
   941)       324.868 1  Rx        01E5 -  8    5C 00 77 70 10 00 01 8F 
   942)       326.106 1  Rx        00AA -  8    2C 71 2C 85 46 53 78 00 
   943)       326.319 1  Rx        00BE -  6    08 27 00 05 AB D7 
   944)       326.532 1  Rx        00C9 -  8    80 0B 0F 0A 00 01 18 00 
   945)       326.660 1  Rx        00D3 -  2    2C 71 
   946)       326.916 1  Rx        018E -  8    00 00 00 6F 76 F7 06 F7 
   947)       327.130 1  Rx        0191 -  8    06 F7 06 F8 06 F7 00 00 
   948)       327.386 1  Rx        00C1 -  8    20 CB 94 F4 A3 A2 3D D9 
   949)       327.599 1  Rx        00C5 -  8    62 F4 46 64 62 39 1A E3 
   950)       327.812 1  Rx        00D1 -  7    82 C5 BD 39 47 B7 53 
   951)       328.068 1  Rx        01C6 -  8    00 00 2C 8D 00 03 4D CC 
   952)       328.196 1  Rx        00C7 -  4    03 81 DC DF 
   953)       328.452 1  Rx        00F9 -  8    03 84 40 03 88 F7 83 05 
   954)       328.666 1  Rx        01A1 -  7    00 00 41 40 60 44 00 
   955)       328.794 1  Rx        01A3 -  1    80 
   956)       329.007 1  Rx        01AA -  7    60 63 16 68 6F 80 00 
   957)       329.220 1  Rx        01BA -  8    06 DC 6D C6 84 6D C9 3E 
   958)       329.476 1  Rx        01C3 -  8    06 F7 06 DC FF 20 00 02 
   959)       329.732 1  Rx        01C4 -  8    00 62 C2 A8 00 00 00 00 
   960)       329.903 1  Rx        01C5 -  6    2C 44 2C 44 30 55 
   961)       330.116 1  Rx        01C7 -  7    06 D8 39 28 00 00 3F 
   962)       330.372 1  Rx        01C8 -  8    40 00 06 A0 F9 5F 3F FF 
   963)       330.543 1  Rx        01CC -  5    00 08 00 40 32 
   964)       330.714 1  Rx        01DF -  3    85 18 00 
   965)       330.927 1  Rx        01E7 -  8    61 40 01 D8 50 82 70 DE 
   966)       331.183 1  Rx        01ED -  8    61 40 01 D8 02 08 70 DE 
   967)       331.396 1  Rx        01F4 -  6    00 00 00 20 00 00 
   968)       331.524 1  Rx        01F8 -  2    FF FF 
   969)       331.738 1  Rx        0287 -  6    00 00 00 09 3E 00 
   970)       331.994 1  Rx        02C3 -  8    0A 76 06 DC 00 00 3D 00 
   971)       332.164 1  Rx        02DA -  4    00 00 02 FE 
   972)       332.335 1  Rx        01CE -  4    18 00 07 FD 
   973)       332.548 1  Rx        032A -  8    07 8E 41 6A 6C BA 7E 5B 
   974)       332.719 1  Rx        0348 -  5    01 5C 01 5C 1B 
   975)       332.975 1  Rx        034A -  5    01 58 01 5A 1B 
   976)       333.146 1  Rx        03C1 -  8    07 65 F7 00 00 00 00 00 
   977)       333.316 1  Rx        03C7 -  4    28 8A 07 74 
   978)       333.615 1  Rx        03D1 -  8    01 13 80 00 00 62 00 00 
   979)       333.786 1  Rx        03D3 -  8    00 90 20 00 5F FE 36 86 
   980)       333.999 1  Rx        03D9 -  5    02 00 CA 00 00 
   981)       334.212 1  Rx        03E9 -  8    02 BE 1F 90 02 DE 00 05 
   982)       334.468 1  Rx        03FC -  8    48 3C 13 58 57 00 58 57 
   983)       334.682 1  Rx        00F1 -  6    22 27 00 41 B1 FD 
   984)       335.066 1  Rx        01E5 -  8    5C 00 78 10 10 00 01 30 
   985)       337.156 1  Rx        0142 -  7    00 00 00 00 00 00 00 
   986)       337.370 1  Rx        00C1 -  8    30 CC B8 3C B3 A4 84 92 
   987)       337.626 1  Rx        00C5 -  8    72 F5 6B 10 72 3A 3B E5 
   988)       337.839 1  Rx        00D1 -  7    C2 C5 FD 38 47 B6 73 
   989)       338.095 1  Rx        01C8 -  8    80 00 06 A0 F9 5E 3F FE 
   990)       338.308 1  Rx        01E9 -  8    40 1C 00 0E 00 03 00 00 
   991)       338.564 1  Rx        00AA -  8    2C 72 2C 86 40 53 7A 00 
   992)       338.735 1  Rx        00BE -  6    0C 27 00 05 AB D6 
   993)       338.991 1  Rx        00C9 -  8    80 0B 0C 0D 00 01 18 00 
   994)       339.119 1  Rx        00D3 -  2    2C 72 
   995)       339.375 1  Rx        018E -  8    00 00 00 6F 76 F8 06 F8 
   996)       339.588 1  Rx        0191 -  8    06 F7 06 F8 06 F8 00 00 
   997)       339.844 1  Rx        01E7 -  8    61 40 01 DB 40 00 70 DE 
   998)       340.058 1  Rx        01ED -  8    61 40 01 DB 02 08 70 DE 
   999)       340.314 1  Rx        034C -  8    F9 94 10 03 03 DA 00 1C 
  1000)       340.484 1  Rx        00C7 -  4    03 84 E2 D2 
  1001)       340.783 1  Rx        00F9 -  8    03 84 40 03 88 F7 83 05 
  1002)       341.850 1  Rx        0189 -  7    CF FF 0F FF 2F FE FF 
  1003)       342.063 1  Rx        0197 -  7    3F FF 00 43 00 1E 22 
  1004)       342.276 1  Rx        00F1 -  6    3E 27 00 41 B1 FC 
  1005)       342.490 1  Rx        019D -  8    C0 00 3F FD 08 07 2E 43 
  1006)       342.660 1  Rx        01A6 -  4    04 06 A0 00 
  1007)       342.916 1  Rx        01AF -  8    00 00 04 00 30 E0 00 FF 
  1008)       343.172 1  Rx        01F5 -  8    03 22 00 04 00 00 09 00 
  1009)       343.428 1  Rx        01FC -  8    FC 3E 01 6C 02 C0 02 A8 
  1010)       344.708 1  Rx        01E1 -  7    00 00 00 00 00 10 F0 
  1011)       345.007 1  Rx        01E5 -  8    5C 00 7B 30 10 00 01 53 
  1012)       347.225 1  Rx        00C1 -  8    00 CD DB EB 83 A5 A8 26 
  1013)       347.439 1  Rx        00C5 -  8    42 F6 8D 16 42 3B 61 97 
  1014)       347.652 1  Rx        00D1 -  7    02 C1 3D 3F 46 BA 13 
  1015)       347.865 1  Rx        01C7 -  7    06 DA 79 25 00 00 3F 
  1016)       348.121 1  Rx        01C8 -  8    C0 00 06 A0 F9 5D 3F FD 
  1017)       349.444 1  Rx        01CC -  5    00 08 00 40 00 
  1018)       350.937 1  Rx        00AA -  8    2C 74 2C 89 42 53 76 00 
  1019)       351.151 1  Rx        00BE -  6    00 27 00 05 AB D9 
  1020)       351.407 1  Rx        00C9 -  8    80 0B 0D 00 00 01 18 00 
  1021)       351.535 1  Rx        00D3 -  2    2C 72 
  1022)       351.748 1  Rx        018E -  8    00 00 00 6F 76 F8 06 F8 
  1023)       352.004 1  Rx        0191 -  8    06 F7 06 F9 06 F8 00 00 
  1024)       352.217 1  Rx        00F1 -  6    0A 27 00 41 B1 FF 
  1025)       352.473 1  Rx        00D0 -  8    80 00 80 00 80 00 80 00 
  1026)       352.687 1  Rx        01C6 -  8    00 00 2C 93 00 43 4D B3 
  1027)       352.857 1  Rx        01CE -  4    00 00 00 00 
  1028)       353.028 1  Rx        00C7 -  4    03 88 EA CF 
  1029)       353.241 1  Rx        00F9 -  8    03 8A 40 03 7B F7 90 05 
  1030)       353.497 1  Rx        01A1 -  7    00 00 41 40 60 44 00 
  1031)       353.625 1  Rx        01A3 -  1    80 
  1032)       353.796 1  Rx        01AA -  7    00 63 16 68 6F 90 00 
  1033)       354.052 1  Rx        01C3 -  8    06 F7 06 DE FF 30 00 01 
  1034)       354.265 1  Rx        01C4 -  8    27 62 C2 A7 02 00 07 FF 
  1035)       354.479 1  Rx        01C5 -  6    2C 47 2C 47 30 57 
  1036)       354.649 1  Rx        01DF -  3    85 18 00 
  1037)       354.863 1  Rx        01E7 -  8    61 40 01 DB 40 00 70 DE 
  1038)       355.076 1  Rx        01ED -  8    61 40 01 DB 02 08 70 DE 
  1039)       355.332 1  Rx        01E5 -  8    5C 00 7C 50 12 00 01 76 
  1040)       355.631 1  Rx        01F1 -  8    A2 0A 00 00 08 00 00 7A 
  1041)       355.716 1  Rx        01F8 -  2    FF FF 
  1042)       355.929 1  Rx        0210 -  5    00 00 00 00 00 
  1043)       356.100 1  Rx        0287 -  6    43 00 00 09 3D 00 
  1044)       356.996 1  Rx        01F3 -  3    40 60 00 
  1045)       357.337 1  Rx        00C1 -  8    10 CE FF D5 93 A6 CC 48 
  1046)       357.551 1  Rx        00C5 -  8    52 F8 D4 51 52 3C 82 CF 
  1047)       357.764 1  Rx        00D1 -  7    42 C1 7D 3E 46 B9 33 
  1048)       358.020 1  Rx        017D -  8    22 24 62 FF 0F 7D 00 14 
  1049)       358.276 1  Rx        01C8 -  8    00 00 06 A0 F9 60 00 00 
  1050)       358.489 1  Rx        01E9 -  8    40 1C 00 0E 00 04 00 00 
  1051)       358.703 1  Rx        0214 -  6    00 04 03 FC 00 00 
  1052)       359.641 1  Rx        0451 -  5    00 00 00 00 00 
  1053)       360.537 1  Rx        0170 -  3    00 00 00 
  1054)       362.073 1  Rx        0182 -  8    A3 0A 01 00 00 00 00 00 
  1055)       362.244 1  Rx        00F1 -  6    16 27 00 41 B1 FE 
  1056)       362.543 1  Rx        0230 -  8    00 00 00 00 00 00 00 00 
  1057)       363.823 1  Rx        00AA -  8    2C 74 2C 88 44 53 76 00 
  1058)       364.036 1  Rx        00BE -  6    04 27 00 05 AB D8 
  1059)       364.292 1  Rx        00C9 -  8    80 0B 12 07 00 01 18 00 
  1060)       364.420 1  Rx        00D3 -  2    2C 74 
  1061)       364.633 1  Rx        018E -  8    00 00 00 6F 86 F9 06 F9 
  1062)       364.889 1  Rx        0191 -  8    06 F8 06 FA 06 F9 00 00 
  1063)       365.145 1  Rx        01E5 -  8    5C 00 7E 70 0E 00 01 94 
  1064)       365.359 1  Rx        01E7 -  8    61 40 01 DB 40 00 70 DE 
  1065)       365.529 1  Rx        00C7 -  4    03 8B F0 CE 
  1066)       365.743 1  Rx        00F9 -  8    03 8A 40 03 7B F7 90 05 
  1067)       365.999 1  Rx        01ED -  8    61 40 01 DB 02 08 70 DE 
  1068)       366.254 1  Rx        03C9 -  8    07 06 00 00 00 00 00 00 
  1069)       366.809 1  Rx        0189 -  7    0F FF 0F FF 30 01 FF 
  1070)       367.022 1  Rx        0197 -  7    3F FF 24 43 0F 1E 21 
  1071)       367.278 1  Rx        019D -  8    00 00 00 00 08 07 24 43 
  1072)       367.492 1  Rx        00C1 -  8    60 CF 23 76 A3 A7 EF BC 
  1073)       367.705 1  Rx        00C5 -  8    62 F9 F9 94 62 3D A8 BA 
  1074)       367.918 1  Rx        00D1 -  7    82 BD BD 41 46 B8 53 
  1075)       368.089 1  Rx        01A6 -  4    04 06 A0 0D 
  1076)       368.345 1  Rx        01AF -  8    00 00 04 00 30 E5 00 FF 
  1077)       368.558 1  Rx        01C7 -  7    06 DC B9 22 00 00 3F 
  1078)       368.814 1  Rx        01C8 -  8    40 00 06 A0 F9 5F 3F FF 
  1079)       369.028 1  Rx        01F5 -  8    03 22 00 04 00 00 09 00 
  1080)       369.284 1  Rx        0232 -  8    C1 00 A1 08 00 52 00 AA 
  1081)       369.454 1  Rx        0234 -  5    00 41 3F 40 00 
  1082)       369.668 1  Rx        01CC -  5    00 08 00 40 16 
  1083)       371.972 1  Rx        01CE -  4    08 00 07 FF 
  1084)       372.185 1  Rx        00F1 -  6    22 27 00 41 B1 FD 
  1085)       372.441 1  Rx        02F9 -  7    6B 01 00 08 00 02 22 
  1086)       374.532 1  Rx        0160 -  5    7E 5B A3 0A 03 
  1087)       375.044 1  Rx        01E5 -  8    5C 00 80 10 0C 00 01 34 
  1088)       376.068 1  Rx        00AA -  8    2C 76 2C 8B 46 53 72 00 
  1089)       376.281 1  Rx        00BE -  6    08 27 00 05 AB D7 
  1090)       376.537 1  Rx        00C9 -  8    80 0B 14 0A 00 01 18 00 
  1091)       376.665 1  Rx        00D3 -  2    2C 74 
  1092)       376.921 1  Rx        018E -  8    00 00 00 6F 86 F9 06 F9 
  1093)       377.177 1  Rx        0191 -  8    06 F8 06 FA 06 F9 00 00 
  1094)       377.390 1  Rx        01E1 -  7    00 00 00 00 01 14 E0 
  1095)       377.604 1  Rx        00C1 -  8    70 D0 47 D6 F3 A8 14 45 
  1096)       377.817 1  Rx        00C5 -  8    B2 FA 1C 22 72 3E CA 45 
  1097)       378.073 1  Rx        00D1 -  7    C2 BD FD 40 46 B7 73 
  1098)       378.201 1  Rx        00C7 -  4    03 8E F6 D2 
  1099)       378.457 1  Rx        00F9 -  8    03 90 40 03 72 F7 9C 05 
  1100)       378.670 1  Rx        01A1 -  7    00 00 41 40 60 44 00 
  1101)       378.798 1  Rx        01A3 -  1    80 
  1102)       379.012 1  Rx        01AA -  7    20 63 16 68 6F A0 00 
  1103)       379.225 1  Rx        01BA -  8    06 DF 6D F6 83 6D F9 3D 
  1104)       379.481 1  Rx        01C3 -  8    06 F8 06 DF FF 00 00 00 
  1105)       379.694 1  Rx        01C4 -  8    4A 62 C2 A6 04 00 05 FE 
  1106)       379.908 1  Rx        01C5 -  6    2C 4A 2C 4A 30 5A 
  1107)       380.164 1  Rx        01C6 -  8    00 00 2C 9A 00 83 4D 96 
  1108)       380.377 1  Rx        01C8 -  8    80 00 06 A0 F9 5E 3F FE 
  1109)       380.548 1  Rx        01DF -  3    85 18 00 
  1110)       380.761 1  Rx        01E7 -  8    61 40 01 DE 40 00 70 DE 
  1111)       381.017 1  Rx        01E9 -  8    40 1C 00 0E 00 03 00 00 
  1112)       381.230 1  Rx        01ED -  8    61 40 01 DE 02 08 70 DE 
  1113)       381.444 1  Rx        01F4 -  6    00 00 00 20 00 00 
  1114)       381.614 1  Rx        01F8 -  2    FF FF 
  1115)       381.742 1  Rx        022A -  3    4E 94 1F 
  1116)       381.956 1  Rx        0287 -  6    82 00 00 09 3D 00 
  1117)       382.169 1  Rx        00F1 -  6    3E 27 00 41 B1 FC 
  1118)       382.382 1  Rx        02C3 -  8    0A 76 06 DF 00 00 3D 00 
  1119)       382.553 1  Rx        02DA -  4    00 00 03 FD 
  1120)       382.724 1  Rx        0348 -  5    01 52 01 52 1B 
  1121)       382.937 1  Rx        034A -  5    01 51 01 53 1B 
  1122)       384.772 1  Rx        012A -  8    00 F0 70 6C 00 00 10 A5 
  1123)       385.028 1  Rx        01E5 -  8    5C 00 83 30 0D 00 01 58 
  1124)       387.204 1  Rx        00C1 -  8    40 D1 6B D0 C3 A9 38 0A 
  1125)       387.460 1  Rx        00C5 -  8    82 FB 41 B7 42 3F F0 80 
  1126)       387.673 1  Rx        00D1 -  7    02 BD 3D 43 46 BA 13 
  1127)       387.886 1  Rx        01C7 -  7    06 DC F9 21 00 00 3F 
  1128)       388.142 1  Rx        01C8 -  8    C0 00 06 A0 F9 5D 3F FD 
  1129)       388.355 1  Rx        00AA -  8    2C 77 2C 8C 40 53 74 00 
  1130)       388.569 1  Rx        00BE -  6    0C 27 00 05 AB D6 
  1131)       388.782 1  Rx        00C9 -  8    80 0B 15 0D 00 01 18 00 
  1132)       388.910 1  Rx        00D3 -  2    2C 77 
  1133)       389.166 1  Rx        018E -  8    00 00 00 6F 96 FB 06 FB 
  1134)       389.422 1  Rx        0191 -  8    06 F9 06 FB 06 FB 00 00 
  1135)       389.635 1  Rx        01CC -  5    00 08 00 40 24 
  1136)       389.763 1  Rx        01CF -  3    23 08 05 
  1137)       389.977 1  Rx        01E7 -  8    61 40 01 DE 40 00 70 DE 
  1138)       390.233 1  Rx        01ED -  8    61 40 01 DE 02 10 70 DE 
  1139)       390.361 1  Rx        01F3 -  3    80 A0 00 
  1140)       390.531 1  Rx        00C7 -  4    03 91 FC DC 
  1141)       390.745 1  Rx        00F9 -  8    03 90 40 03 72 F7 9C 05 
  1142)       391.001 1  Rx        034C -  8    E1 94 10 03 03 D9 00 20 
  1143)       391.811 1  Rx        0189 -  7    4F FF 0F FF 30 00 FF 
  1144)       392.025 1  Rx        0197 -  7    3F FF 48 43 0E 1E 20 
  1145)       392.195 1  Rx        00F1 -  6    0A 27 00 41 B1 FF 
  1146)       392.451 1  Rx        019D -  8    40 00 3F FF 08 07 1A 43 
  1147)       392.622 1  Rx        01A6 -  4    04 06 A0 0A 
  1148)       392.878 1  Rx        01AF -  8    00 00 04 00 30 EA 00 FF 
  1149)       393.049 1  Rx        01CE -  4    10 00 07 FE 
  1150)       393.305 1  Rx        01F5 -  8    03 22 00 04 00 00 09 00 
  1151)       393.518 1  Rx        01FC -  8    FC 31 01 A0 02 C0 52 D9 
  1152)       394.670 1  Rx        0135 -  8    02 00 1B 6E 11 15 15 02 
  1153)       395.182 1  Rx        01E5 -  8    5C 00 85 50 0E 00 01 7B 
  1154)       397.230 1  Rx        00C1 -  8    50 D2 90 6A D3 AA 5C C2 
  1155)       397.443 1  Rx        00C5 -  8    92 FC 64 8E 92 40 12 69 
  1156)       397.657 1  Rx        00D1 -  7    42 BD 7D 42 46 B9 33 
  1157)       397.913 1  Rx        01C8 -  8    00 00 06 A0 F9 60 00 00 
  1158)       398.169 1  Rx        01E9 -  8    40 20 00 0E 00 03 00 00 
  1159)       399.022 1  Rx        03CF -  2    98 98 
  1160)       400.899 1  Rx        00AA -  8    2C 7A 2C 8F 42 53 70 00 
  1161)       401.113 1  Rx        00BE -  6    00 27 00 05 AB D9 
  1162)       401.369 1  Rx        00C9 -  8    80 0B 18 00 00 01 18 00 
  1163)       401.497 1  Rx        00D3 -  2    2C 77 
  1164)       401.710 1  Rx        018E -  8    00 00 00 6F 96 F9 06 F9 
  1165)       401.966 1  Rx        0191 -  8    06 F9 06 FB 06 F9 00 00 
  1166)       402.179 1  Rx        00F1 -  6    16 27 00 41 B1 FE 
  1167)       402.393 1  Rx        01C6 -  8    00 00 2C 9B 00 C3 4D 91 
  1168)       402.649 1  Rx        01E7 -  8    61 40 01 E0 40 00 70 DE 
  1169)       402.862 1  Rx        01ED -  8    61 40 01 E0 02 10 70 DE 
  1170)       403.033 1  Rx        00C7 -  4    03 94 02 EB 
  1171)       403.246 1  Rx        00F9 -  8    03 94 40 03 6D F7 A7 05 
  1172)       403.459 1  Rx        0210 -  5    02 00 01 FF 00 
  1173)       403.715 1  Rx        01A1 -  7    00 00 41 40 5F 44 00 
  1174)       403.843 1  Rx        01A3 -  1    80 
  1175)       404.057 1  Rx        01AA -  7    40 63 16 68 6F B0 00 
  1176)       404.313 1  Rx        01C3 -  8    06 F9 06 E2 FF 10 00 03 
  1177)       404.526 1  Rx        01C4 -  8    6D 62 C2 A5 06 00 03 FD 
  1178)       404.782 1  Rx        0137 -  8    08 01 9D 66 23 9A 48 0A 
  1179)       404.953 1  Rx        01C5 -  6    2C 4F 2C 4F 30 66 
  1180)       405.123 1  Rx        01DF -  3    85 18 00 
  1181)       405.337 1  Rx        01E5 -  8    5C 00 87 70 07 00 01 96 
  1182)       405.465 1  Rx        01F8 -  2    FF FF 
  1183)       405.721 1  Rx        0287 -  6    C1 00 00 09 3E 00 
  1184)       407.171 1  Rx        01E1 -  7    00 00 00 00 02 18 D0 
  1185)       407.385 1  Rx        00C1 -  8    60 D4 D9 49 E3 AB 80 AD 
  1186)       407.641 1  Rx        00C5 -  8    A2 FD 8A 7E A2 41 38 E9 
  1187)       407.854 1  Rx        00D1 -  7    82 BD BD 41 46 B8 53 
  1188)       408.067 1  Rx        01C7 -  7    06 DC 39 24 00 00 3F 
  1189)       408.323 1  Rx        01C8 -  8    40 00 06 A0 F9 5F 3F FF 
  1190)       408.494 1  Rx        0214 -  6    02 04 23 FB 24 1F 
  1191)       409.432 1  Rx        01CC -  5    00 08 00 40 32 
  1192)       411.907 1  Rx        01CE -  4    18 00 07 FD 
  1193)       412.163 1  Rx        00F1 -  6    22 27 00 41 B1 FD 
  1194)       412.462 1  Rx        0230 -  8    00 00 10 00 00 00 1F FF 
  1195)       413.358 1  Rx        00AA -  8    2C 79 2C 8E 44 53 70 00 
  1196)       413.571 1  Rx        00BE -  6    04 27 00 05 AB D8 
  1197)       413.827 1  Rx        00C9 -  8    80 0B 1E 07 00 01 18 00 
  1198)       413.955 1  Rx        00D3 -  2    2C 7B 
  1199)       414.211 1  Rx        018E -  8    00 00 00 6F B6 FB 06 FB 
  1200)       414.424 1  Rx        0191 -  8    06 FB 06 FC 06 FB 00 00 
  1201)       414.680 1  Rx        01E7 -  8    61 40 01 E0 40 00 70 DE 
  1202)       414.936 1  Rx        0139 -  8    00 40 00 00 00 00 00 00 
  1203)       415.150 1  Rx        01E5 -  8    5C 00 88 10 06 00 01 36 
  1204)       415.406 1  Rx        01ED -  8    61 40 01 E0 02 10 70 DE 
  1205)       415.619 1  Rx        00C7 -  4    03 97 09 04 
  1206)       415.790 1  Rx        00F9 -  8    03 94 40 03 6D F7 A7 05 
  1207)       416.046 1  Rx        0260 -  8    11 6C 37 10 0C EC 5A 13 
  1208)       416.302 1  Rx        0261 -  6    07 8E 41 5F 09 82 
  1209)       416.472 1  Rx        0262 -  6    6C BA 7F 5F 42 58 
  1210)       416.686 1  Rx        0263 -  6    00 00 00 00 A0 60 
  1211)       416.984 1  Rx        0264 -  8    00 0E 1A 7C 84 BE 2A 37 
  1212)       417.198 1  Rx        0189 -  7    8F FF 0F FF 2F FF FF 
  1213)       417.411 1  Rx        0197 -  7    3F FF 6C 42 0D 1E 1F 
  1214)       417.667 1  Rx        0265 -  8    1A 00 00 80 18 02 99 13 
  1215)       417.880 1  Rx        00C1 -  8    70 D5 FD 4D F3 AC A5 87 
  1216)       418.094 1  Rx        00C5 -  8    B2 FE AD A3 B2 42 5B 18 
  1217)       418.307 1  Rx        00D1 -  7    C2 BD FD 40 46 B7 73 
  1218)       418.563 1  Rx        019D -  8    80 00 3F FE 08 07 05 42 
  1219)       418.734 1  Rx        01A6 -  4    04 06 A0 07 
  1220)       418.990 1  Rx        01AF -  8    00 00 04 00 30 EF 00 FF 
  1221)       419.203 1  Rx        01C8 -  8    80 00 06 A0 F9 5E 3F FE 
  1222)       419.459 1  Rx        01E9 -  8    40 20 00 0E 00 03 00 00 
  1223)       419.630 1  Rx        01F3 -  3    C0 E0 00 
  1224)       419.843 1  Rx        01F5 -  8    03 22 00 04 00 00 09 00 
  1225)       420.099 1  Rx        0232 -  8    C1 00 A1 08 00 52 00 AA 
  1226)       422.019 1  Rx        02F9 -  7    73 01 07 08 0F 02 25 
  1227)       422.232 1  Rx        00F1 -  6    3E 27 00 41 B1 FC 
  1228)       424.664 1  Rx        032A -  8    07 8E 41 6A 6C BA 7E 5B 
  1229)       424.920 1  Rx        01E5 -  8    5C 00 8A 30 03 00 01 55 
  1230)       427.182 1  Rx        00C1 -  8    80 D6 22 BA C3 AD C9 D7 
  1231)       427.438 1  Rx        00C5 -  8    82 FF D3 FC 82 44 A4 65 
  1232)       427.608 1  Rx        00D1 -  7    02 BD 3D 43 46 BA 13 
  1233)       427.864 1  Rx        00AA -  8    2C 7B 2C 91 46 53 6C 00 
  1234)       428.035 1  Rx        00BE -  6    08 27 00 05 AB D7 
  1235)       428.206 1  Rx        00C7 -  4    03 9A 0F 31 
  1236)       428.462 1  Rx        00C9 -  8    80 0B 20 0A 00 01 18 00 
  1237)       428.632 1  Rx        00D3 -  2    2C 7A 
  1238)       428.846 1  Rx        00F9 -  8    03 97 40 03 66 F7 B2 05 
  1239)       429.102 1  Rx        018E -  8    00 00 00 6F A6 FA 06 FA 
  1240)       429.315 1  Rx        0191 -  8    06 FA 06 FE 06 FA 00 00 
  1241)       429.528 1  Rx        01A1 -  7    00 00 41 40 5F 44 00 
  1242)       429.656 1  Rx        01A3 -  1    80 
  1243)       429.870 1  Rx        01AA -  7    60 63 16 68 6F E0 00 
  1244)       430.083 1  Rx        01BA -  8    06 E2 6E 26 84 6E 29 3F 
  1245)       430.339 1  Rx        01C3 -  8    06 FA 06 E2 FF 20 00 02 
  1246)       430.595 1  Rx        01C4 -  8    00 62 C2 A4 00 00 00 00 
  1247)       430.765 1  Rx        01C5 -  6    2C 50 2C 50 30 70 
  1248)       431.021 1  Rx        01C6 -  8    00 00 2C A6 00 03 4D 68 
  1249)       431.235 1  Rx        01C7 -  7    06 E0 79 1F 00 00 3F 
  1250)       431.448 1  Rx        01C8 -  8    C0 00 06 A0 F9 5D 3F FD 
  1251)       431.661 1  Rx        01CC -  5    00 09 00 40 00 
  1252)       431.789 1  Rx        01DF -  3    85 18 00 
  1253)       432.045 1  Rx        01E7 -  8    61 40 01 E2 40 00 70 DE 
  1254)       432.259 1  Rx        00F1 -  6    0A 27 00 41 B1 FF 
  1255)       432.429 1  Rx        01CE -  4    00 00 00 00 
  1256)       432.643 1  Rx        01ED -  8    61 40 01 E2 02 10 70 DE 
  1257)       432.856 1  Rx        01F4 -  6    00 00 00 20 00 00 
  1258)       432.984 1  Rx        01F8 -  2    FF FF 
  1259)       433.197 1  Rx        0237 -  5    AA 9A 00 00 00 
  1260)       433.368 1  Rx        0287 -  6    00 00 00 09 3F 00 
  1261)       433.624 1  Rx        02C3 -  8    0A 75 06 E2 00 00 3E 00 
  1262)       433.795 1  Rx        02DA -  4    00 00 00 00 
  1263)       434.008 1  Rx        0348 -  5    01 4C 01 4C 1B 
  1264)       434.179 1  Rx        034A -  5    01 49 01 4B 1B 
  1265)       434.435 1  Rx        03C1 -  8    07 65 F7 00 00 00 00 00 
  1266)       434.605 1  Rx        03C7 -  4    38 8A 07 73 
  1267)       434.819 1  Rx        0142 -  7    00 00 00 00 00 00 00 
  1268)       435.032 1  Rx        03D1 -  8    01 14 80 00 00 4F 00 00 
  1269)       435.288 1  Rx        01E5 -  8    5C 00 8B 50 02 00 01 75 
  1270)       435.544 1  Rx        03D3 -  8    00 90 20 00 7F FD 36 C5 
  1271)       435.715 1  Rx        03D9 -  5    02 00 CD 00 00 
  1272)       435.928 1  Rx        03E9 -  8    02 A1 1F 92 02 BE 00 08 
  1273)       436.141 1  Rx        04A3 -  5    FE 32 00 03 00 
  1274)       436.355 1  Rx        04C1 -  8    00 CB 85 36 57 18 00 00 
  1275)       436.525 1  Rx        04C7 -  3    10 00 00 
  1276)       436.739 1  Rx        04D1 -  8    00 82 42 02 D6 2F 00 00 
  1277)       436.995 1  Rx        04EB -  8    C0 37 B5 6F 00 33 F3 31 
  1278)       437.208 1  Rx        01E1 -  7    00 00 00 00 03 1C C0 
  1279)       437.421 1  Rx        04ED -  7    A0 22 8A 0F 28 FF 30 
  1280)       437.677 1  Rx        00C1 -  8    90 D7 47 4A D3 AE EE F7 
  1281)       437.891 1  Rx        00C5 -  8    93 00 F7 6E 92 45 CB 8A 
  1282)       438.104 1  Rx        00D1 -  7    42 BD 7D 42 46 B9 33 
  1283)       438.317 1  Rx        01C8 -  8    00 00 06 A0 F9 60 00 00 
  1284)       438.573 1  Rx        01E9 -  8    40 20 00 0E 00 03 00 00 
  1285)       438.787 1  Rx        0235 -  5    05 00 00 00 00 
  1286)       438.915 1  Rx        0239 -  3    00 00 00 
  1287)       439.171 1  Rx        00AA -  8    2C 7A 2C 90 40 53 70 00 
  1288)       439.341 1  Rx        00BE -  6    0C 27 00 05 AB D6 
  1289)       439.597 1  Rx        00C9 -  8    80 0B 1D 0D 00 01 18 00 
  1290)       439.725 1  Rx        00D3 -  2    2C 7A 
  1291)       439.939 1  Rx        018E -  8    00 00 00 6F A6 FB 06 FB 
  1292)       440.195 1  Rx        0191 -  8    06 FA 06 FE 06 FB 00 00 
  1293)       440.408 1  Rx        01E7 -  8    61 40 01 E3 40 00 70 DE 
  1294)       440.621 1  Rx        00C7 -  4    03 9D 15 54 
  1295)       440.835 1  Rx        00F9 -  8    03 97 40 03 66 F7 B2 05 
  1296)       441.048 1  Rx        01ED -  8    61 40 01 E3 02 10 70 DE 
  1297)       441.304 1  Rx        034C -  8    E9 95 10 03 03 D9 00 20 
  1298)       441.475 1  Rx        040D -  5    63 64 FF FF 00 
  1299)       441.645 1  Rx        04EF -  4    80 B7 E4 A8 
  1300)       441.859 1  Rx        0189 -  7    CF FF 0F FF 2F FE FF 
  1301)       442.072 1  Rx        0197 -  7    3F FF 00 42 00 1E 22 
  1302)       442.328 1  Rx        019D -  8    C0 00 3F FD 08 06 F3 42 
  1303)       442.499 1  Rx        01A6 -  4    04 06 A0 00 
  1304)       442.712 1  Rx        01AF -  8    00 00 04 00 30 F5 00 FF 
  1305)       442.968 1  Rx        01F5 -  8    03 22 00 04 00 00 09 00 
  1306)       443.224 1  Rx        01FC -  8    FC 24 01 A0 02 C0 A2 D6 
  1307)       443.437 1  Rx        04F1 -  8    42 52 02 52 00 7A 00 00 
  1308)       443.608 1  Rx        04F3 -  1    68 
  1309)       443.693 1  Rx        04F4 -  2    00 32 
  1310)       443.992 1  Rx        04F7 -  8    00 00 00 20 00 00 7F FF 
  1311)       444.120 1  Rx        04F9 -  3    00 00 00 
  1312)       444.333 1  Rx        0589 -  8    D8 4B 83 76 9C 65 40 C8 
  1313)       444.589 1  Rx        0772 -  7    00 11 00 00 00 00 00 
  1314)       444.760 1  Rx        00F1 -  6    16 27 00 41 B1 FE 
  1315)       444.973 1  Rx        01E5 -  8    5C 00 8B 70 01 00 01 94 
  1316)       446.979 1  Rx        01F3 -  3    00 20 00 
  1317)       447.320 1  Rx        00C1 -  8    A0 D8 6C 5A 23 AF 13 8E 
  1318)       447.533 1  Rx        00C5 -  8    E3 01 1D EB A2 46 EE 4D 
  1319)       447.747 1  Rx        00D1 -  7    82 BD BD 41 46 B8 53 
  1320)       447.960 1  Rx        01C7 -  7    06 E0 B9 1E 00 00 3F 
  1321)       448.216 1  Rx        01C8 -  8    40 00 06 A0 F9 5F 3F FF 
  1322)       449.411 1  Rx        01CC -  5    00 09 00 40 16 
  1323)       449.581 1  Rx        023D -  1    FF 
  1324)       450.989 1  Rx        00AA -  8    2C 7B 2C 91 42 53 6E 00 
  1325)       451.160 1  Rx        00BE -  6    00 27 00 05 AB D9 
  1326)       451.416 1  Rx        00C9 -  8    80 0B 1D 00 00 01 18 00 
  1327)       451.544 1  Rx        00D3 -  2    2C 7A 
  1328)       451.800 1  Rx        018E -  8    00 00 00 6F A6 FA 06 FA 
  1329)       452.056 1  Rx        0191 -  8    06 FA 06 FF 06 FA 00 00 
  1330)       452.226 1  Rx        00F1 -  6    22 27 00 41 B1 FD 
  1331)       452.482 1  Rx        00D0 -  8    80 00 80 00 80 00 80 00 
  1332)       452.738 1  Rx        01C6 -  8    00 00 2C A8 00 43 4D 5F 
  1333)       452.952 1  Rx        01CE -  4    08 00 07 FF 
  1334)       453.080 1  Rx        00C7 -  4    03 A0 1B 87 
  1335)       453.293 1  Rx        00F9 -  8    03 9B 40 03 5B F7 BE 05 
  1336)       453.506 1  Rx        01A1 -  7    00 00 41 40 5F 44 00 
  1337)       453.634 1  Rx        01A3 -  1    80 
  1338)       453.848 1  Rx        01AA -  7    00 63 16 68 6F F0 00 
  1339)       454.104 1  Rx        01C3 -  8    06 FA 06 E3 FF 30 00 01 
  1340)       454.317 1  Rx        01C4 -  8    27 62 C2 A3 02 00 07 FF 
  1341)       454.530 1  Rx        01C5 -  6    2C 52 2C 52 30 6E 
  1342)       454.701 1  Rx        0120 -  5    00 2E DF 66 00 
  1343)       454.872 1  Rx        01DF -  3    85 18 00 
  1344)       455.085 1  Rx        01E5 -  8    5C 00 8B 10 00 00 01 33 
  1345)       455.341 1  Rx        01E7 -  8    61 40 01 E3 40 00 70 DE 
  1346)       455.554 1  Rx        01ED -  8    61 40 01 E3 02 10 70 DE 
  1347)       455.725 1  Rx        01F8 -  2    FF FF 
  1348)       455.896 1  Rx        0210 -  5    04 00 01 FE 00 
  1349)       456.109 1  Rx        0287 -  6    43 00 00 09 3F 00 
  1350)       457.218 1  Rx        01F1 -  8    A2 0A 00 00 08 00 00 7A 
  1351)       457.432 1  Rx        00C1 -  8    B0 D9 91 78 33 B1 5D 5E 
  1352)       457.688 1  Rx        00C5 -  8    F3 02 41 A0 F2 47 15 DC 
  1353)       457.901 1  Rx        00D1 -  7    C2 BD FD 40 46 B7 73 
  1354)       458.114 1  Rx        017D -  8    22 24 62 FF 0F 7B 00 14 
  1355)       458.370 1  Rx        01C8 -  8    80 00 06 A0 F9 5E 3F FE 
  1356)       458.626 1  Rx        01E9 -  8    40 20 00 0E 00 03 00 00 
  1357)       458.840 1  Rx        0214 -  6    04 04 43 FA 48 2A 
  1358)       459.778 1  Rx        03F1 -  8    00 9E 5A 08 00 FF 0A 57 
  1359)       460.504 1  Rx        0170 -  3    00 00 00 
  1360)       462.082 1  Rx        0182 -  8    A3 0A 01 00 00 00 00 00 
  1361)       462.296 1  Rx        00F1 -  6    3E 27 00 41 B1 FC 
  1362)       462.552 1  Rx        0230 -  8    00 00 20 00 00 00 1F FE 
  1363)       463.448 1  Rx        00AA -  8    2C 79 2C 90 44 53 6E 00 
  1364)       463.661 1  Rx        00BE -  6    04 27 00 05 AB D8 
  1365)       463.917 1  Rx        00C9 -  8    80 0B 24 07 00 01 18 00 
  1366)       464.045 1  Rx        00D3 -  2    2C 7A 
  1367)       464.258 1  Rx        018E -  8    00 00 00 6F A6 FA 06 FA 
  1368)       464.514 1  Rx        0191 -  8    06 FA 06 FF 06 FA 00 00 
  1369)       464.642 1  Rx        0130 -  1    02 
  1370)       464.856 1  Rx        01E7 -  8    61 40 01 E4 40 00 70 DE 
  1371)       465.112 1  Rx        01E5 -  8    5C 00 8C 30 00 00 01 54 
  1372)       465.325 1  Rx        01ED -  8    61 40 01 E4 02 10 70 DE 
  1373)       465.496 1  Rx        00C7 -  4    03 A3 21 CA 
  1374)       465.709 1  Rx        00F9 -  8    03 9B 40 03 5B F7 BE 05 
  1375)       466.776 1  Rx        0189 -  7    0F FF 0F FF 30 01 FF 
  1376)       466.989 1  Rx        0197 -  7    3F FF 24 43 0F 1E 21 
  1377)       467.245 1  Rx        019D -  8    00 00 00 00 08 06 D3 43 
  1378)       467.501 1  Rx        00C1 -  8    80 DA B6 F8 03 B2 83 12 
  1379)       467.714 1  Rx        00C5 -  8    C3 03 68 7A C2 48 38 EC 
  1380)       467.928 1  Rx        00D1 -  7    02 BD 3D 43 46 BA 13 
  1381)       468.098 1  Rx        01A6 -  4    04 06 A0 0D 
  1382)       468.354 1  Rx        01AF -  8    00 00 04 00 30 FA 00 FF 
  1383)       468.568 1  Rx        01C7 -  7    06 E0 F9 1D 00 00 3F 
  1384)       468.781 1  Rx        01C8 -  8    C0 00 06 A0 F9 5D 3F FD 
  1385)       469.037 1  Rx        01E1 -  7    00 00 00 00 00 10 F0 
  1386)       469.293 1  Rx        01F5 -  8    03 22 00 04 00 00 09 00 
  1387)       469.506 1  Rx        0232 -  8    C1 00 A1 08 00 52 00 AA 
  1388)       469.677 1  Rx        01CC -  5    00 09 00 40 24 
  1389)       469.890 1  Rx        0234 -  5    00 41 3F 40 00 
  1390)       470.104 1  Rx        03C9 -  8    07 06 00 00 00 00 00 00 
  1391)       470.317 1  Rx        03F5 -  5    50 0F 0F 00 00 
  1392)       470.530 1  Rx        04C9 -  7    40 60 00 00 10 00 00 
  1393)       470.786 1  Rx        077F -  7    00 18 00 00 00 00 00 
  1394)       471.981 1  Rx        01CE -  4    10 00 07 FE 
  1395)       472.194 1  Rx        00F1 -  6    0A 27 00 41 B1 FF 
  1396)       472.450 1  Rx        02F9 -  7    7B 01 0A 08 16 02 28 
  1397)       474.541 1  Rx        0140 -  3    40 02 12 
  1398)       475.138 1  Rx        01E5 -  8    5C 00 8C 5F FF 00 02 82 
  1399)       475.991 1  Rx        00AA -  8    2C 79 2C 90 46 53 6D 00 
  1400)       476.162 1  Rx        00BE -  6    08 27 00 05 AB D7 
  1401)       476.418 1  Rx        00C9 -  8    80 0B 2C 0A 00 01 18 00 
  1402)       476.546 1  Rx        00D3 -  2    2C 79 
  1403)       476.802 1  Rx        018E -  8    00 00 00 6F 96 FA 06 FA 
  1404)       477.058 1  Rx        0191 -  8    06 F9 07 00 06 FA 00 00 
  1405)       477.229 1  Rx        0160 -  5    7E 5B A3 0A 03 
  1406)       477.442 1  Rx        00C1 -  8    90 DB DC 48 13 B3 A8 61 
  1407)       477.698 1  Rx        00C5 -  8    D3 04 8C 9B D2 49 60 BD 
  1408)       477.869 1  Rx        00D1 -  7    42 BD 7D 42 46 B9 33 
  1409)       478.039 1  Rx        00C7 -  4    03 A6 28 17 
  1410)       478.295 1  Rx        00F9 -  8    03 A0 40 03 51 F7 C9 05 
  1411)       478.509 1  Rx        01A1 -  7    00 00 41 40 5F 44 00 
  1412)       478.637 1  Rx        01A3 -  1    80 
  1413)       478.850 1  Rx        01AA -  7    20 63 16 68 70 00 00 
  1414)       479.063 1  Rx        01BA -  8    06 E3 6E 36 84 6E 39 3F 
  1415)       479.319 1  Rx        01C3 -  8    06 F9 06 E3 FF 00 00 00 
  1416)       479.575 1  Rx        01C4 -  8    4A 62 C2 A1 04 00 05 FE 
  1417)       479.746 1  Rx        01C5 -  6    2C 52 2C 52 30 70 
  1418)       480.002 1  Rx        01C6 -  8    00 00 2C AB 00 83 4D 52 
  1419)       480.215 1  Rx        01C8 -  8    00 00 06 A0 F9 60 00 00 
  1420)       480.386 1  Rx        01DF -  3    85 18 00 
  1421)       480.599 1  Rx        01E7 -  8    61 40 01 E4 40 00 70 DE 
  1422)       480.855 1  Rx        01E9 -  8    40 20 00 0E 00 03 00 00 
  1423)       481.069 1  Rx        01ED -  8    61 40 01 E4 02 18 70 DE 
  1424)       481.239 1  Rx        01F3 -  3    40 60 00 
  1425)       481.453 1  Rx        01F4 -  6    00 00 00 20 00 00 
  1426)       481.581 1  Rx        01F8 -  2    FF FF 
  1427)       481.751 1  Rx        022A -  3    8D 88 2A 
  1428)       481.965 1  Rx        0287 -  6    82 00 00 09 3F 00 
  1429)       482.135 1  Rx        00F1 -  6    16 27 00 41 B1 FE 
  1430)       482.391 1  Rx        02C3 -  8    0A 76 06 E3 00 00 3E 00 
  1431)       482.562 1  Rx        02DA -  4    00 00 01 FF 
  1432)       482.733 1  Rx        0348 -  5    01 46 01 48 1B 
  1433)       482.946 1  Rx        034A -  5    01 43 01 43 1B 
  1434)       483.159 1  Rx        03F9 -  8    00 AB C0 5E 5A 1B FC 1D 
  1435)       484.781 1  Rx        012A -  8    00 F0 70 6C 00 00 10 B5 
  1436)       485.037 1  Rx        01E5 -  8    5C 00 8C 70 00 00 01 94 
  1437)       487.085 1  Rx        0451 -  5    00 00 00 00 00 
  1438)       487.341 1  Rx        00C1 -  8    E0 DC 02 92 23 B4 CE 90 
  1439)       487.554 1  Rx        00C5 -  8    E3 05 B3 D2 E2 4A 84 02 
