  18373      9869.630 DT     0186 Rx 8  15 21 01 AA 81 F7 00 00 
  18374      9869.876 DT     03D4 Rx 8  FF C1 FE FF DF E0 00 00 
  18375      9870.123 DT     042F Rx 8  00 00 00 00 00 00 02 63 
  18376      9870.830 DT     04B0 Rx 8  A1 00 00 00 20 00 00 FD 
  18377      9871.062 DT     0217 Rx 8  02 6C 02 71 02 6F 02 74 
  18378      9871.316 DT     041D Rx 8  00 00 E0 00 00 00 00 00 
  18379      9874.697 DT     0085 Rx 8  7D EB 80 00 88 00 7C 93 
  18380      9874.946 DT     03A8 Rx 8  00 00 28 68 00 00 00 00 
  18381      9878.664 DT     0165 Rx 8  50 C0 00 00 00 00 00 00 
  18382      9878.900 DT     0167 Rx 8  72 81 74 10 00 1A 49 00 
  18383      9879.146 DT     0200 Rx 8  00 00 7F 0E 81 73 00 00 
  18384      9879.383 DT     0202 Rx 8  04 AD 28 00 60 00 03 47 
  18385      9879.625 DT     0204 Rx 8  C0 5E 7D 02 89 00 00 00 
  18386      9879.869 DT     0230 Rx 8  10 06 00 00 94 00 00 00 
  18387      9880.789 DT     0076 Rx 8  3F D8 C0 00 0F FF 00 00 
  18388      9881.031 DT     0077 Rx 8  03 72 08 1F 00 08 2E 20 
  18389      9881.277 DT     007D Rx 8  00 00 FC 30 00 1F D7 F8 
  18390      9881.519 DT     0213 Rx 8  FF FF 00 04 01 12 1F 41 
  18391      9881.763 DT     0214 Rx 8  6F 66 00 00 00 00 27 30 
  18392      9882.001 DT     0216 Rx 8  57 B1 1F B3 82 00 00 00 
  18393      9882.233 DT     0217 Rx 8  02 6C 02 76 02 71 02 7D 
  18394      9882.471 DT     0091 Rx 8  7E DC 7F 7E EF B3 F0 00 
  18395      9882.709 DT     0415 Rx 8  03 6D CC 89 8F FE 0F FE 
  18396      9883.176 DT     0416 Rx 8  5D 00 F1 04 00 00 0F FF 
  18397      9884.554 DT     0041 Rx 8  00 00 00 00 00 00 00 00 
  18398      9885.340 DT     0082 Rx 8  9A 00 14 3C A6 00 40 FF 
  18399      9885.576 DT     0085 Rx 8  7D EB 80 00 87 10 7C 93 
  18400      9887.446 DT     0333 Rx 8  00 02 00 00 00 00 00 00 
  18401      9888.629 DT     0186 Rx 8  15 23 01 AA 81 F7 00 00 
  18402      9888.883 DT     0083 Rx 8  00 E0 80 00 00 02 00 00 
  18403      9889.134 DT     0047 Rx 8  20 00 00 00 00 00 00 00 
  18404      9889.368 DT     0167 Rx 8  72 81 7A 10 00 1A 46 00 
  18405      9889.610 DT     0204 Rx 8  C0 5E 7D 02 8B 00 00 00 
  18406      9889.852 DT     043D Rx 8  00 5F FE 4D 00 00 00 00 
  18407      9890.087 DT     043E Rx 8  00 94 10 85 A1 37 58 B7 
  18408      9890.816 DT     04B0 Rx 8  A1 00 00 00 30 00 00 FC 
  18409      9891.052 DT     0217 Rx 8  02 6F 02 76 02 74 02 7D 
  18410      9891.306 DT     041D Rx 8  00 00 E0 00 00 00 00 00 
  18411      9894.525 DT     042C Rx 8  00 00 00 00 3E E0 00 00 
  18412      9894.759 DT     0085 Rx 8  7D EB 80 00 86 20 7C 93 
  18413      9895.007 DT     03A8 Rx 8  00 00 28 68 00 00 00 00 
  18414      9896.942 DT     004A Rx 8  02 00 00 00 00 00 00 C0 
  18415      9897.180 DT     004B Rx 8  00 C0 D8 D8 D8 D8 D8 00 
  18416      9897.448 DT     004C Rx 8  20 6F FF 80 00 00 00 00 
  18417      9898.668 DT     0165 Rx 8  50 C0 00 00 00 00 00 00 
  18418      9898.903 DT     0167 Rx 8  72 81 6E 10 00 1A 4E 00 
  18419      9899.147 DT     0171 Rx 8  15 61 A0 00 00 00 00 00 
  18420      9899.393 DT     0200 Rx 8  00 00 7F 0E 81 8B 00 00 
  18421      9899.631 DT     0202 Rx 8  04 A2 38 00 60 00 03 50 
  18422      9899.874 DT     0204 Rx 8  C0 5E 7D 02 8D 00 00 00 
  18423      9900.118 DT     0230 Rx 8  10 06 00 00 94 00 00 00 
  18424      9900.364 DT     03D4 Rx 8  FF C1 FE FF DF E0 00 00 
  18425      9900.612 DT     042F Rx 8  00 00 00 00 00 00 02 67 
  18426      9901.044 DT     0076 Rx 8  3F D8 C0 00 0F FF 00 00 
  18427      9901.282 DT     0077 Rx 8  03 78 08 1E 00 08 26 22 
  18428      9901.528 DT     007D Rx 8  00 00 FB 40 00 1F F7 F9 
  18429      9901.766 DT     0213 Rx 8  FF FF 00 04 01 12 1E 41 
  18430      9902.008 DT     0214 Rx 8  6F 66 00 00 00 00 26 40 
  18431      9902.244 DT     0216 Rx 8  59 B3 22 B5 82 00 00 00 
  18432      9902.478 DT     0217 Rx 8  02 74 02 78 02 78 02 80 
  18433      9902.946 DT     0415 Rx 8  03 78 D0 7D 8F FE 0F FE 
  18434      9904.679 DT     0041 Rx 8  00 00 00 00 00 00 00 00 
  18435      9904.922 DT     0242 Rx 8  00 57 21 C3 E4 00 00 01 
  18436      9905.168 DT     03A3 Rx 8  80 00 00 00 00 00 00 00 
  18437      9905.404 DT     0082 Rx 8  9A 00 14 3C A5 00 40 FF 
  18438      9905.638 DT     0085 Rx 8  7D EB 80 00 85 30 7C 93 
  18439      9906.068 DT     0332 Rx 8  00 30 A9 90 2E 00 00 00 
  18440      9906.520 DT     0091 Rx 8  7E E0 7F 7A E5 BD F0 00 
  18441      9908.613 DT     0186 Rx 8  15 24 01 A9 81 F7 00 00 
  18442      9908.863 DT     0047 Rx 8  20 00 00 00 00 00 00 00 
  18443      9909.102 DT     0167 Rx 8  72 81 94 10 00 1A 48 00 
  18444      9909.344 DT     0204 Rx 8  C0 5E 7D 02 8D 00 00 00 
  18445      9910.801 DT     04B0 Rx 8  A1 00 00 00 40 00 00 FB 
  18446      9911.033 DT     0217 Rx 8  02 74 02 7B 02 78 02 85 
  18447      9911.293 DT     041D Rx 8  00 00 E0 00 00 00 00 00 
  18448      9911.663 DT     0092 Rx 8  6F CD 70 18 73 68 B5 C2 
  18449      9913.000 DT     0455 Rx 8  00 00 00 00 00 00 00 00 
  18450      9914.657 DT     0085 Rx 8  7D EB 80 00 84 40 7C 93 
  18451      9915.183 DT     03A8 Rx 8  00 00 28 68 00 00 00 00 
  18452      9918.633 DT     0165 Rx 8  50 C0 00 00 00 00 00 00 
  18453      9918.868 DT     0167 Rx 8  72 81 77 10 00 1A 48 00 
  18454      9919.116 DT     0200 Rx 8  00 00 7F 0F 81 6F 00 00 
  18455      9919.352 DT     0202 Rx 8  04 98 48 00 60 00 03 58 
  18456      9919.595 DT     0204 Rx 8  C0 5E 7D 02 8E 00 00 00 
  18457      9919.839 DT     0230 Rx 8  10 06 00 00 94 00 00 00 
  18458      9920.800 DT     0076 Rx 8  3F D8 C0 00 0F FF 00 00 
  18459      9921.043 DT     0077 Rx 8  03 82 08 20 00 08 2E 21 
  18460      9921.293 DT     007D Rx 8  00 00 FA 50 00 1F F7 FA 
  18461      9921.535 DT     0213 Rx 8  FF FF 00 04 01 12 1F 41 
  18462      9921.775 DT     0214 Rx 8  6F 66 00 00 00 00 25 50 
  18463      9922.011 DT     0216 Rx 8  5D B6 24 B7 82 00 00 00 
  18464      9922.249 DT     0217 Rx 8  02 78 02 82 02 7B 02 82 
  18465      9922.489 DT     0415 Rx 8  03 7E D4 76 8F FE 0F FE 
  18466      9924.555 DT     0041 Rx 8  00 00 00 00 00 00 00 00 
  18467      9925.321 DT     0082 Rx 8  9B 00 14 40 A6 00 40 FF 
  18468      9925.561 DT     0085 Rx 8  7D EC 80 00 82 50 7C 93 
  18469      9928.617 DT     0186 Rx 8  15 25 01 A8 81 F7 00 00 
  18470      9928.901 DT     0204 Rx 8  C0 5E 7D 02 8E 00 00 00 
  18471      9929.151 DT     0047 Rx 8  20 00 00 00 00 00 00 00 
  18472      9929.388 DT     0167 Rx 8  72 81 76 10 00 1A 4B 00 
  18473      9929.632 DT     0171 Rx 8  15 61 A0 00 00 00 00 00 
  18474      9929.878 DT     03D4 Rx 8  FF C1 FE FF DF E0 00 00 
  18475      9930.122 DT     042F Rx 8  00 00 00 00 00 00 02 6D 
  18476      9930.794 DT     04B0 Rx 8  A1 00 00 00 50 00 00 FA 
  18477      9931.032 DT     0217 Rx 8  02 7D 02 87 02 82 02 89 
  18478      9931.534 DT     041D Rx 8  00 00 E0 00 00 00 00 00 
  18479      9931.770 DT     0091 Rx 8  7E EA 7F 86 C0 CC F0 00 
  18480      9934.679 DT     0085 Rx 8  7D EC 80 00 81 60 7C 93 
  18481      9935.547 DT     03A8 Rx 8  00 00 28 68 00 00 00 00 
  18482      9938.609 DT     0165 Rx 8  50 C0 00 00 00 00 00 00 
  18483      9938.854 DT     0156 Rx 8  9F 00 00 00 03 00 00 00 
  18484      9939.098 DT     0166 Rx 8  78 00 00 02 80 00 1C 00 
  18485      9939.332 DT     0167 Rx 8  72 81 81 10 00 1A 4D 00 
  18486      9939.570 DT     0178 Rx 8  00 00 02 03 0E 8B CA 87 
  18487      9939.817 DT     0179 Rx 8  00 00 00 00 8A 0E 09 81 
  18488      9940.061 DT     0200 Rx 8  00 00 7F 0D 81 85 00 00 
  18489      9940.301 DT     0202 Rx 8  04 8D 58 00 60 00 03 61 
  18490      9940.543 DT     0204 Rx 8  C0 5E 7D 02 8F 00 00 00 
  18491      9940.788 DT     0230 Rx 8  10 06 00 00 94 00 00 00 
  18492      9941.031 DT     0076 Rx 8  3F D9 C0 00 0F FF 00 00 
  18493      9941.270 DT     0077 Rx 8  03 90 08 22 00 08 32 21 
  18494      9941.516 DT     007D Rx 8  00 00 F9 60 00 1F F7 FE 
  18495      9941.760 DT     0421 Rx 8  00 00 40 00 00 00 68 2A 
  18496      9942.010 DT     0424 Rx 8  00 00 00 01 00 00 00 00 
  18497      9942.246 DT     0213 Rx 8  FF FF 00 04 01 12 21 41 
  18498      9942.488 DT     0214 Rx 8  6F 66 00 00 00 00 24 60 
  18499      9942.728 DT     0216 Rx 8  5F B8 26 BA 82 00 00 00 
  18500      9942.970 DT     0263 Rx 8  F0 00 FF FF 01 00 00 00 
  18501      9943.204 DT     0217 Rx 8  02 7D 02 89 02 80 02 8C 
  18502      9943.446 DT     02F1 Rx 8  00 00 51 00 00 01 40 C8 
  18503      9943.694 DT     037B Rx 8  00 00 08 00 00 00 00 00 
  18504      9943.942 DT     0386 Rx 8  00 00 00 00 00 00 00 00 
  18505      9944.178 DT     0415 Rx 8  03 89 D8 6A 8F FE 0F FE 
  18506      9944.423 DT     042D Rx 8  00 03 07 00 00 00 F0 00 
  18507      9944.653 DT     0430 Rx 8  03 00 8A 8A 89 01 13 91 
  18508      9944.905 DT     0041 Rx 8  00 00 00 00 00 00 00 00 
  18509      9945.145 DT     0084 Rx 8  15 00 00 FA 3A 03 0B 00 
  18510      9945.381 DT     0242 Rx 8  00 57 21 C2 E4 00 00 01 
  18511      9945.625 DT     038D Rx 8  20 00 00 00 00 00 08 F0 
  18512      9945.871 DT     03B1 Rx 8  08 00 00 00 00 00 00 00 
  18513      9946.109 DT     03B6 Rx 8  0C 00 01 00 53 FF FA DC 
  18514      9946.348 DT     03B7 Rx 8  00 00 03 00 6C 16 07 3D 
  18515      9946.596 DT     03B8 Rx 8  FF FF FF FF 00 00 00 00 
  18516      9946.842 DT     03B9 Rx 8  FF 00 00 00 00 00 00 00 
  18517      9947.090 DT     03BA Rx 8  00 00 00 00 00 00 00 00 
  18518      9947.336 DT     03E3 Rx 8  00 03 04 06 80 00 00 00 
  18519      9947.577 DT     03EB Rx 8  89 14 14 00 00 1A 02 40 
  18520      9947.809 DT     040A Rx 8  C1 04 01 63 09 9E 86 82 
  18521      9948.052 DT     042B Rx 8  CB BE 80 00 00 00 00 00 
  18522      9948.300 DT     042C Rx 8  00 00 00 00 3E E0 00 00 
  18523      9948.538 DT     0434 Rx 8  23 E0 14 00 04 F7 00 63 
  18524      9948.770 DT     0435 Rx 8  28 20 10 97 BC 20 09 02 
  18525      9949.020 DT     0047 Rx 8  20 00 00 00 00 00 00 00 
  18526      9949.258 DT     0082 Rx 8  9A 00 14 40 A6 00 40 FF 
  18527      9949.494 DT     0085 Rx 8  7D EC 80 00 80 70 7C 93 
  18528      9949.730 DT     0167 Rx 8  72 81 8E 10 00 1A 52 00 
  18529      9949.966 DT     0186 Rx 8  15 25 01 A8 81 F7 00 00 
  18530      9950.206 DT     0204 Rx 8  C0 5E 7D 02 91 00 00 00 
  18531      9950.448 DT     0439 Rx 8  33 11 00 18 00 41 00 00 
  18532      9950.696 DT     043A Rx 8  00 5C 00 00 00 00 00 00 
  18533      9950.927 DT     043C Rx 8  31 FE 52 4A 4F E5 94 C8 
  18534      9951.160 DT     0217 Rx 8  02 80 02 8C 02 80 02 91 
  18535      9951.403 DT     043D Rx 8  00 5F FE 4D 00 00 00 00 
  18536      9951.653 DT     041D Rx 8  00 00 E0 00 00 00 00 00 
  18537      9951.891 DT     043E Rx 8  00 94 10 82 A1 38 40 B7 
  18538      9952.137 DT     0447 Rx 8  20 00 00 00 00 A0 00 00 
  18539      9952.389 DT     0468 Rx 8  00 00 00 00 00 00 00 00 
  18540      9952.633 DT     04B0 Rx 8  A1 00 00 00 60 00 00 F9 
  18541      9952.881 DT     0469 Rx 8  00 00 00 00 00 00 00 00 
  18542      9953.130 DT     0581 Rx 8  81 00 FF FF FF FF FF FF 
  18543      9953.372 DT     059E Rx 8  9E 00 FF FF FF 00 FF FF 
  18544      9954.671 DT     0085 Rx 8  7D EC 80 00 7F 80 7C 93 
  18545      9955.011 DT     0326 Rx 8  81 A0 25 BC 81 A0 00 00 
  18546      9955.603 DT     03A8 Rx 8  00 00 28 69 00 00 00 00 
  18547      9956.021 DT     0436 Rx 8  20 00 00 00 00 00 00 00 
  18548      9956.323 DT     0091 Rx 8  7E F4 7F 8A A8 D6 F0 00 
  18549      9958.703 DT     0165 Rx 8  50 C0 00 00 00 00 00 00 
  18550      9958.939 DT     0167 Rx 8  72 81 9F 10 00 1A 47 00 
  18551      9959.183 DT     0171 Rx 8  15 61 A0 00 00 00 00 00 
  18552      9959.430 DT     0200 Rx 8  00 00 7F 0A 81 68 00 00 
  18553      9959.668 DT     0202 Rx 8  04 83 68 00 60 00 03 69 
  18554      9959.910 DT     0204 Rx 8  C0 5E 7D 02 8F 00 00 00 
  18555      9960.155 DT     0230 Rx 8  10 06 00 00 94 00 00 00 
  18556      9960.401 DT     03D4 Rx 8  FF C1 FE FF DF E0 00 00 
  18557      9960.647 DT     042F Rx 8  00 00 00 00 00 00 02 6F 
  18558      9960.975 DT     0076 Rx 8  3F D9 C0 00 0F FF 00 00 
  18559      9961.213 DT     0077 Rx 8  03 97 08 24 00 08 26 20 
  18560      9961.467 DT     007D Rx 8  00 00 F8 70 00 1F E7 FF 
  18561      9961.705 DT     0213 Rx 8  FF FF 00 04 01 12 21 41 
  18562      9961.949 DT     0214 Rx 8  6F 66 00 00 00 00 23 70 
  18563      9962.185 DT     0216 Rx 8  61 BC 2A BD 82 00 00 00 
  18564      9962.417 DT     0217 Rx 8  02 87 02 8E 02 8C 02 93 
  18565      9962.655 DT     0415 Rx 8  03 94 DC 5E 8F FE 0F FE 
  18566      9964.693 DT     0041 Rx 8  00 00 00 00 00 00 00 00 
  18567      9964.940 DT     03A3 Rx 8  80 00 00 00 00 00 00 00 
  18568      9965.361 DT     0082 Rx 8  9A 00 14 40 A6 00 40 FF 
  18569      9965.599 DT     0085 Rx 8  7D ED 80 00 7D 90 7C 93 
  18570      9968.656 DT     0204 Rx 8  C0 5F 7D 02 8D 00 00 00 
  18571      9968.906 DT     0047 Rx 8  20 00 00 00 00 00 00 00 
  18572      9969.143 DT     0167 Rx 8  72 81 6F 10 00 1A 40 00 
  18573      9969.379 DT     0186 Rx 8  15 26 01 A7 81 F7 00 00 
  18574      9970.793 DT     04B0 Rx 8  A1 00 00 00 70 00 00 F8 
  18575      9971.027 DT     0217 Rx 8  02 8C 02 93 02 8E 02 98 
  18576      9971.283 DT     041D Rx 8  00 00 E0 00 00 00 00 00 
  18577      9974.680 DT     0085 Rx 8  7D ED 80 00 7C A0 7C 93 
  18578      9975.452 DT     03A8 Rx 8  00 00 28 69 00 00 00 00 
  18579      9978.634 DT     0165 Rx 8  50 C0 00 00 00 00 00 00 
  18580      9978.867 DT     0167 Rx 8  72 81 4F 10 00 1A 51 00 
  18581      9979.113 DT     0200 Rx 8  00 00 7F 09 81 7F 00 00 
  18582      9979.349 DT     0202 Rx 8  04 78 78 00 60 00 03 72 
  18583      9979.591 DT     0204 Rx 8  C0 60 7D 02 8F 00 00 00 
  18584      9979.836 DT     0230 Rx 8  10 06 00 00 94 00 00 00 
  18585      9980.791 DT     0076 Rx 8  3F DA C0 00 0F FF 00 00 
  18586      9981.031 DT     0077 Rx 8  03 A0 08 26 00 08 1E 1F 
  18587      9981.277 DT     007D Rx 8  00 00 F7 80 00 1F F7 FD 
  18588      9981.516 DT     0213 Rx 8  FF FF 00 04 01 12 21 41 
  18589      9981.760 DT     0214 Rx 8  6F 66 00 00 00 00 22 80 
  18590      9982.000 DT     0216 Rx 8  64 BE 2C C0 82 00 00 00 
  18591      9982.232 DT     0217 Rx 8  02 89 02 93 02 91 02 96 
  18592      9982.466 DT     0091 Rx 8  7E EE 7F 94 95 E5 F0 00 
  18593      9982.706 DT     0415 Rx 8  03 9A E0 57 8F FE 0F FE 
  18594      9982.950 DT     0416 Rx 8  5E 00 F0 04 00 00 0F FF 
  18595      9984.584 DT     0041 Rx 8  00 00 00 00 00 00 00 00 
  18596      9984.820 DT     0242 Rx 8  00 57 21 C2 E4 00 00 01 
  18597      9985.302 DT     0082 Rx 8  9B 00 14 40 A6 00 40 FF 
  18598      9985.538 DT     0085 Rx 8  7D ED 80 00 7B B0 7C 93 
  18599      9987.439 DT     0333 Rx 8  00 02 00 00 00 00 00 00 
  18600      9988.583 DT     0186 Rx 8  15 29 01 A6 81 F7 00 00 
  18601      9988.833 DT     0047 Rx 8  20 00 00 00 00 00 00 00 
  18602      9989.079 DT     0083 Rx 8  00 E0 80 00 00 02 00 00 
  18603      9989.314 DT     0167 Rx 8  72 81 99 10 00 1A 4B 00 
  18604      9989.558 DT     0171 Rx 8  15 61 A0 00 00 00 00 00 
  18605      9989.800 DT     0204 Rx 8  C0 60 7D 02 8F 00 00 00 
  18606      9990.046 DT     03D4 Rx 8  FF C1 FE FF DF E0 00 00 
  18607      9990.292 DT     042F Rx 8  00 00 00 00 00 00 02 72 
  18608      9990.535 DT     043D Rx 8  00 5F FE 4C 00 00 00 00 
  18609      9990.768 DT     043E Rx 8  00 94 10 82 A1 39 58 B9 
  18610      9991.008 DT     04B0 Rx 8  A1 00 00 00 80 00 00 F7 
  18611      9991.238 DT     0217 Rx 8  02 8C 02 93 02 8E 02 96 
  18612      9991.488 DT     041D Rx 8  00 00 E0 00 00 00 00 00 
  18613      9994.616 DT     03A8 Rx 8  00 00 28 6A 00 00 00 00 
  18614      9994.850 DT     0085 Rx 8  7D EE 80 00 79 C0 7C 93 
  18615      9995.084 DT     03B4 Rx 8  40 11 11 FF 23 23 00 00 
  18616      9995.333 DT     042C Rx 8  00 00 00 00 3E E0 00 00 
  18617      9996.906 DT     004A Rx 8  02 00 00 00 00 00 00 C0 
  18618      9997.144 DT     004B Rx 8  00 C0 D8 D8 D8 D8 D8 00 
  18619      9997.410 DT     004C Rx 8  20 6F FF 80 00 00 00 00 
  18620      9998.668 DT     0165 Rx 8  50 C0 00 00 00 00 00 00 
  18621      9998.907 DT     0167 Rx 8  72 81 80 10 00 1A 4B 00 
  18622      9999.155 DT     0200 Rx 8  00 00 7F 07 81 76 00 00 
  18623      9999.399 DT     0202 Rx 8  04 7C 08 00 60 00 03 7C 
  18624      9999.641 DT     0204 Rx 8  C0 60 7D 02 91 00 00 00 
  18625      9999.886 DT     0230 Rx 8  10 06 00 00 94 00 00 00 
  18626     10000.807 DT     0076 Rx 8  3F DA C0 00 0F FF 00 00 
  18627     10001.047 DT     0077 Rx 8  03 A4 08 25 00 08 1E 22 
  18628     10001.293 DT     007D Rx 8  00 00 F6 90 00 1F F7 FD 
  18629     10001.535 DT     0213 Rx 8  FF FF 00 04 01 12 1F 41 
  18630     10001.776 DT     0214 Rx 8  6F 66 00 00 00 00 21 90 
  18631     10002.018 DT     0216 Rx 8  67 C0 2E C2 82 00 00 00 
  18632     10002.254 DT     0217 Rx 8  02 93 02 98 02 8E 02 9B 
  18633     10002.492 DT     0415 Rx 8  03 9A E4 56 8F FE 0F FE 
  18634     10004.554 DT     0041 Rx 8  00 00 00 00 00 00 00 00 
  18635     10004.788 DT     03B5 Rx 8  00 E3 00 E6 00 DE 00 DC 
  18636     10005.304 DT     0082 Rx 8  9B 00 14 40 A6 00 40 FF 
  18637     10005.548 DT     0085 Rx 8  7D EF 80 00 77 D0 7C 93 
  18638     10005.916 DT     0332 Rx 8  00 30 A9 90 2E 00 00 00 
  18639     10006.278 DT     0091 Rx 8  7E EE 7F 90 8F EF F0 00 
  18640     10008.593 DT     0186 Rx 8  15 2B 01 A5 81 F7 00 00 
  18641     10008.884 DT     0204 Rx 8  C0 60 7D 02 94 00 00 00 
  18642     10009.134 DT     0047 Rx 8  20 00 00 00 00 00 00 00 
  18643     10009.370 DT     0167 Rx 8  72 81 7E 10 00 1A 48 00 
  18644     10010.784 DT     04B0 Rx 8  A1 00 00 00 90 00 00 F6 
  18645     10011.018 DT     0217 Rx 8  02 91 02 9B 02 98 02 9F 
  18646     10011.274 DT     041D Rx 8  00 00 E0 00 00 00 00 00 
  18647     10012.917 DT     0455 Rx 8  00 00 00 00 00 00 00 00 
  18648     10014.664 DT     0085 Rx 8  7D EF 80 00 76 E0 7C 93 
  18649     10014.912 DT     03A8 Rx 8  00 00 28 6A 00 00 00 00 
  18650     10016.164 DT     0092 Rx 8  6F CA 70 17 73 5E 91 F4 
  18651     10018.602 DT     0165 Rx 8  50 C0 00 00 00 00 00 00 
  18652     10018.839 DT     0167 Rx 8  72 81 71 10 00 1A 4A 00 
  18653     10019.083 DT     0171 Rx 8  15 61 A0 00 00 00 00 00 
  18654     10019.331 DT     0200 Rx 8  00 00 7F 07 81 71 00 00 
  18655     10019.567 DT     0202 Rx 8  04 72 18 00 60 00 03 84 
  18656     10019.812 DT     0204 Rx 8  C0 60 7D 02 94 00 00 00 
  18657     10020.056 DT     0230 Rx 8  10 06 00 00 94 00 00 00 
  18658     10020.302 DT     03D4 Rx 8  FF C1 FE FF DF E0 00 00 
  18659     10020.546 DT     042F Rx 8  00 00 00 00 00 00 02 73 
  18660     10020.884 DT     0076 Rx 8  3F DC C0 00 0F FF 00 00 
  18661     10021.124 DT     0077 Rx 8  03 AE 08 23 00 08 2A 20 
  18662     10021.368 DT     007D Rx 8  00 00 F5 A0 00 1F C7 FC 
  18663     10021.608 DT     0213 Rx 8  FF FF 00 04 01 12 20 41 
  18664     10021.854 DT     0214 Rx 8  6F 66 00 00 00 00 20 A0 
  18665     10022.092 DT     0216 Rx 8  69 C3 31 C4 82 00 00 00 
  18666     10022.330 DT     0217 Rx 8  02 93 02 9F 02 9B 02 9F 
  18667     10022.568 DT     0415 Rx 8  03 A5 E8 4A 8F FE 0F FE 
  18668     10024.693 DT     0041 Rx 8  00 00 00 00 00 00 00 00 
  18669     10024.929 DT     0242 Rx 8  00 57 21 C2 E4 00 00 01 
  18670     10025.175 DT     03A3 Rx 8  80 00 00 00 00 00 00 00 
  18671     10025.411 DT     0082 Rx 8  9A 00 14 3C A5 00 40 FF 
  18672     10025.649 DT     0085 Rx 8  7D F0 80 00 74 F0 7C 93 
  18673     10025.899 DT     03C7 Rx 8  00 00 40 00 00 00 00 00 
  18674     10028.620 DT     0186 Rx 8  15 2B 01 A5 81 F7 00 00 
  18675     10028.870 DT     0047 Rx 8  20 00 00 00 00 00 00 00 
  18676     10029.103 DT     0167 Rx 8  72 81 79 10 00 1A 47 00 
  18677     10029.349 DT     0204 Rx 8  C0 60 7D 02 97 00 00 00 
  18678     10030.798 DT     04B0 Rx 8  A1 00 00 00 A0 00 00 F5 
  18679     10031.032 DT     0217 Rx 8  02 9F 02 A5 02 9B 02 A7 
  18680     10031.534 DT     041D Rx 8  00 00 E0 00 00 00 00 00 
  18681     10031.766 DT     0091 Rx 8  7E E3 7F 8E 8D FE F0 00 
  18682     10034.710 DT     0085 Rx 8  7D F1 80 00 82 00 7C 93 
  18683     10034.957 DT     03A8 Rx 8  00 00 28 6C 00 00 00 00 
  18684     10038.629 DT     0165 Rx 8  50 C0 00 00 00 00 00 00 
  18685     10038.873 DT     0156 Rx 8  9F 00 00 00 03 00 00 00 
  18686     10039.117 DT     0166 Rx 8  78 00 00 02 80 00 1C 00 
  18687     10039.354 DT     0167 Rx 8  72 81 6C 10 00 1A 4B 00 
  18688     10039.590 DT     0178 Rx 8  00 00 02 07 0E 8B CA 87 
  18689     10039.828 DT     0179 Rx 8  00 00 00 00 8A 10 09 89 
  18690     10040.073 DT     0200 Rx 8  00 00 7F 09 81 72 00 00 
  18691     10040.309 DT     0202 Rx 8  04 6A 28 00 60 00 03 8A 
  18692     10040.555 DT     0204 Rx 8  C0 60 7D 02 9A 00 00 00 
  18693     10040.799 DT     0230 Rx 8  10 06 00 00 94 00 00 00 
  18694     10041.045 DT     0076 Rx 8  3F DD C0 00 0F FF 00 00 
  18695     10041.281 DT     0077 Rx 8  03 BA 08 25 00 08 26 1D 
  18696     10041.525 DT     007D Rx 8  00 00 F4 B0 00 1F C7 F7 
  18697     10041.768 DT     0421 Rx 8  00 00 40 00 00 00 69 2A 
  18698     10042.018 DT     0424 Rx 8  00 00 00 01 00 00 00 00 
  18699     10042.254 DT     0213 Rx 8  FF FF 00 04 01 12 21 41 
  18700     10042.498 DT     0214 Rx 8  6F 66 00 00 00 00 1F B0 
  18701     10042.734 DT     0216 Rx 8  6C C6 34 C8 82 00 00 00 
  18702     10042.976 DT     0263 Rx 8  F0 00 FF FF 01 00 00 00 
  18703     10043.214 DT     0217 Rx 8  02 9F 02 A7 02 9F 02 A7 
  18704     10043.462 DT     037B Rx 8  00 00 08 00 00 00 00 00 
  18705     10043.700 DT     0415 Rx 8  03 B1 EC 3D 8F FE 0F FE 
  18706     10043.944 DT     042D Rx 8  00 03 07 00 00 00 F0 00 
  18707     10044.174 DT     0430 Rx 8  03 00 8A 8A 89 01 13 91 
  18708     10044.412 DT     0434 Rx 8  23 E8 14 00 04 F7 00 63 
  18709     10044.646 DT     0435 Rx 8  28 20 18 9F BC 20 09 02 
  18710     10044.899 DT     0041 Rx 8  00 00 00 00 00 00 00 00 
  18711     10045.133 DT     03B3 Rx 8  40 48 04 0D 10 05 00 02 
  18712     10045.375 DT     03C3 Rx 8  70 CC 00 00 00 00 80 00 
  18713     10045.611 DT     0082 Rx 8  9B 00 14 44 A6 00 40 FF 
  18714     10045.851 DT     0085 Rx 8  7D F1 80 00 81 10 7C 93 
  18715     10046.093 DT     042B Rx 8  CB BE 80 00 00 00 00 00 
  18716     10046.341 DT     042C Rx 8  00 00 00 00 3E E0 00 00 
  18717     10046.586 DT     043D Rx 8  00 5E FE 4C 00 00 00 00 
  18718     10046.826 DT     043E Rx 8  00 94 10 80 A1 39 F0 B9 
  18719     10048.597 DT     0186 Rx 8  15 2C 01 A4 81 F7 00 00 
  18720     10048.952 DT     0204 Rx 8  C0 60 7D 02 99 00 00 00 
  18721     10049.202 DT     0047 Rx 8  20 00 00 00 00 00 00 00 
  18722     10049.436 DT     0167 Rx 8  72 81 7A 10 00 1A 4A 00 
  18723     10049.680 DT     0171 Rx 8  15 61 A0 00 00 00 00 00 
  18724     10049.925 DT     042F Rx 8  00 00 00 00 00 00 02 78 
  18725     10050.287 DT     03D4 Rx 8  FF C1 FE FF DF E0 00 00 
  18726     10051.005 DT     0217 Rx 8  02 9F 02 A7 02 A2 02 AC 
  18727     10051.269 DT     041D Rx 8  00 00 E0 00 00 00 00 00 
  18728     10051.513 DT     04B0 Rx 8  A1 00 00 00 B0 00 00 F4 
  18729     10053.898 DT     0326 Rx 8  81 A0 25 BC 81 A0 00 00 
  18730     10054.658 DT     0085 Rx 8  7D F2 80 00 7F 20 7C 93 
  18731     10054.902 DT     03A8 Rx 8  00 00 28 6D 00 00 00 00 
  18732     10055.164 DT     03AA Rx 8  00 20 00 00 00 00 00 00 
  18733     10055.421 DT     03AB Rx 8  12 FF 0F F0 40 00 00 00 
  18734     10056.320 DT     0436 Rx 8  20 00 00 00 00 00 00 00 
  18735     10056.558 DT     0091 Rx 8  7E D5 7F 92 8D 08 F0 00 
  18736     10058.660 DT     0165 Rx 8  50 C0 00 00 00 00 00 00 
  18737     10058.894 DT     0167 Rx 8  72 81 75 10 00 1A 49 00 
  18738     10059.141 DT     0200 Rx 8  00 00 7F 0A 81 6B 00 00 
  18739     10059.379 DT     0202 Rx 8  04 60 38 00 60 00 03 92 
  18740     10059.627 DT     0204 Rx 8  C0 60 7D 02 96 00 00 00 
  18741     10059.871 DT     0230 Rx 8  10 06 00 00 94 00 00 00 
  18742     10060.797 DT     0076 Rx 8  3F DE C0 00 0F FF 00 00 
  18743     10061.035 DT     0077 Rx 8  03 C1 08 25 00 08 2A 1E 
  18744     10061.279 DT     007D Rx 8  00 00 F3 C0 00 1F D7 F4 
  18745     10061.519 DT     0213 Rx 8  FF FF 00 04 01 12 20 41 
  18746     10061.763 DT     0214 Rx 8  6F 66 00 00 00 00 1E C0 
  18747     10062.007 DT     0216 Rx 8  6F C8 37 CA 82 00 00 00 
  18748     10062.243 DT     0217 Rx 8  02 9F 02 AF 02 A7 02 AC 
  18749     10062.483 DT     0415 Rx 8  03 B6 F0 37 8F FE 0F FE 
  18750     10064.552 DT     0041 Rx 8  00 00 00 00 00 00 00 00 
  18751     10064.790 DT     0242 Rx 8  00 57 21 BD E4 00 00 01 
  18752     10065.260 DT     0082 Rx 8  9B 00 14 48 A5 00 40 FF 
  18753     10065.502 DT     0085 Rx 8  7D F3 80 00 7D 30 7C 93 
  18754     10068.627 DT     0186 Rx 8  15 2D 01 A3 81 F7 00 00 
  18755     10068.873 DT     0204 Rx 8  C0 60 7D 02 97 00 00 00 
  18756     10069.123 DT     0047 Rx 8  20 00 00 00 00 00 00 00 
  18757     10069.356 DT     0167 Rx 8  72 81 72 10 00 1A 4B 00 
  18758     10070.803 DT     04B0 Rx 8  A1 00 00 00 C0 00 00 F3 
  18759     10071.037 DT     0217 Rx 8  02 A2 02 AC 02 A7 02 B0 
  18760     10071.297 DT     041D Rx 8  00 00 E0 00 00 00 00 00 
  18761     10074.632 DT     0085 Rx 8  7D F3 80 00 7C 40 7C 93 
  18762     10075.350 DT     03A8 Rx 8  00 00 28 6E 00 00 00 00 
  18763     10078.620 DT     0165 Rx 8  50 C0 00 00 00 00 00 00 
  18764     10078.856 DT     0167 Rx 8  72 81 79 10 00 1A 4B 00 
  18765     10079.100 DT     0171 Rx 8  15 61 A0 00 00 00 00 00 
  18766     10079.344 DT     0200 Rx 8  00 00 7F 0B 81 71 00 00 
  18767     10079.581 DT     0202 Rx 8  04 56 48 00 60 00 03 9A 
  18768     10079.825 DT     0204 Rx 8  C0 60 7D 02 98 00 00 00 
  18769     10080.069 DT     0230 Rx 8  10 06 00 00 94 00 00 00 
  18770     10080.315 DT     03D4 Rx 8  FF C1 FE FF DF E0 00 00 
  18771     10080.559 DT     042F Rx 8  00 00 00 00 00 00 02 7A 
  18772     10080.905 DT     0076 Rx 8  3F E0 C0 00 0F FF 00 00 
  18773     10081.143 DT     0077 Rx 8  03 C7 08 22 00 08 2A 1F 
  18774     10081.389 DT     007D Rx 8  00 00 F2 D0 00 1F D7 F0 
  18775     10081.631 DT     0213 Rx 8  FF FF 00 04 01 12 1F 41 
  18776     10081.871 DT     0214 Rx 8  6F 66 00 00 00 00 1D D0 
  18777     10082.107 DT     0216 Rx 8  72 CB 3A CC 82 00 00 00 
  18778     10082.339 DT     0217 Rx 8  02 A2 02 B0 02 A7 02 B6 
  18779     10082.571 DT     0091 Rx 8  7E C4 7F 88 99 17 F0 00 
  18780     10082.813 DT     0415 Rx 8  03 C1 F4 2B 8F FE 0F FE 
  18781     10083.059 DT     0416 Rx 8  5F 00 EF 04 00 00 0F FF 
  18782     10084.840 DT     0041 Rx 8  00 00 00 00 00 00 00 00 
  18783     10085.086 DT     03A3 Rx 8  80 00 00 00 00 00 00 00 
  18784     10085.324 DT     0082 Rx 8  9B 00 14 44 A6 00 40 FF 
  18785     10085.560 DT     0085 Rx 8  7D F4 80 00 7A 50 7C 93 
  18786     10087.521 DT     0333 Rx 8  00 02 00 00 00 00 00 00 
  18787     10088.615 DT     0186 Rx 8  15 2F 01 A3 81 F7 00 00 
  18788     10088.865 DT     0047 Rx 8  20 00 00 00 00 00 00 00 
  18789     10089.102 DT     0167 Rx 8  72 81 78 10 00 1A 49 00 
  18790     10089.348 DT     0083 Rx 8  00 E0 80 00 00 02 00 00 
  18791     10089.592 DT     0204 Rx 8  C0 60 7D 02 9B 00 00 00 
  18792     10089.832 DT     043D Rx 8  00 5E FE 4B 00 00 00 00 
  18793     10090.066 DT     043E Rx 8  00 94 10 80 A1 39 B0 BB 
  18794     10090.798 DT     04B0 Rx 8  A1 00 00 00 D0 00 00 F2 
  18795     10091.034 DT     0217 Rx 8  02 AF 02 B3 02 B0 02 B0 
  18796     10091.288 DT     041D Rx 8  00 00 E0 00 00 00 00 00 
  18797     10094.560 DT     042C Rx 8  00 00 00 00 3E E0 00 00 
  18798     10094.798 DT     0085 Rx 8  7D F5 80 00 78 60 7C 93 
  18799     10095.535 DT     03A8 Rx 8  00 00 28 70 00 00 00 00 
  18800     10096.844 DT     004A Rx 8  02 00 00 00 00 00 00 C0 
  18801     10097.082 DT     004B Rx 8  00 C0 D8 D8 D8 D8 D8 00 
  18802     10097.350 DT     004C Rx 8  20 6F FF 80 00 00 00 00 
  18803     10098.911 DT     0165 Rx 8  50 C0 00 00 00 00 00 00 
  18804     10099.146 DT     0167 Rx 8  72 81 6D 10 00 1A 45 00 
  18805     10099.392 DT     0200 Rx 8  00 00 7F 0B 81 62 00 00 
  18806     10099.628 DT     0202 Rx 8  04 4C 58 00 60 00 03 A2 
  18807     10099.873 DT     0204 Rx 8  C0 60 7D 02 9B 00 00 00 
  18808     10100.117 DT     0230 Rx 8  10 06 00 00 94 00 00 00 
  18809     10100.953 DT     0076 Rx 8  3F E1 C0 00 0F FF 00 00 
  18810     10101.191 DT     0077 Rx 8  03 CF 08 20 00 08 32 1C 
  18811     10101.437 DT     007D Rx 8  00 00 F1 E0 00 1F A7 E9 
  18812     10101.677 DT     0213 Rx 8  FF FF 00 04 01 12 1F 40 
  18813     10101.919 DT     0214 Rx 8  6F 66 00 00 00 00 1C E0 
  18814     10102.155 DT     0216 Rx 8  74 CE 3C D0 82 00 00 00 
  18815     10102.389 DT     0217 Rx 8  02 AF 02 B6 02 B6 02 BB 
  18816     10102.631 DT     0415 Rx 8  03 CD F8 1E 8F FE 0F FE 
  18817     10104.537 DT     0041 Rx 8  00 00 00 00 00 00 00 00 
  18818     10104.775 DT     0242 Rx 8  00 57 21 BD E4 00 00 01 
  18819     10105.573 DT     0082 Rx 8  9C 00 14 40 A6 00 40 FF 
  18820     10105.813 DT     0085 Rx 8  7D F6 80 00 76 70 7C 93 
  18821     10106.051 DT     0332 Rx 8  00 30 A9 90 2E 00 00 00 
  18822     10106.387 DT     0091 Rx 8  7E AF 7F 80 AC 21 F0 00 
  18823     10108.600 DT     0186 Rx 8  15 2F 01 A2 81 F7 00 00 
  18824     10108.851 DT     0047 Rx 8  20 00 00 00 00 00 00 00 
  18825     10109.085 DT     0167 Rx 8  72 81 5D 10 00 1A 47 00 
  18826     10109.329 DT     0171 Rx 8  15 61 A0 00 00 00 00 00 
  18827     10109.573 DT     0204 Rx 8  C0 60 7D 02 9C 00 00 00 
  18828     10109.819 DT     03D4 Rx 8  FF C1 FE FF DF E0 00 00 
  18829     10110.066 DT     042F Rx 8  00 00 00 00 00 00 02 7D 
  18830     10110.809 DT     04B0 Rx 8  A1 00 00 00 E0 00 00 F1 
  18831     10111.047 DT     0217 Rx 8  02 B0 02 BB 02 B0 02 C0 
  18832     10111.303 DT     041D Rx 8  00 00 E0 00 00 00 00 00 
  18833     10112.910 DT     03E2 Rx 8  00 00 08 1B 80 40 00 00 
  18834     10113.162 DT     03EA Rx 8  00 00 00 00 00 00 60 00 
  18835     10113.410 DT     0455 Rx 8  00 00 00 00 00 00 00 00 
  18836     10114.679 DT     0085 Rx 8  7D F7 80 00 74 80 7C 93 
  18837     10115.188 DT     03A8 Rx 8  00 00 28 71 00 00 00 00 
  18838     10118.626 DT     0165 Rx 8  50 C0 00 00 00 00 00 00 
  18839     10118.858 DT     0167 Rx 8  72 81 63 10 00 1A 45 00 
  18840     10119.104 DT     0200 Rx 8  00 00 7F 0D 81 60 00 00 
  18841     10119.344 DT     0202 Rx 8  04 41 68 00 60 00 03 AB 
  18842     10119.589 DT     0204 Rx 8  C0 60 7D 02 9E 00 00 00 
  18843     10119.833 DT     0230 Rx 8  10 06 00 00 94 00 00 00 
  18844     10120.786 DT     0076 Rx 8  3F E3 C0 00 0F FF 00 00 
  18845     10121.024 DT     0077 Rx 8  03 D9 08 20 00 08 42 1D 
  18846     10121.268 DT     007D Rx 8  00 00 F0 F0 00 1F 87 E8 
  18847     10121.508 DT     0213 Rx 8  FF FF 00 04 01 12 20 40 
  18848     10121.754 DT     0214 Rx 8  6F 66 00 00 00 00 1B F0 
  18849     10121.996 DT     0216 Rx 8  77 D1 3F D2 82 00 00 00 
  18850     10122.228 DT     0217 Rx 8  02 B0 02 BD 02 B8 02 BB 
  18851     10122.456 DT     0092 Rx 8  6F E5 70 08 73 4C 60 2B 
  18852     10122.696 DT     0415 Rx 8  03 D2 FC 18 8F FE 0F FE 
  18853     10124.544 DT     0041 Rx 8  00 00 00 00 00 00 00 00 
  18854     10125.322 DT     0082 Rx 8  9D 00 14 4C A6 00 40 FF 
  18855     10125.562 DT     0085 Rx 8  7D F7 80 00 73 90 7C 93 
  18856     10128.620 DT     0204 Rx 8  C0 60 7D 02 A0 00 00 00 
  18857     10128.871 DT     0047 Rx 8  20 00 00 00 00 00 00 00 
  18858     10129.105 DT     0167 Rx 8  72 81 5A 10 00 1A 45 00 
  18859     10129.343 DT     0186 Rx 8  15 30 01 A1 81 F7 00 00 
  18860     10130.794 DT     04B0 Rx 8  A1 00 00 00 F0 00 00 F0 
  18861     10131.028 DT     0217 Rx 8  02 AF 02 C0 02 BB 02 CC 
  18862     10131.530 DT     041D Rx 8  00 00 E0 00 00 00 00 00 
  18863     10131.762 DT     0091 Rx 8  7E B2 7F 86 94 30 F0 00 
  18864     10134.687 DT     0085 Rx 8  7D F8 80 00 71 A0 7C 93 
  18865     10135.564 DT     03A8 Rx 8  00 00 28 73 00 00 00 00 
  18866     10137.956 DT     0456 Rx 8  80 00 00 00 00 00 00 00 
  18867     10138.854 DT     0165 Rx 8  50 C0 00 00 00 00 00 00 
  18868     10139.098 DT     0156 Rx 8  9F 00 00 00 03 00 00 00 
  18869     10139.342 DT     0166 Rx 8  78 00 00 02 80 00 1C 00 
  18870     10139.577 DT     0167 Rx 8  72 81 5A 10 00 1A 45 00 
  18871     10139.821 DT     0171 Rx 8  15 61 A0 00 00 00 00 00 
  18872     10140.059 DT     0178 Rx 8  00 00 02 03 0E 8B CA 87 
  18873     10140.296 DT     0179 Rx 8  00 00 00 00 8A 11 09 91 
  18874     10140.544 DT     0200 Rx 8  00 00 7F 0E 81 5F 00 00 
  18875     10140.780 DT     0202 Rx 8  04 36 78 00 60 00 03 B4 
  18876     10141.026 DT     0076 Rx 8  3F E4 C0 00 0F FF 00 00 
  18877     10141.266 DT     0077 Rx 8  03 E2 08 22 00 08 3A 1E 
  18878     10141.509 DT     007D Rx 8  00 00 FF 00 00 1F F7 EC 
  18879     10141.753 DT     0204 Rx 8  C0 60 7D 02 9E 00 00 00 
  18880     10141.998 DT     0230 Rx 8  10 06 00 00 94 00 00 00 
  18881     10142.236 DT     0213 Rx 8  FF FF 00 04 01 12 20 40 
  18882     10142.478 DT     0214 Rx 8  6F 66 00 00 00 00 2A 00 
  18883     10142.720 DT     0263 Rx 8  F0 00 FF FF 01 00 00 00 
  18884     10142.968 DT     037B Rx 8  00 00 08 00 00 00 00 00 
  18885     10143.202 DT     0216 Rx 8  7A D4 42 D6 82 00 00 00 
  18886     10143.434 DT     0217 Rx 8  02 B8 02 C4 02 C0 02 C9 
  18887     10143.680 DT     03D4 Rx 8  FF C1 FE FF DF E0 00 00 
  18888     10143.918 DT     0415 Rx 8  03 DE C0 1B 8F FE 0F FE 
  18889     10144.160 DT     0421 Rx 8  00 00 40 00 00 00 6B 2A 
  18890     10144.410 DT     0424 Rx 8  00 00 00 01 00 00 00 00 
  18891     10144.655 DT     042D Rx 8  00 03 07 00 00 00 F0 00 
  18892     10144.907 DT     0041 Rx 8  00 00 00 00 00 00 00 00 
  18893     10145.145 DT     0242 Rx 8  00 57 21 BB E4 00 00 01 
  18894     10145.391 DT     03A3 Rx 8  80 00 00 00 00 00 00 00 
  18895     10145.629 DT     040A Rx 8  C1 10 40 88 60 25 00 00 
  18896     10145.871 DT     042B Rx 8  CB BE 80 00 00 00 00 00 
  18897     10146.119 DT     042C Rx 8  00 00 00 00 3E E0 00 00 
  18898     10146.368 DT     042F Rx 8  00 00 00 00 00 00 02 7F 
  18899     10146.598 DT     0430 Rx 8  03 00 8A 8A 89 05 13 91 
  18900     10146.836 DT     0434 Rx 8  23 E8 14 00 04 F7 00 63 
  18901     10147.072 DT     0082 Rx 8  9C 00 14 48 A5 00 40 FF 
  18902     10147.310 DT     0085 Rx 8  7D F9 80 00 6F B0 7C 93 
  18903     10147.542 DT     0435 Rx 8  28 20 15 97 BC 20 09 02 
  18904     10147.782 DT     043D Rx 8  00 5E FE 4B 00 00 00 00 
  18905     10148.018 DT     043E Rx 8  00 94 10 80 A1 39 68 BC 
  18906     10148.271 DT     0468 Rx 8  00 00 00 00 00 00 00 00 
  18907     10148.533 DT     0469 Rx 8  00 00 00 00 00 00 00 00 
  18908     10148.783 DT     0047 Rx 8  20 00 00 00 00 00 00 00 
  18909     10149.019 DT     0167 Rx 8  72 81 5B 10 00 1A 45 00 
  18910     10149.257 DT     0186 Rx 8  15 30 01 A1 81 F7 00 00 
  18911     10149.505 DT     0204 Rx 8  C0 60 7D 02 A0 00 00 00 
  18912     10150.831 DT     04B0 Rx 8  A1 00 00 00 00 00 00 FF 
  18913     10151.065 DT     0217 Rx 8  02 BD 02 C7 02 BD 02 C2 
  18914     10151.317 DT     041D Rx 8  00 00 E0 00 00 00 00 00 
  18915     10153.880 DT     0326 Rx 8  81 A0 25 BC 81 A0 00 00 
  18916     10154.656 DT     0085 Rx 8  7D FA 80 00 6D C0 7C 93 
  18917     10155.424 DT     03A8 Rx 8  00 00 28 74 00 00 00 00 
  18918     10156.236 DT     0091 Rx 8  7E B2 7F 8A 86 3A F0 00 
  18919     10156.619 DT     0436 Rx 8  20 00 00 00 00 00 00 00 
  18920     10158.649 DT     0165 Rx 8  50 C0 00 00 00 00 00 00 
  18921     10158.884 DT     0167 Rx 8  72 81 59 10 00 1A 46 00 
  18922     10159.132 DT     0200 Rx 8  00 00 7F 0F 81 5E 00 00 
  18923     10159.370 DT     0202 Rx 8  04 3B 08 00 60 00 03 BD 
  18924     10159.618 DT     0204 Rx 8  C0 60 7D 02 A0 00 00 00 
  18925     10159.863 DT     0230 Rx 8  10 06 00 00 94 00 00 00 
  18926     10160.787 DT     0076 Rx 8  3F E6 C0 00 0F FF 00 00 
  18927     10161.029 DT     0077 Rx 8  03 EC 08 23 00 08 3E 1B 
  18928     10161.277 DT     007D Rx 8  00 00 FE 10 00 1F D7 EC 
  18929     10161.517 DT     0213 Rx 8  FF FF 00 04 01 12 20 40 
  18930     10161.759 DT     0214 Rx 8  6F 66 00 00 00 00 29 10 
  18931     10162.001 DT     0216 Rx 8  7D D6 45 D8 82 00 00 00 
  18932     10162.237 DT     0217 Rx 8  02 C0 02 CC 02 C0 02 C9 
  18933     10162.479 DT     0415 Rx 8  03 DE C4 1A 8F FE 0F FE 
  18934     10164.534 DT     0041 Rx 8  00 00 00 00 00 00 00 00 
  18935     10165.330 DT     0082 Rx 8  9C 00 14 48 A6 00 40 FF 
  18936     10165.568 DT     0085 Rx 8  7D FB 80 00 6B D0 7C 93 
  18937     10168.634 DT     0204 Rx 8  C0 60 7D 02 9D 00 00 00 
  18938     10168.884 DT     0047 Rx 8  20 00 00 00 00 00 00 00 
  18939     10169.119 DT     0167 Rx 8  72 81 5B 10 00 1A 44 00 
  18940     10169.363 DT     0171 Rx 8  15 61 A0 00 00 00 00 00 
  18941     10169.601 DT     0186 Rx 8  15 31 01 A0 81 F7 00 00 
  18942     10169.847 DT     03D4 Rx 8  FF C1 FE FF DF E0 00 00 
  18943     10170.093 DT     042F Rx 8  00 00 00 00 00 00 02 82 
  18944     10170.813 DT     04B0 Rx 8  A1 00 00 00 10 00 00 FE 
  18945     10171.047 DT     0217 Rx 8  02 C0 02 CE 02 C2 02 CE 
  18946     10171.303 DT     041D Rx 8  00 00 E0 00 00 00 00 00 
  18947     10174.670 DT     0085 Rx 8  7D FB 80 00 6A E0 7C 93 
  18948     10174.916 DT     03A8 Rx 8  00 00 28 76 00 00 00 00 
  18949     10178.610 DT     0165 Rx 8  50 C0 00 00 00 00 00 00 
  18950     10178.847 DT     0167 Rx 8  72 81 54 10 00 1A 44 00 
  18951     10179.093 DT     0200 Rx 8  00 00 7F 11 81 5D 00 00 
  18952     10179.333 DT     0202 Rx 8  04 30 18 00 60 00 03 C6 
  18953     10179.577 DT     0204 Rx 8  C0 60 7D 02 9E 00 00 00 
  18954     10179.822 DT     0230 Rx 8  10 06 00 00 94 00 00 00 
  18955     10180.781 DT     0076 Rx 8  3F E8 C0 00 0F FF 00 00 
  18956     10181.021 DT     0077 Rx 8  03 F5 08 23 00 08 3E 1D 
  18957     10181.267 DT     007D Rx 8  00 00 FD 20 00 1F A7 EE 
  18958     10181.507 DT     0213 Rx 8  FF FF 00 04 01 12 21 40 
  18959     10181.754 DT     0214 Rx 8  6F 66 00 00 00 00 28 20 
  18960     10181.992 DT     0216 Rx 8  80 D9 48 DC 82 00 00 00 
  18961     10182.228 DT     0091 Rx 8  7E BD 7F 8C 6A 49 F0 00 
  18962     10182.458 DT     0217 Rx 8  02 C4 02 D1 02 C7 02 D3 
  18963     10182.700 DT     0415 Rx 8  03 E9 C8 0E 8F FE 0F FE 
  18964     10182.948 DT     0416 Rx 8  50 00 FE 04 00 00 0F FF 
  18965     10184.649 DT     0041 Rx 8  00 00 00 00 00 00 00 00 
  18966     10184.887 DT     0242 Rx 8  00 57 21 B8 E4 00 00 01 
  18967     10185.333 DT     0082 Rx 8  9C 00 14 40 A6 00 40 FF 
  18968     10185.571 DT     0085 Rx 8  7D FC 80 00 68 F0 7C 93 
  18969     10187.464 DT     0333 Rx 8  00 02 00 00 00 00 00 00 
  18970     10188.622 DT     0186 Rx 8  15 32 01 9F 81 F7 00 00 
  18971     10188.872 DT     0047 Rx 8  20 00 00 00 00 00 00 00 
  18972     10189.118 DT     0083 Rx 8  00 E0 80 00 00 02 00 00 
  18973     10189.353 DT     0167 Rx 8  72 81 53 10 00 1A 45 00 
  18974     10189.597 DT     0204 Rx 8  C0 60 7D 02 9E 00 00 00 
  18975     10189.837 DT     043D Rx 8  00 5E FE 4B 00 00 00 00 
  18976     10190.072 DT     043E Rx 8  00 94 10 80 A1 39 50 BD 
  18977     10190.817 DT     04B0 Rx 8  A1 00 00 00 20 00 00 FD 
  18978     10191.051 DT     0217 Rx 8  02 C2 02 DA 02 C9 02 D3 
  18979     10191.305 DT     041D Rx 8  00 00 E0 00 00 00 00 00 
  18980     10194.490 DT     0331 Rx 8  C0 00 A9 90 0A 9C 0C 00 
  18981     10194.736 DT     03B6 Rx 8  0C 00 02 00 00 00 00 00 
  18982     10194.974 DT     0085 Rx 8  7D FD 80 00 76 00 7C 93 
  18983     10195.222 DT     03A8 Rx 8  00 00 28 78 00 00 00 00 
  18984     10195.462 DT     03B7 Rx 8  00 00 00 00 6C 16 54 13 
  18985     10195.710 DT     042C Rx 8  00 00 00 00 3E E0 00 00 
  18986     10196.778 DT     004A Rx 8  02 00 00 00 00 00 00 C0 
  18987     10197.016 DT     004B Rx 8  00 C0 D8 D8 D8 D8 D8 00 
  18988     10197.282 DT     004C Rx 8  20 6F FF 80 00 00 00 00 
  18989     10198.636 DT     0165 Rx 8  50 C0 00 00 00 00 00 00 
  18990     10198.871 DT     0167 Rx 8  72 81 57 10 00 1A 44 00 
  18991     10199.115 DT     0171 Rx 8  15 61 A0 00 00 00 00 00 
  18992     10199.359 DT     0200 Rx 8  00 00 7F 10 81 5B 00 00 
  18993     10199.597 DT     0202 Rx 8  04 27 28 00 60 00 03 CD 
  18994     10199.846 DT     0204 Rx 8  C0 60 7D 02 A0 00 00 00 
  18995     10200.090 DT     0230 Rx 8  10 06 00 00 94 00 00 00 
  18996     10200.336 DT     03D4 Rx 8  FF C1 FE FF DF E0 00 00 
  18997     10200.584 DT     042F Rx 8  00 00 00 00 00 00 02 83 
  18998     10201.070 DT     0076 Rx 8  3F E9 C0 00 0F FF 00 00 
  18999     10201.312 DT     0077 Rx 8  04 01 08 25 00 08 3E 20 
  19000     10201.558 DT     007D Rx 8  00 00 FC 30 00 1F 87 EE 
  19001     10201.796 DT     0213 Rx 8  FF FF 00 04 01 12 22 40 
  19002     10202.040 DT     0214 Rx 8  6F 66 00 00 00 00 27 30 
  19003     10202.282 DT     0216 Rx 8  83 DC 4A DE 82 00 00 00 
  19004     10202.512 DT     0217 Rx 8  02 BD 02 D6 02 CC 02 D1 
  19005     10202.976 DT     0415 Rx 8  03 EE CC 08 8F FE 0F FE 
  19006     10204.708 DT     0041 Rx 8  00 00 00 00 00 00 00 00 
  19007     10204.954 DT     03A3 Rx 8  80 00 00 00 00 00 00 00 
  19008     10205.322 DT     0082 Rx 8  98 00 14 3C A6 00 40 FF 
  19009     10205.564 DT     0085 Rx 8  7D FE 80 00 74 10 7C 93 
  19010     10206.123 DT     0332 Rx 8  00 30 A9 90 2E 00 00 00 
  19011     10206.359 DT     0091 Rx 8  7E BD 7F 92 5A 53 F0 00 
  19012     10208.587 DT     0186 Rx 8  15 34 01 9E 81 F7 00 00 
  19013     10208.837 DT     0047 Rx 8  20 00 00 00 00 00 00 00 
  19014     10209.069 DT     0167 Rx 8  72 81 52 10 00 1A 42 00 
  19015     10209.316 DT     0204 Rx 8  C0 60 7D 02 A4 00 00 00 
  19016     10210.787 DT     04B0 Rx 8  A1 00 00 00 30 00 00 FC 
  19017     10211.021 DT     0217 Rx 8  02 BB 02 D1 02 CE 02 DA 
  19018     10211.273 DT     041D Rx 8  00 00 E0 00 00 00 00 00 
  19019     10213.075 DT     0455 Rx 8  00 00 00 00 00 00 00 00 
  19020     10214.703 DT     0085 Rx 8  7D FF 80 00 72 20 7C 93 
  19021     10215.141 DT     03A8 Rx 8  00 00 28 79 00 00 00 00 
  19022     10218.599 DT     0165 Rx 8  50 C0 00 00 00 00 00 00 
  19023     10218.832 DT     0167 Rx 8  72 81 49 10 00 1A 43 00 
  19024     10219.076 DT     0200 Rx 8  00 00 7F 11 81 59 00 00 
  19025     10219.314 DT     0202 Rx 8  04 1D 38 00 60 00 03 D5 
  19026     10219.560 DT     0204 Rx 8  C0 60 7D 02 A4 00 00 00 
  19027     10219.805 DT     0230 Rx 8  10 06 00 00 94 00 00 00 
  19028     10220.790 DT     0076 Rx 8  3F EB C0 00 0F FF 00 00 
  19029     10221.038 DT     0077 Rx 8  03 F8 08 28 00 08 3E 20 
  19030     10221.288 DT     007D Rx 8  00 00 FB 40 00 1F 67 F4 
  19031     10221.526 DT     0213 Rx 8  FF FF 00 04 01 12 1B 40 
  19032     10221.768 DT     0214 Rx 8  6F 66 00 00 00 00 26 40 
  19033     10222.011 DT     0216 Rx 8  85 DF 4E E1 82 00 00 00 
  19034     10222.249 DT     0217 Rx 8  02 C0 02 CE 02 D3 02 D8 
  19035     10222.495 DT     0415 Rx 8  03 F4 D0 01 8F FE 0F FE 
  19036     10224.497 DT     0041 Rx 8  00 00 00 00 00 00 00 00 
  19037     10224.735 DT     0242 Rx 8  00 57 21 B8 E4 00 00 01 
  19038     10225.525 DT     0082 Rx 8  96 00 14 3C A6 00 40 FF 
  19039     10225.765 DT     0085 Rx 8  7E 01 80 00 6E 30 7C 93 
  19040     10226.221 DT     0092 Rx 8  6F E1 70 15 73 43 2E 5D 
  19041     10228.621 DT     0186 Rx 8  15 34 01 9E 81 F7 00 00 
  19042     10228.871 DT     0047 Rx 8  20 00 00 00 00 00 00 00 
  19043     10229.105 DT     0167 Rx 8  72 81 4A 10 00 1A 43 00 
  19044     10229.350 DT     0171 Rx 8  15 61 A0 00 00 00 00 00 
  19045     10229.594 DT     0204 Rx 8  C0 60 7D 02 A1 00 00 00 
  19046     10229.840 DT     03D4 Rx 8  FF C1 FE FF DF E0 00 00 
  19047     10230.088 DT     042F Rx 8  00 00 00 00 00 00 02 86 
  19048     10230.804 DT     04B0 Rx 8  A1 00 00 00 40 00 00 FB 
  19049     10231.038 DT     0217 Rx 8  02 CE 02 CE 02 D3 02 E0 
  19050     10231.540 DT     041D Rx 8  00 00 E0 00 00 00 00 00 
  19051     10231.770 DT     0091 Rx 8  7E E3 7F 9E 19 62 F0 00 
  19052     10234.687 DT     0085 Rx 8  7E 02 80 00 6C 40 7C 93 
  19053     10235.565 DT     03E0 Rx 8  00 00 00 00 80 00 00 00 
  19054     10235.811 DT     03A8 Rx 8  00 00 28 7B 00 00 00 00 
  19055     10238.857 DT     0165 Rx 8  50 C0 00 00 00 00 00 00 
  19056     10239.102 DT     0156 Rx 8  9F 00 00 00 03 00 00 00 
  19057     10239.346 DT     0166 Rx 8  78 00 00 02 80 00 1C 00 
  19058     10239.578 DT     0167 Rx 8  72 81 49 10 00 1A 45 00 
  19059     10239.816 DT     0178 Rx 8  00 00 02 00 0E 8B CA 87 
  19060     10240.057 DT     0179 Rx 8  00 00 00 00 8A 12 09 99 
  19061     10240.301 DT     0200 Rx 8  00 00 7F 13 81 58 00 00 
  19062     10240.539 DT     0202 Rx 8  04 14 48 00 60 00 03 DC 
  19063     10240.784 DT     0204 Rx 8  C0 60 7D 02 A1 00 00 00 
  19064     10241.030 DT     0076 Rx 8  3F EE C0 00 0F FF 00 00 
  19065     10241.268 DT     0077 Rx 8  03 F8 08 2C 00 08 36 1C 
  19066     10241.514 DT     007D Rx 8  00 00 FA 50 00 1F 57 FF 
  19067     10241.758 DT     0230 Rx 8  10 06 00 00 94 00 00 00 
  19068     10241.998 DT     0421 Rx 8  00 00 48 00 00 00 6C 2A 
  19069     10242.249 DT     0424 Rx 8  00 00 00 01 00 00 00 00 
  19070     10242.486 DT     0213 Rx 8  FF FF 00 04 01 12 18 40 
  19071     10242.724 DT     0214 Rx 8  6F 66 00 00 00 00 25 50 
  19072     10242.959 DT     0216 Rx 8  89 E2 50 E4 82 00 00 00 
  19073     10243.191 DT     0217 Rx 8  02 D6 02 D3 02 D3 02 E4 
  19074     10243.433 DT     0263 Rx 8  F0 00 FF FF 01 00 00 00 
  19075     10243.681 DT     037B Rx 8  00 00 08 00 00 00 00 00 
  19076     10243.923 DT     0415 Rx 8  03 FF D4 F5 8F FE 0F FE 
  19077     10244.167 DT     042D Rx 8  00 03 07 00 00 00 F0 00 
  19078     10244.397 DT     0430 Rx 8  03 00 8A 8A 89 01 13 91 
  19079     10244.649 DT     0041 Rx 8  00 00 00 00 00 00 00 00 
  19080     10244.891 DT     042B Rx 8  CB BE 80 00 00 00 00 00 
  19081     10245.139 DT     042C Rx 8  00 00 00 00 3E E0 00 00 
  19082     10245.377 DT     0434 Rx 8  23 E8 14 00 04 F7 00 63 
  19083     10245.617 DT     0082 Rx 8  99 00 14 40 A6 00 40 FF 
  19084     10245.853 DT     0085 Rx 8  7E 02 80 00 6B 50 7C 93 
  19085     10246.088 DT     0435 Rx 8  28 20 18 9F BC 20 09 02 
  19086     10246.328 DT     043D Rx 8  00 5D FE 4B 00 00 00 00 
  19087     10246.564 DT     043E Rx 8  00 94 10 82 A1 39 48 BE 
  19088     10248.609 DT     0186 Rx 8  15 36 01 9D 81 F7 00 00 
  19089     10248.860 DT     0047 Rx 8  20 00 00 00 00 00 00 00 
  19090     10249.096 DT     0167 Rx 8  72 81 54 10 00 1A 45 00 
  19091     10249.341 DT     0204 Rx 8  C0 60 7D 02 A3 00 00 00 
  19092     10250.809 DT     04B0 Rx 8  A1 00 00 00 50 00 00 FA 
  19093     10251.047 DT     0217 Rx 8  02 DA 02 E0 02 D3 02 E4 
  19094     10251.303 DT     041D Rx 8  00 00 E0 00 00 00 00 00 
  19095     10253.850 DT     0326 Rx 8  81 A0 25 BC 81 A0 00 00 
  19096     10254.652 DT     0085 Rx 8  7E 02 80 00 6A 60 7C 93 
  19097     10255.486 DT     03A8 Rx 8  00 00 28 7E 00 00 00 00 
  19098     10255.754 DT     03AA Rx 8  00 20 00 00 00 00 00 00 
  19099     10256.012 DT     03AB Rx 8  12 FF 0F F0 40 00 00 00 
  19100     10256.346 DT     0091 Rx 8  7F 05 7F AE DC 6C F0 00 
  19101     10256.916 DT     0436 Rx 8  20 00 00 00 00 00 00 00 
  19102     10258.608 DT     0165 Rx 8  50 C0 00 00 00 00 00 00 
  19103     10258.844 DT     0167 Rx 8  72 81 53 10 00 1A 41 00 
  19104     10259.089 DT     0171 Rx 8  15 61 A0 00 00 00 00 00 
  19105     10259.335 DT     0200 Rx 8  00 00 7F 13 81 57 00 00 
  19106     10259.575 DT     0202 Rx 8  04 0C 58 00 60 00 03 E2 
  19107     10259.821 DT     0204 Rx 8  C0 60 7D 02 A4 00 00 00 
  19108     10260.066 DT     0230 Rx 8  10 06 00 00 94 00 00 00 
  19109     10260.312 DT     03D4 Rx 8  FF C1 FE FF DF E0 00 00 
  19110     10260.556 DT     042F Rx 8  00 00 00 00 00 00 02 87 
  19111     10260.904 DT     0076 Rx 8  3F EF C0 00 0F FF 00 00 
  19112     10261.144 DT     0077 Rx 8  04 0F 08 2F 00 08 1A 17 
  19113     10261.390 DT     007D Rx 8  00 00 F9 60 00 1F A8 08 
  19114     10261.630 DT     0213 Rx 8  FF FF 00 04 01 12 1F 40 
  19115     10261.874 DT     0214 Rx 8  6F 66 00 00 00 00 24 60 
  19116     10262.112 DT     0216 Rx 8  8B E4 54 E7 82 00 00 00 
  19117     10262.342 DT     0217 Rx 8  02 DA 02 EA 02 E2 02 E4 
  19118     10262.584 DT     0415 Rx 8  04 0B D8 E7 8F FE 0F FE 
  19119     10264.642 DT     0041 Rx 8  00 00 00 00 00 00 00 00 
  19120     10264.878 DT     0242 Rx 8  00 57 21 B5 E4 00 00 01 
  19121     10265.125 DT     03A3 Rx 8  80 00 00 00 00 00 00 00 
  19122     10265.363 DT     0082 Rx 8  9E 00 14 48 A6 00 40 FF 
  19123     10265.601 DT     0085 Rx 8  7E 03 80 00 68 70 7C 93 
  19124     10268.608 DT     0186 Rx 8  15 34 01 9C 81 F7 00 00 
  19125     10268.858 DT     0047 Rx 8  20 00 00 00 00 00 00 00 
  19126     10269.094 DT     0167 Rx 8  72 81 41 10 00 1A 42 00 
  19127     10269.338 DT     0204 Rx 8  C0 60 7D 02 A6 00 00 00 
  19128     10269.586 DT     03DA Rx 8  00 00 00 00 00 00 00 00 
  19129     10270.803 DT     04B0 Rx 8  A1 00 00 00 60 00 00 F9 
  19130     10271.035 DT     0217 Rx 8  02 DD 02 EA 02 DA 02 E4 
  19131     10271.291 DT     041D Rx 8  00 00 E0 00 00 00 00 00 
  19132     10274.692 DT     0085 Rx 8  7E 03 80 00 67 80 7C 93 
  19133     10275.658 DT     03A8 Rx 8  00 00 28 7F 00 00 00 00 
  19134     10278.598 DT     0165 Rx 8  50 C0 00 00 00 00 00 00 
  19135     10278.831 DT     0167 Rx 8  72 81 45 10 00 1A 42 00 
  19136     10279.075 DT     0200 Rx 8  00 00 7F 14 81 55 00 00 
  19137     10279.315 DT     0202 Rx 8  04 02 68 00 60 00 03 EA 
  19138     10279.560 DT     0204 Rx 8  C0 60 7D 02 A7 00 00 00 
  19139     10279.804 DT     0230 Rx 8  10 06 00 00 94 00 00 00 
  19140     10280.786 DT     0076 Rx 8  3F F0 C0 00 0F FF 00 00 
  19141     10281.024 DT     0077 Rx 8  04 1D 08 2D 00 08 12 17 
  19142     10281.270 DT     007D Rx 8  00 00 F8 70 00 20 18 11 
  19143     10281.510 DT     0213 Rx 8  FF FF 00 04 01 12 21 40 
  19144     10281.754 DT     0214 Rx 8  6F 66 00 00 00 00 23 70 
  19145     10281.996 DT     0216 Rx 8  8F E8 57 EA 82 00 00 00 
  19146     10282.228 DT     0091 Rx 8  7F 32 7F AC A2 7B F0 00 
  19147     10282.462 DT     0217 Rx 8  02 E0 02 EE 02 DA 02 EE 
  19148     10282.702 DT     0415 Rx 8  04 0B DC E6 8F FE 0F FE 
  19149     10282.948 DT     0416 Rx 8  51 00 FD 04 00 00 0F FF 
  19150     10284.660 DT     0041 Rx 8  00 00 00 00 00 00 00 00 
  19151     10285.316 DT     0082 Rx 8  9A 00 14 3C A6 00 40 FF 
  19152     10285.556 DT     0085 Rx 8  7E 05 80 00 64 90 7C 93 
  19153     10287.475 DT     0333 Rx 8  00 02 00 00 00 00 00 00 
  19154     10288.591 DT     0186 Rx 8  15 34 01 9C 81 F7 00 00 
  19155     10288.841 DT     0047 Rx 8  20 00 00 00 00 00 00 00 
  19156     10289.087 DT     0083 Rx 8  00 E0 80 00 00 02 00 00 
  19157     10289.322 DT     0167 Rx 8  72 81 44 10 00 1A 43 00 
  19158     10289.566 DT     0171 Rx 8  15 61 A0 00 00 00 00 00 
  19159     10289.810 DT     0204 Rx 8  C0 60 7D 02 A7 00 00 00 
  19160     10290.056 DT     03D4 Rx 8  FF C1 FE FF DF E0 00 00 
  19161     10290.300 DT     042F Rx 8  00 00 00 00 00 00 02 8A 
  19162     10290.541 DT     043D Rx 8  00 5D FE 4B 00 00 00 00 
  19163     10290.777 DT     043E Rx 8  00 94 10 82 A1 39 38 BF 
  19164     10291.023 DT     04B0 Rx 8  A1 00 00 00 70 00 00 F8 
  19165     10291.253 DT     0217 Rx 8  02 E2 02 F3 02 E2 02 EE 
  19166     10291.503 DT     041D Rx 8  00 00 E0 00 00 00 00 00 
  19167     10294.663 DT     0085 Rx 8  7E 07 80 00 61 A0 7C 93 
  19168     10294.911 DT     042C Rx 8  00 00 00 00 3E E0 00 00 
  19169     10295.405 DT     03A8 Rx 8  00 00 28 80 00 00 00 00 
  19170     10296.713 DT     004A Rx 8  02 00 00 00 00 00 00 C0 
  19171     10296.951 DT     004B Rx 8  00 C0 D8 D8 D8 D8 D8 00 
  19172     10297.217 DT     004C Rx 8  20 6F FF 80 00 00 00 00 
  19173     10298.901 DT     0165 Rx 8  50 C0 00 00 00 00 00 00 
  19174     10299.134 DT     0167 Rx 8  72 81 47 10 00 1A 42 00 
  19175     10299.380 DT     0200 Rx 8  00 00 7F 14 81 58 00 00 
  19176     10299.620 DT     0202 Rx 8  04 F7 78 00 60 00 03 F3 
  19177     10299.864 DT     0204 Rx 8  C0 61 7D 02 A7 00 00 00 
  19178     10300.109 DT     0230 Rx 8  10 06 00 00 94 00 00 00 
  19179     10300.934 DT     0076 Rx 8  3F F2 C0 00 0F FF 00 00 
  19180     10301.170 DT     0077 Rx 8  04 23 08 2E 00 08 22 1A 
  19181     10301.414 DT     007D Rx 8  00 00 F7 80 00 20 18 1A 
  19182     10301.654 DT     0213 Rx 8  FF FF 00 04 01 12 20 40 
  19183     10301.898 DT     0214 Rx 8  6F 66 00 00 00 00 22 80 
  19184     10302.134 DT     0216 Rx 8  92 EA 5A ED 82 00 00 00 
  19185     10302.365 DT     0217 Rx 8  02 E4 02 EB 02 E7 02 F1 
  19186     10302.607 DT     0415 Rx 8  04 16 E0 DA 8F FE 0F FE 
  19187     10304.545 DT     0041 Rx 8  00 00 00 00 00 00 00 00 
  19188     10304.781 DT     0242 Rx 8  00 57 21 B5 E4 00 00 01 
  19189     10305.027 DT     03AB Rx 8  12 00 00 00 40 00 00 00 
  19190     10305.295 DT     0082 Rx 8  9A 00 14 44 A6 00 40 FF 
  19191     10305.539 DT     0085 Rx 8  7E 08 80 00 5F B0 7C 93 
  19192     10305.953 DT     0332 Rx 8  00 30 A9 90 2E 00 00 00 
  19193     10306.449 DT     0091 Rx 8  7F 4E 7F AE 7A 85 F0 00 
  19194     10308.600 DT     0186 Rx 8  15 35 01 9B 81 F7 00 00 
  19195     10308.851 DT     0047 Rx 8  20 00 00 00 00 00 00 00 
  19196     10309.085 DT     0167 Rx 8  72 81 43 10 00 1A 44 00 
  19197     10309.327 DT     0204 Rx 8  C0 63 7D 02 AC 00 00 00 
  19198     10310.797 DT     04B0 Rx 8  A1 00 00 00 80 00 00 F7 
  19199     10311.029 DT     0217 Rx 8  02 EA 02 F3 02 EB 02 F3 
  19200     10311.287 DT     041D Rx 8  00 00 E0 00 00 00 00 00 
  19201     10312.927 DT     0455 Rx 8  00 00 00 00 00 00 00 00 
  19202     10314.556 DT     03A8 Rx 8  00 00 28 82 00 00 00 00 
  19203     10314.792 DT     0085 Rx 8  7E 09 80 00 5D C0 7C 93 
  19204     10318.594 DT     0165 Rx 8  50 C0 00 00 00 00 00 00 
  19205     10318.828 DT     0167 Rx 8  72 81 4A 10 00 1A 43 00 
  19206     10319.073 DT     0171 Rx 8  15 61 A0 00 00 00 00 00 
  19207     10319.317 DT     0200 Rx 8  00 00 7F 15 81 65 00 00 
  19208     10319.559 DT     0202 Rx 8  04 FE 08 00 60 00 03 FA 
  19209     10319.799 DT     0204 Rx 8  C0 65 7D 02 AF 00 00 00 
  19210     10320.044 DT     0230 Rx 8  10 06 00 00 94 00 00 00 
  19211     10320.290 DT     03D4 Rx 8  FF C1 FE FF DF E0 00 00 
  19212     10320.534 DT     042F Rx 8  00 00 00 00 00 00 02 8C 
  19213     10320.870 DT     0076 Rx 8  3F F5 C0 00 0F FF 00 00 
  19214     10321.108 DT     0077 Rx 8  04 2A 08 2E 00 08 12 1A 
  19215     10321.354 DT     007D Rx 8  00 00 F6 90 00 20 78 18 
  19216     10321.594 DT     0213 Rx 8  FF FF 00 04 01 12 1F 40 
  19217     10321.834 DT     0214 Rx 8  6F 66 00 00 00 00 21 90 
  19218     10322.072 DT     0216 Rx 8  95 EE 5D EF 82 00 00 00 
  19219     10322.306 DT     0217 Rx 8  02 EB 02 F8 02 EB 02 F5 
  19220     10322.548 DT     0415 Rx 8  04 1B E4 D4 8F FE 0F FE 
  19221     10324.678 DT     0041 Rx 8  00 00 00 00 00 00 00 00 
  19222     10324.924 DT     03A3 Rx 8  80 00 00 00 00 00 00 00 
  19223     10325.286 DT     0082 Rx 8  9B 00 14 44 A6 00 40 FF 
  19224     10325.526 DT     0085 Rx 8  7E 0A 80 00 5B D0 7C 93 
  19225     10328.598 DT     0186 Rx 8  15 35 01 9B 81 F7 00 00 
  19226     10328.848 DT     0047 Rx 8  20 00 00 00 00 00 00 00 
  19227     10329.080 DT     0167 Rx 8  72 81 43 10 00 1A 43 00 
  19228     10329.324 DT     0204 Rx 8  C0 66 7D 02 AE 00 00 00 
  19229     10330.766 DT     04B0 Rx 8  A1 00 00 00 90 00 00 F6 
  19230     10331.004 DT     0217 Rx 8  02 EA 02 F8 02 EE 02 FB 
  19231     10331.472 DT     0091 Rx 8  7F 3D 7F AC 7E 94 F0 00 
  19232     10331.702 DT     0092 Rx 8  6F B7 6F FE 73 8A F2 94 
  19233     10331.952 DT     041D Rx 8  00 00 E0 00 00 00 00 00 
  19234     10334.665 DT     0085 Rx 8  7E 0B 80 00 59 E0 7C 93 
  19235     10336.078 DT     03A8 Rx 8  00 00 28 85 00 00 00 00 
  19236     10338.589 DT     0165 Rx 8  50 C0 00 00 00 00 00 00 
  19237     10338.833 DT     0156 Rx 8  9F 00 00 00 03 00 00 00 
  19238     10339.077 DT     0166 Rx 8  78 00 00 02 80 00 1C 00 
  19239     10339.311 DT     0167 Rx 8  72 81 43 10 00 1A 45 00 
  19240     10339.548 DT     0178 Rx 8  00 00 02 07 0E 8B CA 87 
  19241     10339.788 DT     0179 Rx 8  00 00 00 00 8A 14 09 A0 
  19242     10340.034 DT     0200 Rx 8  00 00 7F 15 81 6D 00 00 
  19243     10340.274 DT     0202 Rx 8  04 F3 18 00 60 00 04 02 
  19244     10340.515 DT     0204 Rx 8  C0 67 7D 02 B3 00 00 00 
  19245     10340.759 DT     0230 Rx 8  10 06 00 00 94 00 00 00 
  19246     10341.009 DT     0076 Rx 8  3F F7 C0 00 0F FF 00 00 
  19247     10341.245 DT     0077 Rx 8  04 31 08 2D 00 08 0A 1A 
  19248     10341.489 DT     007D Rx 8  00 00 F5 A0 00 20 88 11 
  19249     10341.731 DT     0421 Rx 8  00 00 48 00 00 00 6D 2A 
  19250     10341.981 DT     0424 Rx 8  00 00 00 01 00 00 00 00 
  19251     10342.219 DT     0213 Rx 8  FF FF 00 04 01 12 1F 40 
  19252     10342.463 DT     0214 Rx 8  6F 66 00 00 00 00 20 A0 
  19253     10342.701 DT     0216 Rx 8  98 F1 5F F3 82 00 00 00 
  19254     10342.943 DT     0263 Rx 8  F0 00 FF FF 01 00 00 00 
  19255     10343.178 DT     0217 Rx 8  02 EA 02 FD 02 EE 02 FB 
  19256     10343.426 DT     037B Rx 8  00 00 08 00 00 00 00 00 
  19257     10343.662 DT     0415 Rx 8  04 21 E8 CD 8F FE 0F FE 
  19258     10343.906 DT     042D Rx 8  00 03 07 00 00 00 F0 00 
  19259     10344.136 DT     0430 Rx 8  03 00 8A 8A 89 01 13 91 
  19260     10344.378 DT     0434 Rx 8  23 E8 14 00 04 F7 00 67 
  19261     10344.610 DT     0435 Rx 8  7C 70 10 D7 BC 20 09 02 
  19262     10344.862 DT     0041 Rx 8  00 00 00 00 00 00 00 00 
  19263     10345.098 DT     0242 Rx 8  00 57 21 B2 E4 00 00 01 
  19264     10345.336 DT     040A Rx 8  C0 00 00 33 67 5F 1C 00 
  19265     10345.574 DT     0082 Rx 8  9A 00 14 40 A6 00 40 FF 
  19266     10345.812 DT     0085 Rx 8  7E 0D 80 00 56 F0 7C 93 
  19267     10346.054 DT     042B Rx 8  CB BE 80 00 00 00 00 00 
  19268     10346.303 DT     042C Rx 8  00 00 00 00 3E E0 00 00 
  19269     10346.543 DT     043D Rx 8  00 5D FE 4B 00 00 00 00 
  19270     10346.779 DT     043E Rx 8  00 94 10 86 A1 39 30 C0 
  19271     10347.031 DT     0468 Rx 8  00 00 00 00 00 00 00 00 
  19272     10347.293 DT     0469 Rx 8  00 00 00 00 00 00 00 00 
  19273     10348.609 DT     0186 Rx 8  15 36 01 9A 81 F7 00 00 
  19274     10348.859 DT     0047 Rx 8  20 00 00 00 00 00 00 00 
  19275     10349.097 DT     0167 Rx 8  72 81 4C 10 00 1A 45 00 
  19276     10349.341 DT     0171 Rx 8  15 61 A0 00 00 00 00 00 
  19277     10349.584 DT     0204 Rx 8  C0 67 7D 02 B5 00 00 00 
  19278     10349.828 DT     042F Rx 8  00 00 00 00 00 00 02 91 
  19279     10350.546 DT     03D4 Rx 8  FF C1 FE FF DF E0 00 00 
  19280     10351.016 DT     0217 Rx 8  02 F1 02 FD 02 F5 02 FF 
  19281     10351.522 DT     041D Rx 8  00 00 E0 00 00 00 00 00 
  19282     10351.766 DT     04B0 Rx 8  A1 00 00 00 A0 00 00 F5 
  19283     10353.831 DT     0326 Rx 8  81 A0 25 BC 81 A0 00 00 
  19284     10354.673 DT     0085 Rx 8  7E 0E 80 00 64 00 7C 93 
  19285     10356.069 DT     0091 Rx 8  7F 2B 7F A8 8A 9E F0 00 
  19286     10356.313 DT     03A8 Rx 8  00 00 28 87 00 00 00 00 
  19287     10357.213 DT     0436 Rx 8  20 00 00 00 00 00 00 00 
  19288     10358.875 DT     0165 Rx 8  50 C0 00 00 00 00 00 00 
  19289     10359.109 DT     0167 Rx 8  72 81 4A 10 00 1A 44 00 
  19290     10359.353 DT     0200 Rx 8  00 00 7F 15 81 6E 00 00 
  19291     10359.592 DT     0202 Rx 8  04 EA 28 00 60 00 04 09 
  19292     10359.832 DT     0204 Rx 8  C0 68 7D 02 B7 00 00 00 
  19293     10360.076 DT     0230 Rx 8  10 06 00 00 94 00 00 00 
  19294     10360.898 DT     0076 Rx 8  3F FA C0 00 0F FF 00 00 
  19295     10361.136 DT     0077 Rx 8  04 36 08 2C 00 08 12 19 
  19296     10361.378 DT     007D Rx 8  00 00 F4 B0 00 20 18 0C 
  19297     10361.616 DT     0213 Rx 8  FF FF 00 04 01 12 1D 40 
  19298     10361.862 DT     0214 Rx 8  6F 66 00 00 00 00 1F B0 
  19299     10362.100 DT     0216 Rx 8  9A F4 63 F5 82 00 00 00 
  19300     10362.342 DT     0217 Rx 8  02 F3 02 FD 02 F8 03 07 
  19301     10362.584 DT     0415 Rx 8  04 32 EC BB 8F FE 0F FE 
  19302     10364.540 DT     0041 Rx 8  00 00 00 00 00 00 00 00 
  19303     10365.260 DT     0082 Rx 8  9A 00 14 40 A5 00 40 FF 
  19304     10365.502 DT     0085 Rx 8  7E 0F 80 00 62 10 7C 93 
  19305     10368.623 DT     0204 Rx 8  C0 68 7D 02 B9 00 00 00 
  19306     10368.873 DT     0047 Rx 8  20 00 00 00 00 00 00 00 
  19307     10369.107 DT     0167 Rx 8  72 81 46 10 00 1A 46 00 
  19308     10369.343 DT     0186 Rx 8  15 36 01 99 81 F7 00 00 
  19309     10370.787 DT     04B0 Rx 8  A1 00 00 00 B0 00 00 F4 
  19310     10371.027 DT     0217 Rx 8  02 F1 03 04 02 FD 03 07 
  19311     10371.283 DT     041D Rx 8  00 00 E0 00 00 00 00 00 
  19312     10374.648 DT     0085 Rx 8  7E 10 80 00 60 20 7C 93 
  19313     10375.976 DT     03A8 Rx 8  00 00 28 8A 00 00 00 00 
  19314     10378.587 DT     0165 Rx 8  50 C0 00 00 00 00 00 00 
  19315     10378.821 DT     0167 Rx 8  72 81 4E 10 00 1A 45 00 
  19316     10379.066 DT     0171 Rx 8  15 61 A0 00 00 00 00 00 
  19317     10379.312 DT     0200 Rx 8  00 00 7F 16 81 6D 00 00 
  19318     10379.554 DT     0202 Rx 8  04 E1 38 00 60 00 04 10 
  19319     10379.796 DT     0204 Rx 8  C0 68 7D 02 BB 00 00 00 
  19320     10380.041 DT     0230 Rx 8  10 06 00 00 94 00 00 00 
  19321     10380.287 DT     03D4 Rx 8  FF C1 FE FF DF E0 00 00 
  19322     10380.531 DT     042F Rx 8  00 00 00 00 00 00 02 95 
  19323     10380.877 DT     0076 Rx 8  3F FC C0 00 0F FF 00 00 
  19324     10381.115 DT     0077 Rx 8  04 3D 08 29 00 08 12 18 
  19325     10381.365 DT     007D Rx 8  00 00 F3 C0 00 1F F8 08 
  19326     10381.603 DT     0213 Rx 8  FF FF 00 04 01 12 1D 40 
  19327     10381.847 DT     0214 Rx 8  6F 66 00 00 00 00 1E C0 
  19328     10382.085 DT     0216 Rx 8  9E F7 66 F9 82 00 00 00 
  19329     10382.319 DT     0091 Rx 8  7F 16 7F 9E 9A AD F0 00 
  19330     10382.561 DT     0217 Rx 8  02 F8 03 02 02 FB 03 04 
  19331     10382.799 DT     0415 Rx 8  04 32 F0 BA 8F FE 0F FE 
  19332     10383.043 DT     0416 Rx 8  52 00 FC 04 00 00 0F FF 
  19333     10384.741 DT     0041 Rx 8  00 00 00 00 00 00 00 00 
  19334     10384.977 DT     0242 Rx 8  00 57 21 B2 E4 00 00 01 
  19335     10385.224 DT     03A3 Rx 8  80 00 00 00 00 00 00 00 
  19336     10385.462 DT     0082 Rx 8  9C 00 14 38 A5 00 40 FF 
  19337     10385.696 DT     0085 Rx 8  7E 11 80 00 5E 30 7C 93 
  19338     10387.497 DT     0333 Rx 8  00 02 00 00 00 00 00 00 
  19339     10388.589 DT     0083 Rx 8  00 E0 80 00 00 02 00 00 
  19340     10388.839 DT     0047 Rx 8  20 00 00 00 00 00 00 00 
  19341     10389.073 DT     0167 Rx 8  72 81 4B 10 00 1A 47 00 
  19342     10389.311 DT     0186 Rx 8  15 35 01 98 81 F7 00 00 
  19343     10389.554 DT     0204 Rx 8  C0 68 7D 02 BD 00 00 00 
  19344     10389.796 DT     043D Rx 8  00 5D FE 4A 00 00 00 00 
  19345     10390.032 DT     043E Rx 8  00 94 10 86 A1 39 48 C1 
  19346     10390.796 DT     04B0 Rx 8  A1 00 00 00 C0 00 00 F3 
  19347     10391.036 DT     0217 Rx 8  02 F8 03 02 02 FD 03 09 
  19348     10391.300 DT     041D Rx 8  00 00 E0 00 00 00 00 00 
  19349     10394.632 DT     042C Rx 8  00 00 00 00 3E E0 00 00 
  19350     10394.866 DT     0085 Rx 8  7E 11 80 00 5D 40 7C 93 
  19351     10396.018 DT     03A8 Rx 8  00 00 28 8C 00 00 00 00 
  19352     10396.834 DT     004A Rx 8  02 00 00 00 00 00 00 C0 
  19353     10397.072 DT     004B Rx 8  00 C0 D8 D8 D8 D8 D8 00 
  19354     10397.340 DT     004C Rx 8  20 6F FF 80 00 00 00 00 
  19355     10398.629 DT     0165 Rx 8  50 C0 00 00 00 00 00 00 
  19356     10398.861 DT     0167 Rx 8  72 81 53 10 00 1A 47 00 
  19357     10399.107 DT     0200 Rx 8  00 00 7F 16 81 6C 00 00 
  19358     10399.345 DT     0202 Rx 8  04 D6 48 00 60 00 04 19 
  19359     10399.587 DT     0204 Rx 8  C0 68 7D 02 BC 00 00 00 
  19360     10399.832 DT     0230 Rx 8  10 06 00 00 94 00 00 00 
  19361     10400.821 DT     0076 Rx 8  3F FE C0 00 0F FF 00 00 
  19362     10401.061 DT     0077 Rx 8  04 46 08 28 00 08 1E 19 
  19363     10401.303 DT     007D Rx 8  00 00 F2 D0 00 20 18 05 
  19364     10401.543 DT     0213 Rx 8  FF FF 00 04 01 12 1E 40 
  19365     10401.783 DT     0214 Rx 8  6F 66 00 00 00 00 1D D0 
  19366     10402.025 DT     0216 Rx 8  A1 F9 69 FC 82 00 00 00 
  19367     10402.263 DT     0217 Rx 8  02 FB 03 13 03 07 03 13 
  19368     10402.503 DT     0415 Rx 8  04 43 F4 A8 8F FE 0F FE 
  19369     10404.539 DT     0041 Rx 8  00 00 00 00 00 00 00 00 
  19370     10405.283 DT     0082 Rx 8  9B 00 14 40 A6 00 40 FF 
  19371     10405.523 DT     0085 Rx 8  7E 12 80 00 5B 50 7C 93 
  19372     10405.857 DT     0332 Rx 8  00 30 A9 90 2E 00 00 00 
  19373     10406.143 DT     0091 Rx 8  7F 0C 7F 9A 9E B7 F0 00 
  19374     10408.580 DT     0186 Rx 8  15 34 01 97 81 F7 00 00 
  19375     10408.830 DT     0047 Rx 8  20 00 00 00 00 00 00 00 
  19376     10409.063 DT     0167 Rx 8  72 81 53 10 00 1A 47 00 
  19377     10409.307 DT     0171 Rx 8  15 61 A0 00 00 00 00 00 
  19378     10409.549 DT     0204 Rx 8  C0 68 7D 02 BC 00 00 00 
  19379     10409.795 DT     03D4 Rx 8  FF C1 FE FF DF E0 00 00 
  19380     10410.039 DT     042F Rx 8  00 00 00 00 00 00 02 9B 
  19381     10410.795 DT     04B0 Rx 8  A1 00 00 00 D0 00 00 F2 
  19382     10411.031 DT     0217 Rx 8  02 FF 03 0E 03 09 03 13 
  19383     10411.287 DT     041D Rx 8  00 00 E0 00 00 00 00 00 
  19384     10412.907 DT     0455 Rx 8  00 00 00 00 00 00 00 00 
  19385     10414.665 DT     0085 Rx 8  7E 13 80 00 59 60 7C 93 
  19386     10416.169 DT     03A8 Rx 8  00 00 28 8E 00 00 00 00 
  19387     10418.603 DT     0165 Rx 8  50 C0 00 00 00 00 00 00 
  19388     10418.835 DT     0167 Rx 8  72 81 52 10 00 1A 49 00 
  19389     10419.084 DT     0200 Rx 8  00 00 7F 17 81 70 00 00 
  19390     10419.322 DT     0202 Rx 8  04 CD 58 00 60 00 04 20 
  19391     10419.568 DT     0204 Rx 8  C0 69 7D 02 BE 00 00 00 
  19392     10419.813 DT     0230 Rx 8  10 06 00 00 94 00 00 00 
  19393     10420.145 DT     0446 Rx 8  00 00 00 00 00 00 00 00 
  19394     10420.784 DT     0076 Rx 8  3F FF C0 00 0F FF 00 00 
  19395     10421.024 DT     0077 Rx 8  04 4F 08 27 00 08 2E 19 
  19396     10421.272 DT     007D Rx 8  00 00 F1 E0 00 20 38 07 
  19397     10421.513 DT     0213 Rx 8  FF FF 00 04 01 12 1E 40 
  19398     10421.754 DT     0214 Rx 8  6F 66 00 00 00 00 1C E0 
  19399     10421.996 DT     0216 Rx 8  A4 FD 6C FF 82 00 00 00 
  19400     10422.228 DT     0217 Rx 8  03 02 03 0E 03 09 03 1D 
  19401     10422.468 DT     0415 Rx 8  04 4E F8 9C 8F FE 0F FE 
  19402     10424.530 DT     0041 Rx 8  00 00 00 00 00 00 00 00 
  19403     10424.766 DT     0242 Rx 8  00 57 21 B0 E4 00 00 01 
  19404     10425.270 DT     0082 Rx 8  9B 00 14 3C A6 00 40 FF 
  19405     10425.506 DT     0085 Rx 8  7E 14 80 00 57 70 7C 93 
  19406     10428.690 DT     0204 Rx 8  C0 69 7D 02 BF 00 00 00 
  19407     10428.940 DT     0047 Rx 8  20 00 00 00 00 00 00 00 
  19408     10429.175 DT     0167 Rx 8  72 81 57 10 00 1A 48 00 
  19409     10429.411 DT     0186 Rx 8  15 33 01 96 81 F7 00 00 
  19410     10430.782 DT     04B0 Rx 8  A1 00 00 00 E0 00 00 F1 
  19411     10431.016 DT     0217 Rx 8  03 02 03 0E 03 0E 03 13 
  19412     10431.486 DT     0091 Rx 8  7F 1A 7F 9A 81 C6 F0 00 
  19413     10431.736 DT     041D Rx 8  00 00 E0 00 00 00 00 00 
  19414     10434.669 DT     0085 Rx 8  7E 14 80 00 56 80 7C 93 
  19415     10435.926 DT     03A8 Rx 8  00 00 28 8F 00 00 00 00 
  19416     10436.897 DT     0092 Rx 8  6F D9 6F FC 73 70 BA C6 
  19417     10438.853 DT     03D4 Rx 8  FF C1 FE FF DF E0 00 00 
  19418     10439.097 DT     0156 Rx 8  9F 00 00 00 03 00 00 00 
  19419     10439.339 DT     0165 Rx 8  50 C0 00 00 00 00 00 00 
  19420     10439.583 DT     0166 Rx 8  78 00 00 02 80 00 1C 00 
  19421     10439.816 DT     0167 Rx 8  72 81 56 10 00 1A 49 00 
  19422     10440.060 DT     0171 Rx 8  15 61 A0 00 00 00 00 00 
  19423     10440.300 DT     0178 Rx 8  00 00 02 04 0E 8B CA 88 
  19424     10440.537 DT     0179 Rx 8  00 00 00 00 8A 15 09 A9 
  19425     10440.781 DT     0200 Rx 8  00 00 7F 18 81 6F 00 00 
  19426     10441.027 DT     0076 Rx 8  40 01 C0 00 0F FF 00 00 
  19427     10441.265 DT     0077 Rx 8  04 50 08 28 00 08 36 1B 
  19428     10441.511 DT     007D Rx 8  00 00 F0 F0 00 1F F8 0C 
  19429     10441.749 DT     0202 Rx 8  04 C1 68 00 60 00 04 2A 
  19430     10441.993 DT     0204 Rx 8  C0 69 7D 02 C1 00 00 00 
  19431     10442.229 DT     0213 Rx 8  FF FF 00 04 01 12 1B 40 
  19432     10442.473 DT     0214 Rx 8  6F 66 00 00 00 00 1B F0 
  19433     10442.718 DT     0230 Rx 8  10 06 00 00 94 00 00 00 
  19434     10442.960 DT     0263 Rx 8  F0 00 FF FF 01 00 00 00 
  19435     10443.207 DT     037B Rx 8  00 00 08 00 00 00 00 00 
  19436     10443.447 DT     0216 Rx 8  A7 00 70 02 82 00 00 00 
  19437     10443.679 DT     0217 Rx 8  03 09 03 11 03 0E 03 1A 
  19438     10443.917 DT     0415 Rx 8  04 4E FC 9B 8F FE 0F FE 
  19439     10444.157 DT     0421 Rx 8  00 00 48 00 00 00 6E 2A 
  19440     10444.407 DT     0424 Rx 8  00 00 00 01 00 00 00 00 
  19441     10444.652 DT     042D Rx 8  00 03 07 00 00 00 F0 00 
  19442     10444.904 DT     0041 Rx 8  00 00 00 00 00 00 00 00 
  19443     10445.150 DT     03A3 Rx 8  80 00 00 00 00 00 00 00 
  19444     10445.396 DT     03B6 Rx 8  0C 00 03 00 00 00 00 00 
  19445     10445.632 DT     03B7 Rx 8  00 00 01 00 6C 16 56 4B 
  19446     10445.880 DT     03B8 Rx 8  FF FF FF FF 00 00 00 00 
  19447     10446.123 DT     042B Rx 8  CB BE 80 00 00 00 00 00 
  19448     10446.371 DT     042C Rx 8  00 00 00 00 3E E0 00 00 
  19449     10446.615 DT     042F Rx 8  00 00 00 00 00 00 02 9D 
  19450     10446.845 DT     0430 Rx 8  03 00 8A 8A 89 01 13 91 
  19451     10447.083 DT     0434 Rx 8  23 E8 14 00 04 F7 00 63 
  19452     10447.323 DT     0082 Rx 8  9C 00 14 3C A6 00 40 FF 
  19453     10447.557 DT     0085 Rx 8  7E 15 80 00 54 90 7C 93 
  19454     10447.791 DT     0435 Rx 8  28 20 18 9F BC 28 09 02 
  19455     10448.033 DT     043D Rx 8  00 5D FE 4A 00 00 00 00 
  19456     10448.268 DT     043E Rx 8  00 94 10 89 A1 39 80 C2 
  19457     10448.583 DT     0186 Rx 8  15 33 01 96 81 F7 00 00 
  19458     10448.960 DT     0204 Rx 8  C0 69 7D 02 C1 00 00 00 
  19459     10449.210 DT     0047 Rx 8  20 00 00 00 00 00 00 00 
  19460     10449.442 DT     0167 Rx 8  72 81 57 10 00 1A 49 00 
  19461     10450.810 DT     04B0 Rx 8  A1 00 00 00 F0 00 00 F0 
  19462     10451.042 DT     0217 Rx 8  03 0E 03 18 03 0E 03 15 
  19463     10451.294 DT     041D Rx 8  00 00 E0 00 00 00 00 00 
  19464     10453.799 DT     0326 Rx 8  81 A0 25 BB 81 A0 00 00 
  19465     10454.681 DT     0085 Rx 8  7E 15 80 00 53 A0 7C 93 
  19466     10455.969 DT     0091 Rx 8  7F 24 7F 9E 69 D0 F0 00 
  19467     10456.213 DT     03A8 Rx 8  00 00 28 91 00 00 00 00 
  19468     10456.475 DT     03AA Rx 8  00 20 00 00 00 00 00 00 
  19469     10456.737 DT     03AB Rx 8  12 00 00 00 40 00 00 00 
  19470     10457.513 DT     0436 Rx 8  20 00 00 00 00 00 00 00 
  19471     10458.618 DT     0165 Rx 8  50 C0 00 00 00 00 00 00 
  19472     10458.850 DT     0167 Rx 8  72 81 56 10 00 1A 49 00 
  19473     10459.096 DT     0200 Rx 8  00 00 7F 19 81 6E 00 00 
  19474     10459.332 DT     0202 Rx 8  04 B5 78 00 60 00 04 34 
  19475     10459.575 DT     0204 Rx 8  C0 69 7D 02 C3 00 00 00 
  19476     10459.819 DT     0230 Rx 8  10 06 00 00 94 00 00 00 
  19477     10460.781 DT     0076 Rx 8  40 02 C0 00 0F FF 00 00 
  19478     10461.021 DT     0077 Rx 8  04 5C 08 2A 00 08 3E 1B 
  19479     10461.269 DT     007D Rx 8  00 00 FF 00 00 1F B8 10 
  19480     10461.507 DT     0213 Rx 8  FF FF 00 04 01 12 1D 40 
  19481     10461.751 DT     0214 Rx 8  6F 66 00 00 00 00 2A 00 
  19482     10461.993 DT     0216 Rx 8  AB 03 73 06 82 00 00 00 
  19483     10462.223 DT     0217 Rx 8  03 11 03 1A 03 15 03 29 
  19484     10462.465 DT     0415 Rx 8  04 5F C0 99 8F FE 0F FE 
  19485     10464.527 DT     0041 Rx 8  00 00 00 00 00 00 00 00 
  19486     10464.762 DT     0242 Rx 8  00 57 21 B0 E4 00 00 01 
  19487     10465.310 DT     0082 Rx 8  9B 00 14 40 A6 00 40 FF 
  19488     10465.546 DT     0085 Rx 8  7E 15 80 00 52 B0 7C 93 
  19489     10468.630 DT     0204 Rx 8  C0 69 7D 02 C5 00 00 00 
  19490     10468.881 DT     0047 Rx 8  20 00 00 00 00 00 00 00 
  19491     10469.117 DT     0167 Rx 8  72 81 58 10 00 1A 48 00 
  19492     10469.361 DT     0171 Rx 8  15 61 A0 00 00 00 00 00 
  19493     10469.597 DT     0186 Rx 8  15 33 01 95 81 F7 00 00 
  19494     10469.843 DT     03D4 Rx 8  FF C1 FE FF DF E0 00 00 
  19495     10470.087 DT     042F Rx 8  00 00 00 00 00 00 02 A3 
  19496     10470.815 DT     04B0 Rx 8  A1 00 00 00 00 00 00 FF 
  19497     10471.049 DT     0217 Rx 8  03 11 03 1A 03 18 03 1D 
  19498     10471.301 DT     041D Rx 8  00 00 E0 00 00 00 00 00 
  19499     10474.684 DT     0085 Rx 8  7E 16 80 00 50 C0 7C 93 
  19500     10475.930 DT     03A8 Rx 8  00 00 28 92 00 00 00 00 
  19501     10478.591 DT     0165 Rx 8  50 C0 00 00 00 00 00 00 
  19502     10478.825 DT     0167 Rx 8  72 81 53 10 00 1A 49 00 
  19503     10479.069 DT     0200 Rx 8  00 00 7F 19 81 6C 00 00 
  19504     10479.307 DT     0202 Rx 8  04 BC 08 00 60 00 04 3B 
  19505     10479.550 DT     0204 Rx 8  C0 69 7D 02 C8 00 00 00 
  19506     10479.794 DT     0230 Rx 8  10 06 00 00 94 00 00 00 
  19507     10480.778 DT     0076 Rx 8  40 02 C0 00 0F FF 00 00 
  19508     10481.016 DT     0077 Rx 8  04 62 08 2A 00 08 36 1C 
  19509     10481.264 DT     007D Rx 8  00 00 FE 10 00 1F D8 1C 
  19510     10481.502 DT     0213 Rx 8  FF FF 00 04 01 12 1C 40 
  19511     10481.744 DT     0214 Rx 8  6F 66 00 00 00 00 29 10 
  19512     10481.984 DT     0216 Rx 8  AE 06 76 09 82 00 00 00 
  19513     10482.224 DT     0091 Rx 8  7F 55 7F A0 27 DF F0 00 
  19514     10482.456 DT     0217 Rx 8  03 11 03 1F 03 1A 03 1A 
  19515     10482.694 DT     0415 Rx 8  04 59 C4 9E 8F FE 0F FE 
  19516     10482.938 DT     0416 Rx 8  53 00 FB 04 00 00 0F FF 
  19517     10484.576 DT     0041 Rx 8  00 00 00 00 00 00 00 00 
  19518     10485.318 DT     0082 Rx 8  9B 00 14 3C A6 00 40 FF 
  19519     10485.556 DT     0085 Rx 8  7E 16 80 00 4F D0 7C 93 
  19520     10487.507 DT     0333 Rx 8  00 02 00 00 00 00 00 00 
  19521     10488.546 DT     0083 Rx 8  00 E0 80 00 00 02 00 00 
  19522     10488.797 DT     0047 Rx 8  20 00 00 00 00 00 00 00 
  19523     10489.029 DT     0167 Rx 8  72 81 57 10 00 1A 49 00 
  19524     10489.265 DT     0186 Rx 8  15 32 01 95 81 F7 00 00 
  19525     10489.509 DT     0204 Rx 8  C0 69 7D 02 CB 00 00 00 
  19526     10489.751 DT     043D Rx 8  00 5D FE 4A 00 00 00 00 
  19527     10489.986 DT     043E Rx 8  00 94 10 89 A1 39 88 C2 
  19528     10490.789 DT     04B0 Rx 8  A1 00 00 00 10 00 00 FE 
  19529     10491.023 DT     0217 Rx 8  03 15 03 1D 03 1F 03 22 
  19530     10491.279 DT     041D Rx 8  00 00 E0 00 00 00 00 00 
  19531     10494.610 DT     042C Rx 8  00 00 00 00 3E E0 00 00 
  19532     10494.846 DT     0085 Rx 8  7E 16 80 00 4E E0 7C 93 
  19533     10495.924 DT     03A8 Rx 8  00 00 28 92 00 00 00 00 
  19534     10496.742 DT     004A Rx 8  02 00 00 00 00 00 00 C0 
  19535     10496.980 DT     004B Rx 8  00 C0 D8 D8 D8 D8 D8 00 
  19536     10497.246 DT     004C Rx 8  20 6F FF 80 00 00 00 00 
  19537     10498.614 DT     0165 Rx 8  50 C0 00 00 00 00 00 00 
  19538     10498.846 DT     0167 Rx 8  72 81 57 10 00 1A 4A 00 
  19539     10499.090 DT     0171 Rx 8  15 61 A0 00 00 00 00 00 
  19540     10499.335 DT     0200 Rx 8  00 00 7F 18 81 6C 00 00 
  19541     10499.575 DT     0202 Rx 8  04 B0 18 00 60 00 04 45 
  19542     10499.815 DT     0204 Rx 8  C0 69 7D 02 CD 00 00 00 
  19543     10500.059 DT     0230 Rx 8  10 06 00 00 94 00 00 00 
  19544     10500.305 DT     03D4 Rx 8  FF C1 FE FF DF E0 00 00 
  19545     10500.550 DT     042F Rx 8  00 00 00 00 00 00 02 A6 
  19546     10501.026 DT     0076 Rx 8  40 03 C0 00 0F FF 00 00 
  19547     10501.262 DT     0077 Rx 8  04 65 08 29 00 08 3A 1C 
  19548     10501.508 DT     007D Rx 8  00 00 FD 20 00 1F A8 25 
  19549     10501.746 DT     0213 Rx 8  FF FF 00 04 01 12 1B 40 
  19550     10501.992 DT     0214 Rx 8  6F 66 00 00 00 00 28 20 
  19551     10502.230 DT     0216 Rx 8  B1 0A 79 0B 82 00 00 00 
  19552     10502.462 DT     0217 Rx 8  03 18 03 1F 03 1A 03 26 
  19553     10502.926 DT     0415 Rx 8  04 5F C8 97 8F FE 0F FE 
  19554     10504.754 DT     0041 Rx 8  00 00 00 00 00 00 00 00 
  19555     10504.990 DT     0242 Rx 8  00 57 21 AD E4 00 00 01 
  19556     10505.236 DT     03A3 Rx 8  80 00 00 00 00 00 00 00 
  19557     10505.474 DT     0082 Rx 8  9B 00 14 3C A6 00 40 FF 
  19558     10505.712 DT     0085 Rx 8  7E 16 80 00 4D F0 7C 93 
  19559     10505.946 DT     03B5 Rx 8  00 E3 00 E6 00 DE 00 DC 
  19560     10506.184 DT     0332 Rx 8  00 30 A9 90 2E 00 00 00 
  19561     10506.420 DT     0091 Rx 8  7F 71 7F 9E 03 E9 F0 00 
  19562     10508.583 DT     0186 Rx 8  15 30 01 94 81 F7 00 00 
  19563     10508.833 DT     0047 Rx 8  20 00 00 00 00 00 00 00 
  19564     10509.067 DT     0167 Rx 8  72 81 59 10 00 1A 4B 00 
  19565     10509.308 DT     0204 Rx 8  C0 69 7D 02 D1 00 00 00 
  19566     10510.791 DT     04B0 Rx 8  A1 00 00 00 20 00 00 FD 
  19567     10511.023 DT     0217 Rx 8  03 1A 03 25 03 25 03 2E 
  19568     10511.275 DT     041D Rx 8  00 00 E0 00 00 00 00 00 
  19569     10512.985 DT     0455 Rx 8  00 00 00 00 00 00 00 00 
  19570     10514.643 DT     0085 Rx 8  7E 16 80 00 5C 00 7C 93 
  19571     10516.177 DT     03A8 Rx 8  00 00 28 93 00 00 00 00 
  19572     10518.587 DT     0165 Rx 8  50 C0 00 00 00 00 00 00 
  19573     10518.822 DT     0167 Rx 8  72 81 5D 10 00 1A 4B 00 
  19574     10519.068 DT     0200 Rx 8  00 00 7F 19 81 6B 00 00 
  19575     10519.308 DT     0202 Rx 8  04 A8 28 00 60 00 04 4B 
  19576     10519.550 DT     0204 Rx 8  C0 69 7D 02 D2 00 00 00 
  19577     10519.795 DT     0230 Rx 8  10 06 00 00 94 00 00 00 
  19578     10520.784 DT     0076 Rx 8  40 03 C0 00 0F FF 00 00 
  19579     10521.022 DT     0077 Rx 8  04 6F 08 2A 00 08 3E 1C 
  19580     10521.270 DT     007D Rx 8  00 00 FC 30 00 1F 98 27 
  19581     10521.508 DT     0213 Rx 8  FF FF 00 04 01 12 1C 40 
  19582     10521.753 DT     0214 Rx 8  6F 66 00 00 00 00 27 30 
  19583     10521.995 DT     0216 Rx 8  B4 0D 7D 0F 82 00 00 00 
  19584     10522.225 DT     0217 Rx 8  03 1A 03 29 03 1D 03 29 
  19585     10522.465 DT     0415 Rx 8  04 6A CC 8B 8F FE 0F FE 
  19586     10524.485 DT     0041 Rx 8  00 00 00 00 00 00 00 00 
  19587     10525.275 DT     0082 Rx 8  9A 00 14 3C A6 00 40 FF 
  19588     10525.511 DT     0085 Rx 8  7E 17 80 00 5A 10 7C 93 
  19589     10528.612 DT     0186 Rx 8  15 30 01 94 81 F7 00 00 
  19590     10528.862 DT     0047 Rx 8  20 00 00 00 00 00 00 00 
  19591     10529.100 DT     0167 Rx 8  72 81 5C 10 00 1A 4B 00 
  19592     10529.344 DT     0171 Rx 8  15 61 A0 00 00 00 00 00 
  19593     10529.584 DT     0204 Rx 8  C0 69 7D 02 D3 00 00 00 
  19594     10529.830 DT     03D4 Rx 8  FF C1 FE FF DF E0 00 00 
  19595     10530.076 DT     042F Rx 8  00 00 00 00 00 00 02 AE 
  19596     10530.784 DT     04B0 Rx 8  A1 00 00 00 30 00 00 FC 
  19597     10531.018 DT     0217 Rx 8  03 1F 03 2E 03 29 03 2C 
  19598     10531.428 DT     0091 Rx 8  7F 78 7F A0 EB F8 F0 00 
  19599     10531.678 DT     041D Rx 8  00 00 E0 00 00 00 00 00 
  19600     10534.651 DT     0085 Rx 8  7E 17 80 00 59 20 7C 93 
  19601     10535.927 DT     03A8 Rx 8  00 00 28 93 00 00 00 00 
  19602     10538.609 DT     0165 Rx 8  50 C0 00 00 00 00 00 00 
  19603     10538.853 DT     0156 Rx 8  9F 00 00 00 03 00 00 00 
  19604     10539.094 DT     0166 Rx 8  77 00 00 02 80 00 1C 00 
  19605     10539.330 DT     0167 Rx 8  72 81 5D 10 00 1A 4C 00 
  19606     10539.568 DT     0178 Rx 8  00 00 02 07 0E 8B CA 88 
  19607     10539.809 DT     0179 Rx 8  00 00 00 00 8A 17 09 B2 
  19608     10540.055 DT     0200 Rx 8  00 00 7F 18 81 6B 00 00 
  19609     10540.293 DT     0202 Rx 8  04 A1 38 00 60 00 04 50 
  19610     10540.535 DT     0204 Rx 8  C0 69 7D 02 D4 00 00 00 
  19611     10540.780 DT     0230 Rx 8  10 06 00 00 94 00 00 00 
  19612     10541.026 DT     0076 Rx 8  40 04 C0 00 0F FF 00 00 
  19613     10541.258 DT     0077 Rx 8  04 7B 08 2A 00 08 42 1B 
  19614     10541.502 DT     007D Rx 8  00 00 FB 40 00 1F A8 26 
  19615     10541.742 DT     0421 Rx 8  00 00 48 00 00 00 6F 2A 
  19616     10541.992 DT     0424 Rx 8  00 00 00 01 00 00 00 00 
  19617     10542.228 DT     0213 Rx 8  FF FF 00 04 01 12 1D 40 
  19618     10542.460 DT     0092 Rx 8  6F E7 70 00 73 50 90 FD 
  19619     10542.700 DT     0214 Rx 8  6F 66 00 00 00 00 26 40 
  19620     10542.942 DT     0216 Rx 8  B8 10 80 12 82 00 00 00 
  19621     10543.174 DT     0217 Rx 8  03 22 03 30 03 29 03 3A 
  19622     10543.416 DT     0263 Rx 8  F0 00 FF FF 01 00 00 00 
  19623     10543.664 DT     037B Rx 8  00 00 08 00 00 00 00 00 
  19624     10543.904 DT     0415 Rx 8  04 7B D0 79 8F FE 0F FE 
  19625     10544.149 DT     042D Rx 8  00 03 07 00 00 00 F0 00 
  19626     10544.379 DT     0430 Rx 8  03 00 8A 8A 89 01 13 91 
  19627     10544.617 DT     0434 Rx 8  23 E8 14 00 04 F7 00 63 
  19628     10544.869 DT     0041 Rx 8  00 00 00 00 00 00 00 00 
  19629     10545.105 DT     0242 Rx 8  00 57 21 AD E4 00 00 01 
  19630     10545.337 DT     0331 Rx 8  C0 00 A9 91 0A 9C 0C 00 
  19631     10545.573 DT     0082 Rx 8  99 00 14 3C A5 00 40 FF 
  19632     10545.813 DT     0085 Rx 8  7E 17 80 00 58 30 7C 93 
  19633     10546.047 DT     03B3 Rx 8  40 48 04 0D 10 05 00 02 
  19634     10546.277 DT     040A Rx 8  C1 00 31 46 54 45 57 31 
  19635     10546.519 DT     042B Rx 8  CB BE 80 00 00 00 00 00 
  19636     10546.768 DT     042C Rx 8  00 00 00 00 3E E0 00 00 
  19637     10547.000 DT     0435 Rx 8  28 20 10 97 BC 20 09 02 
  19638     10547.242 DT     043D Rx 8  00 5D FE 4A 00 00 00 00 
  19639     10547.478 DT     043E Rx 8  00 94 10 8B A1 39 90 C3 
  19640     10547.730 DT     0468 Rx 8  00 00 00 00 00 00 00 00 
  19641     10547.992 DT     0469 Rx 8  00 00 00 00 00 00 00 00 
  19642     10548.752 DT     0186 Rx 8  15 2E 01 93 81 F7 00 00 
  19643     10549.002 DT     0047 Rx 8  20 00 00 00 00 00 00 00 
  19644     10549.241 DT     0167 Rx 8  72 81 60 10 00 1A 4C 00 
  19645     10549.485 DT     0204 Rx 8  C0 69 7D 02 D7 00 00 00 
  19646     10550.916 DT     0217 Rx 8  03 29 03 30 03 33 03 38 
  19647     10551.182 DT     041D Rx 8  00 00 E0 00 00 00 00 00 
  19648     10551.428 DT     04B0 Rx 8  A1 00 00 00 40 00 00 FB 
  19649     10553.777 DT     0326 Rx 8  81 A0 25 BB 81 A0 00 00 
  19650     10554.683 DT     0085 Rx 8  7E 17 80 00 57 40 7C 93 
  19651     10555.943 DT     03A8 Rx 8  00 00 28 94 00 00 00 00 
  19652     10556.177 DT     0091 Rx 8  7F 6E 7F A6 E5 02 F0 00 
  19653     10557.812 DT     0436 Rx 8  20 00 00 00 00 00 00 00 
  19654     10558.837 DT     03D4 Rx 8  FF C1 FE FF DF E0 00 00 
  19655     10559.080 DT     0165 Rx 8  50 C0 00 00 00 00 00 00 
  19656     10559.314 DT     0167 Rx 8  72 81 61 10 00 1A 4B 00 
  19657     10559.558 DT     0171 Rx 8  15 61 A0 00 00 00 00 00 
  19658     10559.805 DT     0200 Rx 8  00 00 7F 19 81 6A 00 00 
  19659     10560.045 DT     0202 Rx 8  04 98 48 00 60 00 04 57 
  19660     10560.287 DT     0204 Rx 8  C0 69 7D 02 DB 00 00 00 
  19661     10560.531 DT     0230 Rx 8  10 06 00 00 94 00 00 00 
  19662     10560.776 DT     042F Rx 8  00 00 00 00 00 00 02 B1 
  19663     10561.022 DT     0076 Rx 8  40 04 C0 00 0F FF 00 00 
  19664     10561.260 DT     0077 Rx 8  04 80 08 2D 00 08 42 1B 
  19665     10561.506 DT     007D Rx 8  00 00 FA 50 00 1F A8 20 
  19666     10561.828 DT     0213 Rx 8  FF FF 00 04 01 12 1C 40 
  19667     10562.068 DT     0214 Rx 8  6F 66 00 00 00 00 25 50 
  19668     10562.306 DT     0216 Rx 8  BB 13 84 16 82 00 00 00 
  19669     10562.538 DT     0217 Rx 8  03 2C 03 33 03 33 03 3A 
  19670     10563.008 DT     0415 Rx 8  04 81 D4 72 8F FE 0F FE 
  19671     10564.656 DT     0041 Rx 8  00 00 00 00 00 00 00 00 
  19672     10564.902 DT     03A3 Rx 8  80 00 00 00 00 00 00 00 
  19673     10565.332 DT     0082 Rx 8  9A 00 14 3C A6 00 40 FF 
  19674     10565.570 DT     0085 Rx 8  7E 17 80 00 56 50 7C 93 
  19675     10568.579 DT     0186 Rx 8  15 2D 01 92 81 F7 00 00 
  19676     10568.841 DT     0204 Rx 8  C0 69 7D 02 DD 00 00 00 
  19677     10569.092 DT     0047 Rx 8  20 00 00 00 00 00 00 00 
  19678     10569.324 DT     0167 Rx 8  72 81 5E 10 00 1A 4B 00 
  19679     10570.787 DT     04B0 Rx 8  A1 00 00 00 50 00 00 FA 
  19680     10571.021 DT     0217 Rx 8  03 2C 03 36 03 33 03 3F 
  19681     10571.275 DT     041D Rx 8  00 00 E0 00 00 00 00 00 
  19682     10574.685 DT     0085 Rx 8  7E 17 80 00 55 60 7C 93 
  19683     10575.195 DT     0332 Rx 8  00 30 A9 91 2E 00 00 00 
  19684     10576.001 DT     03A8 Rx 8  00 00 28 94 00 00 00 00 
  19685     10578.866 DT     0165 Rx 8  50 C0 00 00 00 00 00 00 
  19686     10579.104 DT     0167 Rx 8  72 81 5C 10 00 1A 4C 00 
  19687     10579.350 DT     0200 Rx 8  00 00 7F 19 81 6A 00 00 
  19688     10579.588 DT     0202 Rx 8  04 8C 58 00 60 00 04 61 
  19689     10579.833 DT     0204 Rx 8  C0 69 7D 02 DD 00 00 00 
  19690     10580.077 DT     0230 Rx 8  10 06 00 00 94 00 00 00 
  19691     10580.905 DT     0076 Rx 8  40 04 C0 00 0F FF 00 00 
  19692     10581.145 DT     0077 Rx 8  04 88 08 2D 00 08 36 1E 
  19693     10581.393 DT     007D Rx 8  00 00 F9 60 00 1F D8 18 
  19694     10581.631 DT     0213 Rx 8  FF FF 00 04 01 12 1C 40 
  19695     10581.875 DT     0214 Rx 8  6F 66 00 00 00 00 24 60 
  19696     10582.113 DT     0091 Rx 8  7F 47 7F AA F9 11 F0 00 
  19697     10582.351 DT     0216 Rx 8  BF 17 87 19 82 00 00 00 
  19698     10582.583 DT     0217 Rx 8  03 2C 03 3A 03 33 03 42 
  19699     10582.823 DT     0415 Rx 8  04 86 D8 6C 8F FE 0F FE 
  19700     10583.069 DT     0416 Rx 8  54 00 FA 04 00 00 0F FF 
  19701     10584.549 DT     0041 Rx 8  00 00 00 00 00 00 00 00 
  19702     10584.791 DT     0242 Rx 8  00 57 21 AB E4 00 00 01 
  19703     10585.305 DT     0082 Rx 8  9A 00 14 3C A6 00 40 FF 
  19704     10585.543 DT     0085 Rx 8  7E 17 80 00 54 70 7C 93 
  19705     10587.523 DT     0333 Rx 8  00 02 00 00 00 00 00 00 
  19706     10588.503 DT     0083 Rx 8  00 E0 80 00 00 02 00 00 
  19707     10588.741 DT     0186 Rx 8  15 2B 01 91 81 F7 00 00 
  19708     10588.991 DT     0047 Rx 8  20 00 00 00 00 00 00 00 
  19709     10589.227 DT     0167 Rx 8  72 81 60 10 00 1A 4D 00 
  19710     10589.471 DT     0171 Rx 8  15 61 A0 00 00 00 00 00 
  19711     10589.716 DT     0204 Rx 8  C0 69 7D 02 E1 00 00 00 
  19712     10589.962 DT     03D4 Rx 8  FF C1 FE FF DF E0 00 00 
  19713     10590.208 DT     042F Rx 8  00 00 00 00 00 00 02 B9 
  19714     10590.448 DT     043D Rx 8  00 5D FE 49 00 00 00 00 
  19715     10590.680 DT     043E Rx 8  00 94 10 8B A1 39 88 C4 
  19716     10590.924 DT     04B0 Rx 8  A1 00 00 00 60 00 00 F9 
  19717     10591.156 DT     0217 Rx 8  03 2C 03 3D 03 33 03 4C 
  19718     10591.406 DT     041D Rx 8  00 00 E0 00 00 00 00 00 
  19719     10594.648 DT     042C Rx 8  00 00 00 00 3E E0 00 00 
  19720     10594.882 DT     0085 Rx 8  7E 17 80 00 53 80 7C 93 
  19721     10595.972 DT     03A8 Rx 8  00 00 28 94 00 00 00 00 
  19722     10596.794 DT     004A Rx 8  02 00 00 00 00 00 00 C0 
  19723     10597.032 DT     004B Rx 8  00 C0 D8 D8 D8 D8 D8 00 
  19724     10597.298 DT     004C Rx 8  20 6F FF 80 00 00 00 00 
  19725     10598.886 DT     0165 Rx 8  50 C0 00 00 00 00 00 00 
  19726     10599.118 DT     0167 Rx 8  72 81 65 10 00 1A 4D 00 
  19727     10599.363 DT     0200 Rx 8  00 00 7F 18 81 69 00 00 
  19728     10599.603 DT     0202 Rx 8  04 81 68 00 60 00 04 6A 
  19729     10599.845 DT     0204 Rx 8  C0 69 7D 02 E2 00 00 00 
  19730     10600.089 DT     0230 Rx 8  10 06 00 00 94 00 00 00 
  19731     10600.915 DT     0076 Rx 8  40 04 C0 00 0F FF 00 00 
  19732     10601.153 DT     0077 Rx 8  04 8F 08 2B 00 08 32 1F 
  19733     10601.403 DT     007D Rx 8  00 00 F8 70 00 1F 98 0C 
  19734     10601.641 DT     0213 Rx 8  FF FF 00 04 01 12 1C 40 
  19735     10601.885 DT     0214 Rx 8  6F 66 00 00 00 00 23 70 
  19736     10602.121 DT     0216 Rx 8  C2 1A 89 1C 82 00 00 00 
  19737     10602.357 DT     0217 Rx 8  03 30 03 3D 03 36 03 3A 
  19738     10602.595 DT     0415 Rx 8  04 86 DC 6B 8F FE 0F FE 
  19739     10604.528 DT     0041 Rx 8  00 00 00 00 00 00 00 00 
  19740     10605.283 DT     0082 Rx 8  9A 00 14 3C A6 00 40 FF 
  19741     10605.525 DT     0085 Rx 8  7E 17 80 00 52 90 7C 93 
  19742     10605.909 DT     0332 Rx 8  00 30 A9 91 2E 00 00 00 
  19743     10606.145 DT     0091 Rx 8  7F 21 7F A4 1B 1B F0 00 
  19744     10608.737 DT     0186 Rx 8  15 2A 01 90 81 F7 00 00 
  19745     10608.987 DT     0047 Rx 8  20 00 00 00 00 00 00 00 
  19746     10609.221 DT     0167 Rx 8  72 81 63 10 00 1A 4C 00 
  19747     10609.465 DT     0204 Rx 8  C0 69 7D 02 E4 00 00 00 
  19748     10610.773 DT     04B0 Rx 8  A1 00 00 00 70 00 00 F8 
  19749     10611.005 DT     0217 Rx 8  03 38 03 42 03 3D 03 55 
  19750     10611.259 DT     041D Rx 8  00 00 E0 00 00 00 00 00 
  19751     10612.903 DT     0455 Rx 8  00 00 00 00 00 00 00 00 
  19752     10614.667 DT     0085 Rx 8  7E 17 80 00 51 A0 7C 93 
  19753     10616.020 DT     03A8 Rx 8  00 00 28 94 00 00 00 00 
  19754     10618.602 DT     0165 Rx 8  50 C0 00 00 00 00 00 00 
  19755     10618.846 DT     0171 Rx 8  15 61 A0 00 00 00 00 00 
  19756     10619.079 DT     0167 Rx 8  72 81 61 10 00 1A 4D 00 
  19757     10619.323 DT     0200 Rx 8  00 00 7F 18 81 68 00 00 
  19758     10619.559 DT     0202 Rx 8  04 77 78 00 60 00 04 72 
  19759     10619.801 DT     0204 Rx 8  C0 69 7D 02 E6 00 00 00 
  19760     10620.046 DT     0230 Rx 8  10 06 00 00 94 00 00 00 
  19761     10620.292 DT     03D4 Rx 8  FF C1 FE FF DF E0 00 00 
  19762     10620.536 DT     042F Rx 8  00 00 00 00 00 00 02 BD 
  19763     10620.870 DT     0076 Rx 8  40 04 C0 00 0F FF 00 00 
  19764     10621.110 DT     0077 Rx 8  04 96 08 2D 00 08 3E 1E 
  19765     10621.354 DT     007D Rx 8  00 00 F7 80 00 1F 88 03 
  19766     10621.592 DT     0213 Rx 8  FF FF 00 04 01 12 1C 40 
  19767     10621.836 DT     0214 Rx 8  6F 66 00 00 00 00 22 80 
  19768     10622.078 DT     0216 Rx 8  C4 1E 8D 1F 82 00 00 00 
  19769     10622.308 DT     0217 Rx 8  03 3A 03 42 03 42 03 4C 
  19770     10622.552 DT     0415 Rx 8  04 97 E0 59 8F FE 0F FE 
  19771     10624.674 DT     0041 Rx 8  00 00 00 00 00 00 00 00 
  19772     10624.910 DT     0242 Rx 8  00 57 21 AA E4 00 00 01 
  19773     10625.157 DT     03A3 Rx 8  80 00 00 00 00 00 00 00 
  19774     10625.393 DT     0082 Rx 8  9B 00 14 38 A6 00 40 FF 
  19775     10625.627 DT     0085 Rx 8  7E 17 80 00 50 B0 7C 93 
  19776     10627.893 DT     05B2 Rx 8  B2 00 FF FF FF FF FF FF 
  19777     10628.592 DT     0186 Rx 8  15 2A 01 90 81 F7 00 00 
  19778     10628.835 DT     0204 Rx 8  C0 69 7D 02 E8 00 00 00 
  19779     10629.085 DT     0047 Rx 8  20 00 00 00 00 00 00 00 
  19780     10629.319 DT     0167 Rx 8  72 81 63 10 00 1A 4E 00 
  19781     10630.763 DT     04B0 Rx 8  A1 00 00 00 80 00 00 F7 
  19782     10630.995 DT     0217 Rx 8  03 3D 03 47 03 44 03 4E 
  19783     10631.419 DT     0091 Rx 8  7E FA 7F AA 2E 2A F0 00 
  19784     10631.669 DT     041D Rx 8  00 00 E0 00 00 00 00 00 
  19785     10634.684 DT     0085 Rx 8  7E 17 80 00 4F C0 7C 93 
  19786     10636.046 DT     03A8 Rx 8  00 00 28 94 00 00 00 00 
  19787     10638.601 DT     0165 Rx 8  50 C0 00 00 00 00 00 00 
  19788     10638.845 DT     0156 Rx 8  9F 00 00 00 03 00 00 00 
  19789     10639.086 DT     0166 Rx 8  77 00 00 02 80 00 1C 00 
  19790     10639.318 DT     0167 Rx 8  72 81 65 10 00 1A 4D 00 
  19791     10639.556 DT     0178 Rx 8  00 00 02 07 0E 8B CA 88 
  19792     10639.794 DT     0179 Rx 8  00 00 00 00 8A 18 09 BC 
  19793     10640.039 DT     0200 Rx 8  00 00 7F 18 81 68 00 00 
  19794     10640.279 DT     0202 Rx 8  04 80 08 00 60 00 04 77 
  19795     10640.521 DT     0204 Rx 8  C0 69 7D 02 EA 00 00 00 
  19796     10640.766 DT     0230 Rx 8  10 06 00 00 94 00 00 00 
  19797     10641.012 DT     0076 Rx 8  40 04 C0 00 0F FF 00 00 
  19798     10641.248 DT     0077 Rx 8  04 9E 08 2D 00 08 4A 1E 
  19799     10641.494 DT     007D Rx 8  00 00 F6 90 00 1F 87 FE 
  19800     10641.738 DT     0421 Rx 8  00 00 48 00 00 00 70 2A 
  19801     10641.988 DT     0424 Rx 8  00 00 00 01 00 00 00 00 
  19802     10642.224 DT     0213 Rx 8  FF FF 00 04 01 12 1C 40 
  19803     10642.466 DT     0263 Rx 8  F0 00 FF FF 01 00 00 00 
  19804     10642.704 DT     0214 Rx 8  6F 66 00 00 00 00 21 90 
  19805     10642.942 DT     0216 Rx 8  C8 21 90 23 82 00 00 00 
  19806     10643.174 DT     0217 Rx 8  03 3F 03 49 03 47 03 49 
  19807     10643.422 DT     037B Rx 8  00 00 08 00 00 00 00 00 
  19808     10643.660 DT     0415 Rx 8  04 97 E4 58 8F FE 0F FE 
  19809     10643.905 DT     042D Rx 8  00 03 07 00 00 00 F0 00 
  19810     10644.135 DT     0430 Rx 8  03 00 8A 8A 89 01 13 91 
  19811     10644.373 DT     0434 Rx 8  23 E8 14 00 04 F7 00 63 
  19812     10644.607 DT     0435 Rx 8  28 20 18 9F BC 20 09 02 
  19813     10644.859 DT     0041 Rx 8  00 00 00 00 00 00 00 00 
  19814     10645.101 DT     042B Rx 8  CB BE 80 00 00 00 00 00 
  19815     10645.349 DT     042C Rx 8  00 00 00 00 3E E0 00 00 
  19816     10645.589 DT     0082 Rx 8  9C 00 14 3C A6 00 40 FF 
  19817     10645.823 DT     0085 Rx 8  7E 17 80 00 4E D0 7C 93 
  19818     10646.063 DT     043D Rx 8  00 5D FE 49 00 00 00 00 
  19819     10646.296 DT     043E Rx 8  00 94 10 8C A1 39 88 C5 
  19820     10646.524 DT     0092 Rx 8  6F EC 70 0B 73 4B 53 2F 
  19821     10648.583 DT     0186 Rx 8  15 29 01 8F 81 F7 00 00 
  19822     10648.905 DT     0204 Rx 8  C0 69 7D 02 EC 00 00 00 
  19823     10649.156 DT     0047 Rx 8  20 00 00 00 00 00 00 00 
  19824     10649.390 DT     0167 Rx 8  72 81 62 10 00 1A 4D 00 
  19825     10649.634 DT     0171 Rx 8  15 61 A0 00 00 00 00 00 
  19826     10649.878 DT     042F Rx 8  00 00 00 00 00 00 02 C5 
  19827     10650.270 DT     03D4 Rx 8  FF C1 FE FF DF E0 00 00 
  19828     10650.980 DT     0217 Rx 8  03 3F 03 4E 03 44 03 5A 
  19829     10651.248 DT     041D Rx 8  00 00 E0 00 00 00 00 00 
  19830     10651.492 DT     04B0 Rx 8  A1 00 00 00 90 00 00 F6 
  19831     10653.756 DT     0326 Rx 8  81 A0 25 BB 81 A0 00 00 
  19832     10654.669 DT     0085 Rx 8  7E 17 80 00 4D E0 7C 93 
  19833     10655.927 DT     0091 Rx 8  7E E7 7F AC 35 34 F0 00 
  19834     10656.175 DT     03A8 Rx 8  00 00 28 94 00 00 00 00 
  19835     10656.453 DT     03AA Rx 8  00 20 00 00 00 00 00 00 
  19836     10656.715 DT     03AB Rx 8  12 00 00 00 40 00 00 00 
  19837     10656.980 DT     03AE Rx 8  00 00 00 00 00 00 00 00 
  19838     10658.108 DT     0436 Rx 8  20 00 00 00 00 00 00 00 
  19839     10658.620 DT     0165 Rx 8  50 C0 00 00 00 00 00 00 
  19840     10658.858 DT     0202 Rx 8  04 75 18 00 60 00 04 80 
  19841     10659.093 DT     0167 Rx 8  72 81 63 10 00 1A 4D 00 
  19842     10659.337 DT     0200 Rx 8  00 00 7F 18 81 67 00 00 
  19843     10659.579 DT     0204 Rx 8  C0 69 7D 02 ED 00 00 00 
  19844     10659.823 DT     0230 Rx 8  10 06 00 00 94 00 00 00 
  19845     10660.779 DT     0076 Rx 8  40 04 C0 00 0F FF 00 00 
  19846     10661.019 DT     0077 Rx 8  04 A9 08 2D 00 08 3E 20 
  19847     10661.267 DT     007D Rx 8  00 00 F5 A0 00 1F 67 FA 
  19848     10661.509 DT     0213 Rx 8  FF FF 00 04 01 12 1E 40 
  19849     10661.755 DT     0214 Rx 8  6F 66 00 00 00 00 20 A0 
  19850     10661.991 DT     0216 Rx 8  CB 23 94 26 82 00 00 00 
  19851     10662.223 DT     0217 Rx 8  03 42 03 50 03 44 03 53 
  19852     10662.461 DT     0415 Rx 8  04 A2 E8 4C 8F FE 0F FE 
  19853     10664.520 DT     0041 Rx 8  00 00 00 00 00 00 00 00 
  19854     10664.756 DT     0242 Rx 8  00 57 21 AA E4 00 00 01 
  19855     10665.298 DT     0082 Rx 8  9C 00 14 3C A6 00 40 FF 
  19856     10665.534 DT     0085 Rx 8  7E 17 80 00 4C F0 7C 93 
  19857     10668.701 DT     0186 Rx 8  15 28 01 8E 81 F7 00 00 
  19858     10668.951 DT     0047 Rx 8  20 00 00 00 00 00 00 00 
  19859     10669.185 DT     0167 Rx 8  72 81 63 10 00 1A 4E 00 
  19860     10669.427 DT     0204 Rx 8  C0 69 7D 02 F0 00 00 00 
  19861     10670.787 DT     04B0 Rx 8  A1 00 00 00 A0 00 00 F5 
  19862     10671.019 DT     0217 Rx 8  03 49 03 53 03 4E 03 64 
  19863     10671.275 DT     041D Rx 8  00 00 E0 00 00 00 00 00 
  19864     10674.670 DT     0085 Rx 8  7E 17 80 00 5B 00 7C 93 
  19865     10676.138 DT     03A8 Rx 8  00 00 28 94 00 00 00 00 
  19866     10678.861 DT     03D4 Rx 8  FF C1 FE FF DF E0 00 00 
  19867     10679.104 DT     0165 Rx 8  50 C0 00 00 00 00 00 00 
  19868     10679.338 DT     0167 Rx 8  72 81 66 10 00 1A 4F 00 
  19869     10679.581 DT     0171 Rx 8  15 61 A0 00 00 00 00 00 
  19870     10679.826 DT     0200 Rx 8  00 00 7F 19 81 66 00 00 
  19871     10680.066 DT     0202 Rx 8  04 6C 28 00 60 00 04 87 
  19872     10680.306 DT     0204 Rx 8  C0 69 7D 02 F3 00 00 00 
  19873     10680.550 DT     0230 Rx 8  10 06 00 00 94 00 00 00 
  19874     10680.797 DT     042F Rx 8  00 00 00 00 00 00 02 C8 
  19875     10681.043 DT     0076 Rx 8  40 04 C0 00 0F FF 00 00 
  19876     10681.281 DT     0077 Rx 8  04 AF 08 2F 00 08 3E 20 
  19877     10681.523 DT     007D Rx 8  00 00 F4 B0 00 1F 67 F7 
  19878     10681.845 DT     0213 Rx 8  FF FF 00 04 01 12 1D 40 
  19879     10682.091 DT     0214 Rx 8  6F 66 00 00 00 00 1F B0 
  19880     10682.325 DT     0091 Rx 8  7E D9 7F B2 2E 43 F0 00 
  19881     10682.559 DT     0216 Rx 8  CF 27 97 2A 82 00 00 00 
  19882     10682.789 DT     0217 Rx 8  03 49 03 55 03 55 03 5D 
  19883     10683.519 DT     0415 Rx 8  04 AE EC 3F 8F FE 0F FE 
  19884     10683.765 DT     0416 Rx 8  55 00 F9 04 00 00 0F FF 
  19885     10684.755 DT     0041 Rx 8  00 00 00 00 00 00 00 00 
  19886     10685.001 DT     03A3 Rx 8  80 00 00 00 00 00 00 00 
  19887     10685.415 DT     0082 Rx 8  9D 00 14 44 A7 00 40 FF 
  19888     10685.653 DT     0085 Rx 8  7E 18 80 00 59 10 7C 93 
  19889     10687.532 DT     0333 Rx 8  00 02 00 00 00 00 00 00 
  19890     10688.460 DT     0083 Rx 8  00 E0 80 00 00 02 00 00 
  19891     10688.700 DT     0186 Rx 8  15 28 01 8E 81 F7 00 00 
  19892     10688.950 DT     0047 Rx 8  20 00 00 00 00 00 00 00 
  19893     10689.183 DT     0167 Rx 8  72 81 69 10 00 1A 4F 00 
  19894     10689.427 DT     0204 Rx 8  C0 69 7D 02 F4 00 00 00 
  19895     10689.667 DT     043D Rx 8  00 5D FE 49 00 00 00 00 
  19896     10689.902 DT     043E Rx 8  00 94 10 8C A1 39 80 C6 
  19897     10690.795 DT     04B0 Rx 8  A1 00 00 00 B0 00 00 F4 
  19898     10691.031 DT     0217 Rx 8  03 50 03 58 03 55 03 61 
  19899     10691.293 DT     041D Rx 8  00 00 E0 00 00 00 00 00 
  19900     10694.532 DT     03B6 Rx 8  0C 00 04 00 00 00 00 00 
  19901     10694.772 DT     0085 Rx 8  7E 18 80 00 58 20 7C 93 
  19902     10695.012 DT     03B7 Rx 8  00 00 02 00 6C 16 16 F2 
  19903     10695.260 DT     042C Rx 8  00 00 00 00 3E E0 00 00 
  19904     10695.990 DT     03A8 Rx 8  00 00 28 94 00 00 00 00 
  19905     10696.488 DT     004A Rx 8  02 00 00 00 00 00 00 C0 
  19906     10696.726 DT     004B Rx 8  00 C0 D8 D8 D8 D8 D8 00 
  19907     10696.994 DT     004C Rx 8  20 6F FF 80 00 00 00 00 
  19908     10698.860 DT     0165 Rx 8  50 C0 00 00 00 00 00 00 
  19909     10699.094 DT     0167 Rx 8  72 81 6A 10 00 1A 4E 00 
  19910     10699.339 DT     0200 Rx 8  00 00 7F 19 81 66 00 00 
