;$FILEVERSION=2.0
;$STARTTIME=44384.3988401852
;$COLUMNS=N,O,T,I,d,l,D
;
;   Start time: 7/7/2021 09:34:19.792.0
;   Generated by PCAN-View v4.3.4.615
;-------------------------------------------------------------------------------
;   Connection                 Bit rate
;   PCANLight_USB_16@pcan_usb  Nominal 500 kBit/s, Data 2 MBit/s
;-------------------------------------------------------------------------------
;   Message   Time    Type ID     Rx/Tx
;   Number    Offset  |    [hex]  |  Data Length
;   |         [ms]    |    |      |  |  Data [hex] ...
;   |         |       |    |      |  |  |
;---+-- ------+------ +- --+----- +- +- +- +- -- -- -- -- -- -- --
      1     13212.973 DT 18DB33F1 Rx 8  02 01 00 00 00 00 00 00 
      2     13214.707 DT 18DAF115 Rx 8  06 41 00 BE 3F A8 13 AA 
      3     13215.496 DT 18DAF118 Rx 8  06 41 00 98 18 80 03 AA 
      4     13375.460 DT 18DB33F1 Rx 8  02 01 00 00 00 00 00 00 
      5     13376.459 DT 18DAF115 Rx 8  06 41 00 BE 3F A8 13 AA 
      6     13385.545 DT 18DAF118 Rx 8  06 41 00 98 18 80 03 AA 
      7     13459.453 DT 18DB33F1 Rx 8  02 01 20 00 00 00 00 00 
      8     13461.483 DT 18DAF115 Rx 8  06 41 20 90 1F E0 11 AA 
      9     13465.561 DT 18DAF118 Rx 8  06 41 20 80 00 00 01 AA 
     10     13517.960 DT 18DB33F1 Rx 8  02 01 40 00 00 00 00 00 
     11     13519.521 DT 18DAF115 Rx 8  06 41 40 FE D8 80 11 AA 
     12     13525.583 DT 18DAF118 Rx 8  06 41 40 CA 00 00 00 AA 
     13     13604.211 DT 18DB33F1 Rx 8  02 01 60 00 00 00 00 00 
     14     13605.977 DT 18DAF115 Rx 8  06 41 60 60 08 00 01 AA 
     15     13684.220 DT 18DB33F1 Rx 8  02 01 80 00 00 00 00 00 
     16     13685.666 DT 18DAF115 Rx 8  06 41 80 00 04 00 0D AA 
     17     13750.260 DT 18DB33F1 Rx 8  02 01 A0 00 00 00 00 00 
     18     13752.310 DT 18DAF115 Rx 8  06 41 A0 04 00 00 00 AA 
     19     13847.057 DT 18DB33F1 Rx 8  02 09 0A 00 00 00 00 00 
     20     13848.638 DT 18DAF115 Rx 8  10 17 49 0A 01 45 43 4D 
     21     13848.962 DT 18DA15F1 Rx 8  30 00 00 00 00 00 00 00 
     22     13849.992 DT 18DAF115 Rx 8  21 00 2D 45 6E 67 69 6E 
     23     13850.262 DT 18DAF115 Rx 8  22 65 43 6F 6E 74 72 6F 
     24     13850.550 DT 18DAF115 Rx 8  23 6C 00 00 AA AA AA AA 
     25     13855.751 DT 18DAF118 Rx 8  10 17 49 0A 01 54 43 4D 
     26     13856.081 DT 18DA18F1 Rx 8  30 00 00 00 00 00 00 00 
     27     13856.863 DT 18DAF118 Rx 8  21 00 2D 54 72 61 6E 73 
     28     13857.739 DT 18DAF118 Rx 8  22 6D 69 73 43 74 72 6C 
     29     13858.791 DT 18DAF118 Rx 8  23 00 00 00 AA AA AA AA 
     30     14095.558 DT 18DA15F1 Rx 8  02 01 00 00 00 00 00 00 
     31     14096.556 DT 18DAF115 Rx 8  06 41 00 BE 3F A8 13 AA 
     32     14153.210 DT 18DA15F1 Rx 8  02 01 00 00 00 00 00 00 
     33     14154.234 DT 18DAF115 Rx 8  06 41 00 BE 3F A8 13 AA 
     34     14209.326 DT 18DA15F1 Rx 8  02 01 01 00 00 00 00 00 
     35     14210.282 DT 18DAF115 Rx 8  06 41 01 00 07 E5 00 AA 
     36     14310.794 DT 18DB33F1 Rx 8  02 09 02 00 00 00 00 00 
     37     14311.552 DT 18DAF115 Rx 8  10 14 49 02 01 4A 4E 38 
     38     14311.878 DT 18DA15F1 Rx 8  30 00 00 00 00 00 00 00 
     39     14312.596 DT 18DAF115 Rx 8  21 41 54 33 44 43 35 4D 
     40     14313.218 DT 18DAF115 Rx 8  22 57 31 30 34 32 35 31 
     41     14498.073 DT 18DA15F1 Rx 8  02 01 01 00 00 00 00 00 
     42     14499.058 DT 18DAF115 Rx 8  06 41 01 00 07 E5 00 AA 
     43     14558.325 DT 18DA15F1 Rx 8  02 01 2F 00 00 00 00 00 
     44     14559.703 DT 18DAF115 Rx 8  03 41 2F 83 AA AA AA AA 
     45     14621.829 DT 18DA15F1 Rx 8  02 01 21 00 00 00 00 00 
     46     14623.161 DT 18DAF115 Rx 8  04 41 21 00 00 AA AA AA 
     47     14656.825 DT 18DA15F1 Rx 8  02 01 4D 00 00 00 00 00 
     48     14657.651 DT 18DAF115 Rx 8  04 41 4D 00 00 AA AA AA 
     49     14734.326 DT 18DA15F1 Rx 8  02 01 0D 00 00 00 00 00 
     50     14735.458 DT 18DAF115 Rx 8  03 41 0D 00 AA AA AA AA 
     51     14779.327 DT 18DA15F1 Rx 8  02 01 10 00 00 00 00 00 
     52     14780.589 DT 18DAF115 Rx 8  04 41 10 01 60 AA AA AA 
     53     14805.825 DT 18DA15F1 Rx 8  02 01 44 00 00 00 00 00 
     54     14807.147 DT 18DAF115 Rx 8  04 41 44 7F FC AA AA AA 
     55     14828.081 DT 18DA15F1 Rx 8  02 01 0D 00 00 00 00 00 
     56     14830.023 DT 18DAF115 Rx 8  03 41 0D 00 AA AA AA AA 
     57     14847.981 DT 18DA15F1 Rx 8  02 01 10 00 00 00 00 00 
     58     14849.039 DT 18DAF115 Rx 8  04 41 10 01 64 AA AA AA 
     59     14870.420 DT 18DA15F1 Rx 8  02 01 44 00 00 00 00 00 
     60     14871.499 DT 18DAF115 Rx 8  04 41 44 7F FC AA AA AA 
     61     14897.979 DT 18DA15F1 Rx 8  02 01 0D 00 00 00 00 00 
     62     14899.527 DT 18DAF115 Rx 8  03 41 0D 00 AA AA AA AA 
     63     14928.225 DT 18DA15F1 Rx 8  02 01 10 00 00 00 00 00 
     64     14929.947 DT 18DAF115 Rx 8  04 41 10 01 6A AA AA AA 
     65     14951.729 DT 18DA15F1 Rx 8  02 01 44 00 00 00 00 00 
     66     14953.081 DT 18DAF115 Rx 8  04 41 44 7F FC AA AA AA 
     67     14975.365 DT 18DA15F1 Rx 8  02 01 0D 00 00 00 00 00 
     68     14977.052 DT 18DAF115 Rx 8  03 41 0D 00 AA AA AA AA 
     69     15005.484 DT 18DA15F1 Rx 8  02 01 10 00 00 00 00 00 
     70     15006.670 DT 18DAF115 Rx 8  04 41 10 01 6D AA AA AA 
     71     15029.223 DT 18DA15F1 Rx 8  02 01 44 00 00 00 00 00 
     72     15030.285 DT 18DAF115 Rx 8  04 41 44 7F FC AA AA AA 
     73     15055.725 DT 18DA15F1 Rx 8  02 01 0D 00 00 00 00 00 
     74     15056.917 DT 18DAF115 Rx 8  03 41 0D 00 AA AA AA AA 
     75     15116.735 DT 18DA15F1 Rx 8  02 01 10 00 00 00 00 00 
     76     15118.363 DT 18DAF115 Rx 8  04 41 10 01 67 AA AA AA 
     77     15180.479 DT 18DA15F1 Rx 8  02 01 44 00 00 00 00 00 
     78     15181.852 DT 18DAF115 Rx 8  04 41 44 7F FC AA AA AA 
     79     15234.227 DT 18DA15F1 Rx 8  02 01 0D 00 00 00 00 00 
     80     15236.067 DT 18DAF115 Rx 8  03 41 0D 00 AA AA AA AA 
     81     15312.981 DT 18DA15F1 Rx 8  02 01 10 00 00 00 00 00 
     82     15313.897 DT 18DAF115 Rx 8  04 41 10 01 5B AA AA AA 
     83     15378.126 DT 18DA15F1 Rx 8  02 01 44 00 00 00 00 00 
     84     15379.704 DT 18DAF115 Rx 8  04 41 44 7F FC AA AA AA 
     85     15430.282 DT 18DA15F1 Rx 8  02 01 0D 00 00 00 00 00 
     86     15431.693 DT 18DAF115 Rx 8  03 41 0D 00 AA AA AA AA 
     87     15479.235 DT 18DA15F1 Rx 8  02 01 10 00 00 00 00 00 
     88     15480.911 DT 18DAF115 Rx 8  04 41 10 01 5E AA AA AA 
     89     15556.724 DT 18DA15F1 Rx 8  02 01 44 00 00 00 00 00 
     90     15557.610 DT 18DAF115 Rx 8  04 41 44 7F FC AA AA AA 
     91     15622.782 DT 18DA15F1 Rx 8  02 01 0D 00 00 00 00 00 
     92     15624.238 DT 18DAF115 Rx 8  03 41 0D 00 AA AA AA AA 
     93     15694.483 DT 18DA15F1 Rx 8  02 01 10 00 00 00 00 00 
     94     15695.935 DT 18DAF115 Rx 8  04 41 10 01 64 AA AA AA 
     95     15739.225 DT 18DA15F1 Rx 8  02 01 44 00 00 00 00 00 
     96     15740.494 DT 18DAF115 Rx 8  04 41 44 7F FC AA AA AA 
     97     15797.878 DT 18DA15F1 Rx 8  02 01 0D 00 00 00 00 00 
     98     15799.376 DT 18DAF115 Rx 8  03 41 0D 00 AA AA AA AA 
     99     15931.766 DT 18DA15F1 Rx 8  02 01 10 00 00 00 00 00 
    100     15932.504 DT 18DAF115 Rx 8  04 41 10 01 64 AA AA AA 
    101     16015.649 DT 18DA15F1 Rx 8  02 01 44 00 00 00 00 00 
    102     16016.415 DT 18DAF115 Rx 8  04 41 44 7F FC AA AA AA 
    103     16044.505 DT 18DA15F1 Rx 8  02 01 0D 00 00 00 00 00 
    104     16046.168 DT 18DAF115 Rx 8  03 41 0D 00 AA AA AA AA 
    105     16071.766 DT 18DA15F1 Rx 8  02 01 10 00 00 00 00 00 
    106     16073.034 DT 18DAF115 Rx 8  04 41 10 01 6D AA AA AA 
    107     16098.012 DT 18DA15F1 Rx 8  02 01 44 00 00 00 00 00 
    108     16099.794 DT 18DAF115 Rx 8  04 41 44 7F FC AA AA AA 
    109     16123.012 DT 18DA15F1 Rx 8  02 01 0D 00 00 00 00 00 
    110     16124.014 DT 18DAF115 Rx 8  03 41 0D 00 AA AA AA AA 
    111     16140.500 DT 18DA15F1 Rx 8  02 01 10 00 00 00 00 00 
    112     16141.372 DT 18DAF115 Rx 8  04 41 10 01 63 AA AA AA 
    113     16160.761 DT 18DA15F1 Rx 8  02 01 44 00 00 00 00 00 
    114     16161.831 DT 18DAF115 Rx 8  04 41 44 7F FC AA AA AA 
    115     16189.266 DT 18DA15F1 Rx 8  02 01 0D 00 00 00 00 00 
    116     16190.544 DT 18DAF115 Rx 8  03 41 0D 00 AA AA AA AA 
    117     16210.520 DT 18DA15F1 Rx 8  02 01 10 00 00 00 00 00 
    118     16212.428 DT 18DAF115 Rx 8  04 41 10 01 6D AA AA AA 
    119     16235.522 DT 18DA15F1 Rx 8  02 01 44 00 00 00 00 00 
    120     16236.680 DT 18DAF115 Rx 8  04 41 44 7F FC AA AA AA 
    121     16273.013 DT 18DA15F1 Rx 8  02 01 0D 00 00 00 00 00 
    122     16273.887 DT 18DAF115 Rx 8  03 41 0D 00 AA AA AA AA 
    123     16305.777 DT 18DA15F1 Rx 8  02 01 10 00 00 00 00 00 
    124     16307.247 DT 18DAF115 Rx 8  04 41 10 01 63 AA AA AA 
    125     16333.009 DT 18DA15F1 Rx 8  02 01 44 00 00 00 00 00 
    126     16334.083 DT 18DAF115 Rx 8  04 41 44 7F FC AA AA AA 
    127     16413.008 DT 18DA15F1 Rx 8  02 01 0D 00 00 00 00 00 
    128     16414.815 DT 18DAF115 Rx 8  03 41 0D 00 AA AA AA AA 
    129     16476.765 DT 18DA15F1 Rx 8  02 01 10 00 00 00 00 00 
    130     16478.645 DT 18DAF115 Rx 8  04 41 10 01 6A AA AA AA 
    131     16532.816 DT 18DA15F1 Rx 8  02 01 44 00 00 00 00 00 
    132     16533.620 DT 18DAF115 Rx 8  04 41 44 7F FC AA AA AA 
    133     16578.264 DT 18DA15F1 Rx 8  02 01 0D 00 00 00 00 00 
    134     16579.636 DT 18DAF115 Rx 8  03 41 0D 00 AA AA AA AA 
    135     16637.820 DT 18DA15F1 Rx 8  02 01 10 00 00 00 00 00 
    136     16639.052 DT 18DAF115 Rx 8  04 41 10 01 6C AA AA AA 
    137     16685.515 DT 18DA15F1 Rx 8  02 01 1C 00 00 00 00 00 
    138     16687.248 DT 18DAF115 Rx 8  03 41 1C 01 AA AA AA AA 
    139     16742.910 DT 18DA15F1 Rx 8  02 01 44 00 00 00 00 00 
    140     16744.900 DT 18DAF115 Rx 8  04 41 44 7F FC AA AA AA 
    141     16814.268 DT 18DA15F1 Rx 8  02 01 0D 00 00 00 00 00 
    142     16815.178 DT 18DAF115 Rx 8  03 41 0D 00 AA AA AA AA 
    143     16903.196 DT 18DA15F1 Rx 8  02 01 10 00 00 00 00 00 
    144     16904.306 DT 18DAF115 Rx 8  04 41 10 01 62 AA AA AA 
    145     16966.694 DT 18DA15F1 Rx 8  02 01 44 00 00 00 00 00 
    146     16967.753 DT 18DAF115 Rx 8  04 41 44 7F FC AA AA AA 
    147     17022.747 DT 18DA15F1 Rx 8  02 01 0D 00 00 00 00 00 
    148     17024.018 DT 18DAF115 Rx 8  03 41 0D 00 AA AA AA AA 
    149     17094.198 DT 18DA15F1 Rx 8  02 01 10 00 00 00 00 00 
    150     17095.700 DT 18DAF115 Rx 8  04 41 10 01 6A AA AA AA 
    151     17157.945 DT 18DA15F1 Rx 8  02 01 44 00 00 00 00 00 
    152     17159.477 DT 18DAF115 Rx 8  04 41 44 7F FC AA AA AA 
    153     17211.945 DT 18DA15F1 Rx 8  02 01 0D 00 00 00 00 00 
    154     17213.551 DT 18DAF115 Rx 8  03 41 0D 00 AA AA AA AA 
    155     17267.749 DT 18DA15F1 Rx 8  02 01 10 00 00 00 00 00 
    156     17268.836 DT 18DAF115 Rx 8  04 41 10 01 61 AA AA AA 
    157     17320.255 DT 18DA15F1 Rx 8  02 01 44 00 00 00 00 00 
    158     17322.085 DT 18DAF115 Rx 8  04 41 44 7F FC AA AA AA 
    159     17372.753 DT 18DA15F1 Rx 8  02 01 0D 00 00 00 00 00 
    160     17374.353 DT 18DAF115 Rx 8  03 41 0D 00 AA AA AA AA 
    161     17416.705 DT 18DA15F1 Rx 8  02 01 10 00 00 00 00 00 
    162     17418.323 DT 18DAF115 Rx 8  04 41 10 01 6B AA AA AA 
    163     17445.697 DT 18DA15F1 Rx 8  02 01 44 00 00 00 00 00 
    164     17447.304 DT 18DAF115 Rx 8  04 41 44 7F FC AA AA AA 
    165     17472.947 DT 18DA15F1 Rx 8  02 01 0D 00 00 00 00 00 
    166     17473.809 DT 18DAF115 Rx 8  03 41 0D 00 AA AA AA AA 
    167     17501.703 DT 18DA15F1 Rx 8  02 01 10 00 00 00 00 00 
    168     17502.671 DT 18DAF115 Rx 8  04 41 10 01 68 AA AA AA 
    169     17522.951 DT 18DA15F1 Rx 8  02 01 44 00 00 00 00 00 
    170     17523.761 DT 18DAF115 Rx 8  04 41 44 7F FC AA AA AA 
    171     17541.697 DT 18DA15F1 Rx 8  02 01 0D 00 00 00 00 00 
    172     17543.852 DT 18DAF115 Rx 8  03 41 0D 00 AA AA AA AA 
    173     17570.700 DT 18DA15F1 Rx 8  02 01 10 00 00 00 00 00 
    174     17571.952 DT 18DAF115 Rx 8  04 41 10 01 6C AA AA AA 
    175     17592.946 DT 18DA15F1 Rx 8  02 01 44 00 00 00 00 00 
    176     17594.862 DT 18DAF115 Rx 8  04 41 44 7F FC AA AA AA 
    177     17617.817 DT 18DA15F1 Rx 8  02 01 0D 00 00 00 00 00 
    178     17619.051 DT 18DAF115 Rx 8  03 41 0D 00 AA AA AA AA 
    179     17659.217 DT 18DA15F1 Rx 8  02 01 10 00 00 00 00 00 
    180     17660.403 DT 18DAF115 Rx 8  04 41 10 01 6A AA AA AA 
    181     17695.585 DT 18DA15F1 Rx 8  02 01 44 00 00 00 00 00 
    182     17697.184 DT 18DAF115 Rx 8  04 41 44 7F FC AA AA AA 
    183     17822.933 DT 18DB33F1 Rx 8  02 06 00 00 00 00 00 00 
    184     17823.975 DT 18DAF115 Rx 8  06 46 00 C0 00 00 01 AA 
    185     17875.501 DT 18DB33F1 Rx 8  02 06 20 00 00 00 00 00 
    186     17877.213 DT 18DAF115 Rx 8  06 46 20 80 00 88 19 AA 
    187     17937.001 DT 18DB33F1 Rx 8  02 06 40 00 00 00 00 00 
    188     17938.683 DT 18DAF115 Rx 8  06 46 40 C0 00 00 01 AA 
    189     18025.494 DT 18DB33F1 Rx 8  02 06 60 00 00 00 00 00 
    190     18026.699 DT 18DAF115 Rx 8  06 46 60 00 00 00 01 AA 
    191     18090.405 DT 18DB33F1 Rx 8  02 06 80 00 00 00 00 00 
    192     18091.331 DT 18DAF115 Rx 8  06 46 80 80 00 00 01 AA 
    193     18142.905 DT 18DB33F1 Rx 8  02 06 A0 00 00 00 00 00 
    194     18144.553 DT 18DAF115 Rx 8  06 46 A0 78 00 00 00 AA 
    195     18436.763 DT 18DA15F1 Rx 8  02 01 0D 00 00 00 00 00 
    196     18438.365 DT 18DAF115 Rx 8  03 41 0D 00 AA AA AA AA 
    197     18492.817 DT 18DA15F1 Rx 8  02 01 10 00 00 00 00 00 
    198     18493.677 DT 18DAF115 Rx 8  04 41 10 01 60 AA AA AA 
    199     18737.803 DT 18DB33F1 Rx 8  02 08 00 00 00 00 00 00 
    200     18739.497 DT 18DAF115 Rx 8  06 48 00 80 00 00 00 AA 
    201     19046.722 DT 18DA15F1 Rx 8  02 01 44 00 00 00 00 00 
    202     19047.572 DT 18DAF115 Rx 8  04 41 44 7F FC AA AA AA 
    203     19161.727 DT 18DA15F1 Rx 8  02 01 0D 00 00 00 00 00 
    204     19163.350 DT 18DAF115 Rx 8  03 41 0D 00 AA AA AA AA 
    205     19227.780 DT 18DA15F1 Rx 8  02 01 10 00 00 00 00 00 
    206     19228.880 DT 18DAF115 Rx 8  04 41 10 01 66 AA AA AA 
    207     19299.226 DT 18DA15F1 Rx 8  02 01 44 00 00 00 00 00 
    208     19301.162 DT 18DAF115 Rx 8  04 41 44 7F FC AA AA AA 
    209     19363.223 DT 18DA15F1 Rx 8  02 01 0D 00 00 00 00 00 
    210     19364.041 DT 18DAF115 Rx 8  03 41 0D 00 AA AA AA AA 
    211     19420.377 DT 18DA15F1 Rx 8  02 01 10 00 00 00 00 00 
    212     19421.457 DT 18DAF115 Rx 8  04 41 10 01 62 AA AA AA 
    213     19491.722 DT 18DA15F1 Rx 8  02 01 44 00 00 00 00 00 
    214     19493.129 DT 18DAF115 Rx 8  04 41 44 7F FC AA AA AA 
    215     19542.755 DT 18DA15F1 Rx 8  02 01 0D 00 00 00 00 00 
    216     19544.289 DT 18DAF115 Rx 8  03 41 0D 00 AA AA AA AA 
    217     19587.977 DT 18DA15F1 Rx 8  02 01 10 00 00 00 00 00 
    218     19589.361 DT 18DAF115 Rx 8  04 41 10 01 67 AA AA AA 
    219     19636.978 DT 18DA15F1 Rx 8  02 01 44 00 00 00 00 00 
    220     19638.504 DT 18DAF115 Rx 8  04 41 44 7F FC AA AA AA 
    221     19667.976 DT 18DA15F1 Rx 8  02 01 0D 00 00 00 00 00 
    222     19669.505 DT 18DAF115 Rx 8  03 41 0D 00 AA AA AA AA 
    223     19692.977 DT 18DA15F1 Rx 8  02 01 10 00 00 00 00 00 
    224     19694.169 DT 18DAF115 Rx 8  04 41 10 01 6A AA AA AA 
    225     19725.613 DT 18DA15F1 Rx 8  02 01 44 00 00 00 00 00 
    226     19726.577 DT 18DAF115 Rx 8  04 41 44 7F FC AA AA AA 
    227     19749.227 DT 18DA15F1 Rx 8  02 01 0D 00 00 00 00 00 
    228     19750.075 DT 18DAF115 Rx 8  03 41 0D 00 AA AA AA AA 
    229     19770.735 DT 18DA15F1 Rx 8  02 01 10 00 00 00 00 00 
    230     19771.654 DT 18DAF115 Rx 8  04 41 10 01 6B AA AA AA 
    231     19797.981 DT 18DA15F1 Rx 8  02 01 44 00 00 00 00 00 
    232     19799.485 DT 18DAF115 Rx 8  04 41 44 7F FC AA AA AA 
    233     19824.227 DT 18DA15F1 Rx 8  02 01 0D 00 00 00 00 00 
    234     19825.825 DT 18DAF115 Rx 8  03 41 0D 00 AA AA AA AA 
    235     19853.045 DT 18DA15F1 Rx 8  02 01 10 00 00 00 00 00 
    236     19854.569 DT 18DAF115 Rx 8  04 41 10 01 68 AA AA AA 
    237     19881.791 DT 18DA15F1 Rx 8  02 01 44 00 00 00 00 00 
    238     19883.297 DT 18DAF115 Rx 8  04 41 44 7F FC AA AA AA 
    239     19903.287 DT 18DA15F1 Rx 8  02 01 0D 00 00 00 00 00 
    240     19904.996 DT 18DAF115 Rx 8  03 41 0D 00 AA AA AA AA 
    241     19931.798 DT 18DA15F1 Rx 8  02 01 10 00 00 00 00 00 
    242     19933.488 DT 18DAF115 Rx 8  04 41 10 01 68 AA AA AA 
    243     19955.540 DT 18DA15F1 Rx 8  02 01 44 00 00 00 00 00 
    244     19957.060 DT 18DAF115 Rx 8  04 41 44 7F FC AA AA AA 
    245     19980.504 DT 18DA15F1 Rx 8  02 01 0D 00 00 00 00 00 
    246     19981.540 DT 18DAF115 Rx 8  03 41 0D 00 AA AA AA AA 
    247     20008.046 DT 18DA15F1 Rx 8  02 01 10 00 00 00 00 00 
    248     20009.269 DT 18DAF115 Rx 8  04 41 10 01 6B AA AA AA 
    249     20042.040 DT 18DA15F1 Rx 8  02 01 44 00 00 00 00 00 
    250     20043.880 DT 18DAF115 Rx 8  04 41 44 7F FC AA AA AA 
    251     20085.538 DT 18DA15F1 Rx 8  02 01 0D 00 00 00 00 00 
    252     20087.116 DT 18DAF115 Rx 8  03 41 0D 00 AA AA AA AA 
    253     20113.044 DT 18DA15F1 Rx 8  02 01 10 00 00 00 00 00 
    254     20114.074 DT 18DAF115 Rx 8  04 41 10 01 60 AA AA AA 
    255     20138.008 DT 18DA15F1 Rx 8  02 01 44 00 00 00 00 00 
    256     20139.805 DT 18DAF115 Rx 8  04 41 44 7F FC AA AA AA 
    257     20165.541 DT 18DA15F1 Rx 8  02 01 0D 00 00 00 00 00 
    258     20166.981 DT 18DAF115 Rx 8  03 41 0D 00 AA AA AA AA 
    259     20190.804 DT 18DA15F1 Rx 8  02 01 10 00 00 00 00 00 
    260     20192.498 DT 18DAF115 Rx 8  04 41 10 01 61 AA AA AA 
    261     20260.448 DT 18DA15F1 Rx 8  02 01 44 00 00 00 00 00 
    262     20261.212 DT 18DAF115 Rx 8  04 41 44 7F FC AA AA AA 
    263     20331.794 DT 18DA15F1 Rx 8  02 01 0D 00 00 00 00 00 
    264     20333.112 DT 18DAF115 Rx 8  03 41 0D 00 AA AA AA AA 
    265     20376.798 DT 18DA15F1 Rx 8  02 01 10 00 00 00 00 00 
    266     20377.924 DT 18DAF115 Rx 8  04 41 10 01 70 AA AA AA 
    267     20459.298 DT 18DA15F1 Rx 8  02 01 44 00 00 00 00 00 
    268     20460.970 DT 18DAF115 Rx 8  04 41 44 7F FC AA AA AA 
    269     20507.046 DT 18DA15F1 Rx 8  02 01 0D 00 00 00 00 00 
    270     20508.152 DT 18DAF115 Rx 8  03 41 0D 00 AA AA AA AA 
    271     20533.051 DT 18DA15F1 Rx 8  02 01 10 00 00 00 00 00 
    272     20534.099 DT 18DAF115 Rx 8  04 41 10 01 6E AA AA AA 
    273     20557.975 DT 18DA15F1 Rx 8  02 01 44 00 00 00 00 00 
    274     20559.108 DT 18DAF115 Rx 8  04 41 44 7F FC AA AA AA 
    275     20588.044 DT 18DA15F1 Rx 8  02 01 0D 00 00 00 00 00 
    276     20588.894 DT 18DAF115 Rx 8  03 41 0D 00 AA AA AA AA 
    277     20649.296 DT 18DA15F1 Rx 8  02 01 10 00 00 00 00 00 
    278     20650.348 DT 18DAF115 Rx 8  04 41 10 01 6C AA AA AA 
    279     20707.037 DT 18DA15F1 Rx 8  02 01 44 00 00 00 00 00 
    280     20708.097 DT 18DAF115 Rx 8  04 41 44 7F FC AA AA AA 
    281     20733.031 DT 18DA15F1 Rx 8  02 01 0D 00 00 00 00 00 
    282     20734.550 DT 18DAF115 Rx 8  03 41 0D 00 AA AA AA AA 
    283     20761.798 DT 18DA15F1 Rx 8  02 01 10 00 00 00 00 00 
    284     20763.308 DT 18DAF115 Rx 8  04 41 10 01 67 AA AA AA 
    285     20824.292 DT 18DA15F1 Rx 8  02 01 44 00 00 00 00 00 
    286     20825.368 DT 18DAF115 Rx 8  04 41 44 7F FC AA AA AA 
    287     20869.231 DT 18DA15F1 Rx 8  02 01 0D 00 00 00 00 00 
    288     20870.367 DT 18DAF115 Rx 8  03 41 0D 00 AA AA AA AA 
    289     20901.981 DT 18DA15F1 Rx 8  02 01 10 00 00 00 00 00 
    290     20903.276 DT 18DAF115 Rx 8  04 41 10 01 73 AA AA AA 
    291     20947.988 DT 18DA15F1 Rx 8  02 01 44 00 00 00 00 00 
    292     20949.518 DT 18DAF115 Rx 8  04 41 44 7F FC AA AA AA 
    293     20977.836 DT 18DA15F1 Rx 8  02 01 0D 00 00 00 00 00 
    294     20978.970 DT 18DAF115 Rx 8  03 41 0D 00 AA AA AA AA 
    295     21005.491 DT 18DA15F1 Rx 8  02 01 10 00 00 00 00 00 
    296     21006.649 DT 18DAF115 Rx 8  04 41 10 01 61 AA AA AA 
    297     21030.347 DT 18DA15F1 Rx 8  02 01 44 00 00 00 00 00 
    298     21032.175 DT 18DAF115 Rx 8  04 41 44 7F FC AA AA AA 
    299     21108.106 DT 18DB33F1 Rx 8  02 09 00 00 00 00 00 00 
    300     21109.098 DT 18DAF115 Rx 8  06 49 00 55 40 37 89 AA 
    301     21117.584 DT 18DAF118 Rx 8  06 49 00 14 40 00 00 AA 
    302     21184.223 DT 18DB33F1 Rx 8  02 09 20 00 00 00 00 00 
    303     21185.873 DT 18DAF115 Rx 8  06 49 20 10 00 00 00 AA 
    304     21359.234 DT 18DA15F1 Rx 8  02 01 0D 00 00 00 00 00 
    305     21361.316 DT 18DAF115 Rx 8  03 41 0D 00 AA AA AA AA 
    306     21380.456 DT 18DA15F1 Rx 8  02 01 10 00 00 00 00 00 
    307     21381.415 DT 18DAF115 Rx 8  04 41 10 01 68 AA AA AA 
    308     21408.237 DT 18DA15F1 Rx 8  02 01 44 00 00 00 00 00 
    309     21410.221 DT 18DAF115 Rx 8  04 41 44 7F FC AA AA AA 
    310     21441.739 DT 18DA15F1 Rx 8  02 01 0D 00 00 00 00 00 
    311     21442.891 DT 18DAF115 Rx 8  03 41 0D 00 AA AA AA AA 
    312     21460.495 DT 18DA15F1 Rx 8  02 01 10 00 00 00 00 00 
    313     21461.817 DT 18DAF115 Rx 8  04 41 10 01 6D AA AA AA 
    314     21499.234 DT 18DA15F1 Rx 8  02 01 44 00 00 00 00 00 
    315     21500.539 DT 18DAF115 Rx 8  04 41 44 7F FC AA AA AA 
    316     21555.291 DT 18DA15F1 Rx 8  02 01 0D 00 00 00 00 00 
    317     21556.465 DT 18DAF115 Rx 8  03 41 0D 00 AA AA AA AA 
    318     21608.043 DT 18DA15F1 Rx 8  02 01 10 00 00 00 00 00 
    319     21609.103 DT 18DAF115 Rx 8  04 41 10 01 67 AA AA AA 
    320     21677.890 DT 18DA15F1 Rx 8  02 01 44 00 00 00 00 00 
    321     21679.552 DT 18DAF115 Rx 8  04 41 44 7F FC AA AA AA 
    322     21730.388 DT 18DA15F1 Rx 8  02 01 0D 00 00 00 00 00 
    323     21731.934 DT 18DAF115 Rx 8  03 41 0D 00 AA AA AA AA 
    324     21782.793 DT 18DA15F1 Rx 8  02 01 10 00 00 00 00 00 
    325     21783.821 DT 18DAF115 Rx 8  04 41 10 01 6B AA AA AA 
    326     21849.230 DT 18DA15F1 Rx 8  02 01 44 00 00 00 00 00 
    327     21850.720 DT 18DAF115 Rx 8  04 41 44 7F FC AA AA AA 
    328     21884.472 DT 18DA15F1 Rx 8  02 01 0D 00 00 00 00 00 
    329     21885.568 DT 18DAF115 Rx 8  03 41 0D 00 AA AA AA AA 
    330     21936.726 DT 18DA15F1 Rx 8  02 01 10 00 00 00 00 00 
    331     21937.418 DT 18DAF115 Rx 8  04 41 10 01 62 AA AA AA 
    332     21992.779 DT 18DA15F1 Rx 8  02 01 44 00 00 00 00 00 
    333     21994.751 DT 18DAF115 Rx 8  04 41 44 7F FC AA AA AA 
    334     22115.378 DT 18DA15F1 Rx 8  02 01 0D 00 00 00 00 00 
    335     22116.744 DT 18DAF115 Rx 8  03 41 0D 00 AA AA AA AA 
    336     22249.231 DT 18DA15F1 Rx 8  02 01 10 00 00 00 00 00 
    337     22251.161 DT 18DAF115 Rx 8  04 41 10 01 6A AA AA AA 
    338     22308.123 DT 18DA15F1 Rx 8  02 01 44 00 00 00 00 00 
    339     22309.211 DT 18DAF115 Rx 8  04 41 44 7F FC AA AA AA 
    340     22379.226 DT 18DA15F1 Rx 8  02 01 0D 00 00 00 00 00 
    341     22380.935 DT 18DAF115 Rx 8  03 41 0D 00 AA AA AA AA 
    342     22426.729 DT 18DA15F1 Rx 8  02 01 10 00 00 00 00 00 
    343     22428.307 DT 18DAF115 Rx 8  04 41 10 01 67 AA AA AA 
    344     22482.782 DT 18DA15F1 Rx 8  02 01 44 00 00 00 00 00 
    345     22484.250 DT 18DAF115 Rx 8  04 41 44 7F FC AA AA AA 
    346     22531.724 DT 18DA15F1 Rx 8  02 01 0D 00 00 00 00 00 
    347     22532.586 DT 18DAF115 Rx 8  03 41 0D 00 AA AA AA AA 
    348     22588.132 DT 18DA15F1 Rx 8  02 01 10 00 00 00 00 00 
    349     22589.808 DT 18DAF115 Rx 8  04 41 10 01 6A AA AA AA 
    350     22659.228 DT 18DA15F1 Rx 8  02 01 44 00 00 00 00 00 
    351     22661.322 DT 18DAF115 Rx 8  04 41 44 7F FC AA AA AA 
    352     22710.266 DT 18DA15F1 Rx 8  02 01 0D 00 00 00 00 00 
    353     22711.578 DT 18DAF115 Rx 8  03 41 0D 00 AA AA AA AA 
    354     22801.729 DT 18DA15F1 Rx 8  02 01 10 00 00 00 00 00 
    355     22803.121 DT 18DAF115 Rx 8  04 41 10 01 76 AA AA AA 
    356     22846.792 DT 18DA15F1 Rx 8  02 01 44 00 00 00 00 00 
    357     22848.284 DT 18DAF115 Rx 8  04 41 44 7F FC AA AA AA 
    358     22899.544 DT 18DA15F1 Rx 8  02 01 0D 00 00 00 00 00 
    359     22901.175 DT 18DAF115 Rx 8  03 41 0D 00 AA AA AA AA 
    360     22955.347 DT 18DA15F1 Rx 8  02 01 10 00 00 00 00 00 
    361     22956.489 DT 18DAF115 Rx 8  04 41 10 01 72 AA AA AA 
    362     23000.547 DT 18DA15F1 Rx 8  02 01 44 00 00 00 00 00 
    363     23001.835 DT 18DAF115 Rx 8  04 41 44 7F FC AA AA AA 
    364     23020.544 DT 18DA15F1 Rx 8  02 01 0D 00 00 00 00 00 
    365     23022.350 DT 18DAF115 Rx 8  03 41 0D 00 AA AA AA AA 
    366     23045.543 DT 18DA15F1 Rx 8  02 01 10 00 00 00 00 00 
    367     23046.601 DT 18DAF115 Rx 8  04 41 10 01 7A AA AA AA 
    368     23070.795 DT 18DA15F1 Rx 8  02 01 44 00 00 00 00 00 
    369     23072.115 DT 18DAF115 Rx 8  04 41 44 7F FC AA AA AA 
    370     23112.847 DT 18DA15F1 Rx 8  02 01 0D 00 00 00 00 00 
    371     23114.473 DT 18DAF115 Rx 8  03 41 0D 00 AA AA AA AA 
    372     23184.294 DT 18DA15F1 Rx 8  02 01 10 00 00 00 00 00 
    373     23186.148 DT 18DAF115 Rx 8  04 41 10 01 70 AA AA AA 
    374     23273.042 DT 18DA15F1 Rx 8  02 01 44 00 00 00 00 00 
